(1520950960.000000) can0 3D9#00000C80000000
(1520950960.200000) can0 3D9#00000CD0000000
(1520950960.400000) can0 3D9#00000D20000000
(1520950960.600000) can0 3D9#00000D70000000
(1520950960.800000) can0 3D9#00000DC0000000
(1520950961.000000) can0 3D9#00000E10000000
(1520950961.200000) can0 3D9#00000E60000000
(1520950961.400000) can0 3D9#00000EB0000000
(1520950961.600000) can0 3D9#00000F00000000
(1520950961.800000) can0 3D9#00000F50000000
(1520950962.000000) can0 3D9#00000FA0000000
(1520950962.200000) can0 3D9#00000FF0000000
(1520950962.400000) can0 3D9#00001040000000
(1520950962.600000) can0 3D9#00001090000000
(1520950962.800000) can0 3D9#000010E0000000
(1520950963.000000) can0 3D9#00001130000000
(1520950963.200000) can0 3D9#00001180000000
(1520950963.400000) can0 3D9#000011D0000000
(1520950963.600000) can0 3D9#00001220000000
(1520950963.800000) can0 3D9#00001270000000
(1520950964.000000) can0 3D9#000012C0000000
(1520950964.200000) can0 3D9#00001310000000
(1520950964.400000) can0 3D9#00001360000000
(1520950964.600000) can0 3D9#000013B0000000
(1520950964.800000) can0 3D9#00001400000000
(1520950965.000000) can0 3D9#00001450000000
(1520950965.200000) can0 3D9#000014A0000000
(1520950965.400000) can0 3D9#000014F0000000
(1520950965.600000) can0 3D9#00001540000000
(1520950965.800000) can0 3D9#00001590000000
(1520950966.000000) can0 3D9#000015E0000000
(1520950966.200000) can0 3D9#00001630000000
(1520950966.400000) can0 3D9#00001680000000
(1520950966.600000) can0 3D9#000016D0000000
(1520950966.800000) can0 3D9#00001720000000
(1520950967.000000) can0 3D9#00001770000000
(1520950967.200000) can0 3D9#000017C0000000
(1520950967.400000) can0 3D9#00001810000000
(1520950967.600000) can0 3D9#00001860000000
(1520950967.800000) can0 3D9#000018B0000000
(1520950968.000000) can0 3D9#00001900000000
(1520950968.200000) can0 3D9#00001950000000
(1520950968.400000) can0 3D9#000019A0000000
(1520950968.600000) can0 3D9#000019F0000000
(1520950968.800000) can0 3D9#00001A40000000



(1520950970.000000) can0 3D9#00001A40000000
(1520950970.200000) can0 3D9#000019F0000000
(1520950970.400000) can0 3D9#000019A0000000
(1520950970.600000) can0 3D9#00001950000000
(1520950970.800000) can0 3D9#00001900000000
(1520950971.000000) can0 3D9#000018B0000000
(1520950971.200000) can0 3D9#00001860000000
(1520950971.400000) can0 3D9#00001810000000
(1520950971.600000) can0 3D9#000017C0000000
(1520950971.800000) can0 3D9#00001770000000
(1520950972.000000) can0 3D9#00001720000000
(1520950972.200000) can0 3D9#000016D0000000
(1520950972.400000) can0 3D9#00001680000000
(1520950972.600000) can0 3D9#00001630000000
(1520950972.800000) can0 3D9#000015E0000000
(1520950973.000000) can0 3D9#00001590000000
(1520950973.200000) can0 3D9#00001540000000
(1520950973.400000) can0 3D9#000014F0000000
(1520950973.600000) can0 3D9#000014A0000000
(1520950973.800000) can0 3D9#00001450000000
(1520950974.000000) can0 3D9#00001400000000
(1520950974.200000) can0 3D9#000013B0000000
(1520950974.400000) can0 3D9#00001360000000
(1520950974.600000) can0 3D9#00001310000000
(1520950974.800000) can0 3D9#000012C0000000
(1520950975.000000) can0 3D9#00001270000000
(1520950975.200000) can0 3D9#00001220000000
(1520950975.400000) can0 3D9#000011D0000000
(1520950975.600000) can0 3D9#00001180000000
(1520950975.800000) can0 3D9#00001130000000
(1520950976.000000) can0 3D9#000010E0000000
(1520950976.200000) can0 3D9#00001090000000
(1520950976.400000) can0 3D9#00001040000000
(1520950976.600000) can0 3D9#00000FF0000000
(1520950976.800000) can0 3D9#00000FA0000000
(1520950977.000000) can0 3D9#00000F50000000
(1520950977.200000) can0 3D9#00000F00000000
(1520950977.400000) can0 3D9#00000EB0000000
(1520950977.600000) can0 3D9#00000E60000000
(1520950977.800000) can0 3D9#00000E10000000
(1520950978.000000) can0 3D9#00000DC0000000
(1520950978.200000) can0 3D9#00000D70000000
(1520950978.400000) can0 3D9#00000D20000000
(1520950978.600000) can0 3D9#00000CD0000000
(1520950978.800000) can0 3D9#00000C80000000
