(1481581765.286242) can0 3E9#0000
(1481581765.346271) can0 3E9#0000
(1481581765.406266) can0 3E9#0000
(1481581765.466255) can0 3E9#0000
(1481581765.526264) can0 3E9#0200
(1481581765.586262) can0 3E9#0200
(1481581765.646260) can0 3E9#0200
(1481581765.706260) can0 3E9#0200
(1481581765.766257) can0 3E9#0400
(1481581765.826264) can0 3E9#0400
(1481581765.886253) can0 3E9#0400
(1481581765.946222) can0 3E9#0400
(1481581766.006240) can0 3E9#0600
(1481581766.066240) can0 3E9#0600
(1481581766.126236) can0 3E9#0600
(1481581766.186235) can0 3E9#0600
(1481581766.246243) can0 3E9#0800
(1481581766.306253) can0 3E9#0800
(1481581766.366256) can0 3E9#0800
(1481581766.426257) can0 3E9#0800
(1481581766.486242) can0 3E9#0A00
(1481581766.546247) can0 3E9#0A00
(1481581766.606244) can0 3E9#0A00
(1481581766.666242) can0 3E9#0A00
(1481581766.726240) can0 3E9#0C00
(1481581766.786252) can0 3E9#0C00
(1481581766.846237) can0 3E9#0C00
(1481581766.906245) can0 3E9#0C00
(1481581766.966235) can0 3E9#0E00
(1481581767.026244) can0 3E9#0E00
(1481581767.086240) can0 3E9#0E00
(1481581767.146200) can0 3E9#0E00
(1481581767.206217) can0 3E9#1000
(1481581767.266225) can0 3E9#1000
(1481581767.326224) can0 3E9#1000
(1481581767.386222) can0 3E9#1000
(1481581767.446211) can0 3E9#1200
(1481581767.506209) can0 3E9#1200
(1481581767.566219) can0 3E9#1200
(1481581767.626217) can0 3E9#1200
(1481581767.686214) can0 3E9#1400
(1481581767.746212) can0 3E9#1400
(1481581767.806180) can0 3E9#1400
(1481581767.866211) can0 3E9#1400
(1481581767.926217) can0 3E9#1600
(1481581767.986216) can0 3E9#1600
(1481581768.046175) can0 3E9#1600
(1481581768.106203) can0 3E9#1600
(1481581768.166203) can0 3E9#1800
(1481581768.226211) can0 3E9#1800
(1481581768.286197) can0 3E9#1800
(1481581768.346195) can0 3E9#1800
(1481581768.406186) can0 3E9#1A00
(1481581768.466194) can0 3E9#1A00
(1481581768.526191) can0 3E9#1A00
(1481581768.586191) can0 3E9#1A00
(1481581768.646199) can0 3E9#1C00
(1481581768.706206) can0 3E9#1C00
(1481581768.766165) can0 3E9#1C00
(1481581768.826194) can0 3E9#1C00
(1481581768.886202) can0 3E9#1E00
(1481581768.946200) can0 3E9#1E00
(1481581769.006198) can0 3E9#1E00
(1481581769.066208) can0 3E9#1E00
(1481581769.126205) can0 3E9#2000
(1481581769.186203) can0 3E9#2000
(1481581769.246192) can0 3E9#2000
(1481581769.306190) can0 3E9#2000
(1481581769.366188) can0 3E9#2200
(1481581769.426188) can0 3E9#2200
(1481581769.486199) can0 3E9#2200
(1481581769.546179) can0 3E9#2200
(1481581769.606174) can0 3E9#2400
(1481581769.666171) can0 3E9#2400
(1481581769.726151) can0 3E9#2400
(1481581769.786146) can0 3E9#2400
(1481581769.846186) can0 3E9#2600
(1481581769.906186) can0 3E9#2600
(1481581769.966183) can0 3E9#2600
(1481581770.026187) can0 3E9#2600
(1481581770.086180) can0 3E9#2800
(1481581770.146176) can0 3E9#2800
(1481581770.206175) can0 3E9#2800
(1481581770.266174) can0 3E9#2800
(1481581770.326184) can0 3E9#2A00
(1481581770.386181) can0 3E9#2A00
(1481581770.446150) can0 3E9#2A00
(1481581770.506150) can0 3E9#2A00
(1481581770.566186) can0 3E9#2C00
(1481581770.626174) can0 3E9#2C00
(1481581770.686172) can0 3E9#2C00
(1481581770.746142) can0 3E9#2C00
(1481581770.806149) can0 3E9#2E00
(1481581770.866148) can0 3E9#2E00
(1481581770.926157) can0 3E9#2E00
(1481581770.986144) can0 3E9#2E00
(1481581771.046153) can0 3E9#3000
(1481581771.106162) can0 3E9#3000
(1481581771.166160) can0 3E9#3000
(1481581771.226147) can0 3E9#3000
(1481581771.286159) can0 3E9#3200
(1481581771.346155) can0 3E9#3200
(1481581771.406153) can0 3E9#3200
(1481581771.466151) can0 3E9#3200
(1481581778.571175) can0 3D9#004B8813000000
(1481581779.342923) can0 3D9#004B8813000000
(1481581779.541757) can0 3D9#004B8813000000
(1481581779.738853) can0 3D9#004B8813000000
(1481581779.927710) can0 3D9#004B8813000000
(1481581780.087507) can0 3D9#004B8813000000
(1481581782.185854) can0 3E9#00C8
(1481581782.386485) can0 3E9#00C8
(1481581782.587542) can0 3E9#00C8
(1481581782.776569) can0 3E9#00C8
(1481581782.949774) can0 3E9#00C8
(1481581784.617935) can0 3E9#0000
(1481581784.677931) can0 3E9#0000
(1481581784.737939) can0 3E9#0000
(1481581784.797908) can0 3E9#0000
(1481581784.857937) can0 3E9#0200
(1481581784.917945) can0 3E9#0200
(1481581784.977937) can0 3E9#0200
(1481581785.037938) can0 3E9#0200
(1481581785.097931) can0 3E9#0400
(1481581785.157931) can0 3E9#0400
(1481581785.217936) can0 3E9#0400
(1481581785.277926) can0 3E9#0400
(1481581785.337923) can0 3E9#0600
(1481581785.397912) can0 3E9#0600
(1481581785.457912) can0 3E9#0600
(1481581785.517908) can0 3E9#0600
(1481581785.577926) can0 3E9#0800
(1481581785.637916) can0 3E9#0800
(1481581785.697925) can0 3E9#0800
(1481581785.757921) can0 3E9#0800
(1481581785.817920) can0 3E9#0A00
(1481581785.877918) can0 3E9#0A00
(1481581785.937916) can0 3E9#0A00
(1481581785.997915) can0 3E9#0A00
(1481581786.057925) can0 3E9#0C00
(1481581786.117922) can0 3E9#0C00
(1481581786.177919) can0 3E9#0C00
(1481581786.237918) can0 3E9#0C00
(1481581786.297918) can0 3E9#0E00
(1481581786.357915) can0 3E9#0E00
(1481581786.417873) can0 3E9#0E00
(1481581786.477901) can0 3E9#0E00
(1481581786.537890) can0 3E9#1000
(1481581786.597869) can0 3E9#1000
(1481581786.657899) can0 3E9#1000
(1481581786.717897) can0 3E9#1000
(1481581786.777894) can0 3E9#1200
(1481581786.837882) can0 3E9#1200
(1481581786.897891) can0 3E9#1200
(1481581786.957889) can0 3E9#1200
(1481581787.017887) can0 3E9#1400
(1481581787.077896) can0 3E9#1400
(1481581787.137854) can0 3E9#1400
(1481581787.197883) can0 3E9#1400
(1481581787.257892) can0 3E9#1600
(1481581787.317851) can0 3E9#1600
(1481581787.377877) can0 3E9#1600
(1481581787.437876) can0 3E9#1600
(1481581787.497875) can0 3E9#1800
(1481581787.557882) can0 3E9#1800
(1481581787.617875) can0 3E9#1800
(1481581787.677881) can0 3E9#1800
(1481581787.737867) can0 3E9#1A00
(1481581787.797866) can0 3E9#1A00
(1481581787.857864) can0 3E9#1A00
(1481581787.917864) can0 3E9#1A00
(1481581787.977871) can0 3E9#1C00
(1481581788.037891) can0 3E9#1C00
(1481581788.097847) can0 3E9#1C00
(1481581788.157869) can0 3E9#1C00
(1481581788.217875) can0 3E9#1E00
(1481581788.277872) can0 3E9#1E00
(1481581788.337872) can0 3E9#1E00
(1481581788.397880) can0 3E9#1E00
(1481581788.457878) can0 3E9#2000
(1481581788.517849) can0 3E9#2000
(1481581788.577866) can0 3E9#2000
(1481581788.637864) can0 3E9#2000
(1481581788.697862) can0 3E9#2200
(1481581788.757861) can0 3E9#2200
(1481581788.817858) can0 3E9#2200
(1481581788.877857) can0 3E9#2200
(1481581788.937855) can0 3E9#2400
(1481581788.997854) can0 3E9#2400
(1481581789.057823) can0 3E9#2400
(1481581789.117822) can0 3E9#2400
(1481581789.177859) can0 3E9#2600
(1481581789.237857) can0 3E9#2600
(1481581789.297855) can0 3E9#2600
(1481581789.357854) can0 3E9#2600
(1481581789.417853) can0 3E9#2800
(1481581789.477850) can0 3E9#2800
(1481581789.537849) can0 3E9#2800
(1481581789.597821) can0 3E9#2800
(1481581789.657855) can0 3E9#2A00
(1481581789.717856) can0 3E9#2A00
(1481581789.777854) can0 3E9#2A00
(1481581789.837850) can0 3E9#2A00
(1481581789.897849) can0 3E9#2C00
(1481581789.957850) can0 3E9#2C00
(1481581790.017847) can0 3E9#2C00
(1481581790.077854) can0 3E9#2C00
(1481581790.137823) can0 3E9#2E00
(1481581790.197832) can0 3E9#2E00
(1481581790.257819) can0 3E9#2E00
(1481581790.317818) can0 3E9#2E00
(1481581790.377797) can0 3E9#3000
(1481581790.437825) can0 3E9#3000
(1481581790.497832) can0 3E9#3000
(1481581790.557823) can0 3E9#3000
(1481581790.617829) can0 3E9#3200
(1481581790.677827) can0 3E9#3200
(1481581790.737826) can0 3E9#3200
(1481581790.797827) can0 3E9#3200
