(1520950980.000000) can0 3D9#00003390000000
(1520950980.200000) can0 3D9#000033E0000000
(1520950980.400000) can0 3D9#00003430000000
(1520950980.600000) can0 3D9#00003480000000
(1520950980.800000) can0 3D9#000034D0000000
(1520950981.000000) can0 3D9#00003520000000
(1520950981.200000) can0 3D9#00003570000000
(1520950981.400000) can0 3D9#000035C0000000
(1520950981.600000) can0 3D9#00003610000000
(1520950981.800000) can0 3D9#00003660000000
(1520950982.000000) can0 3D9#000036B0000000
(1520950982.200000) can0 3D9#00003700000000
(1520950982.400000) can0 3D9#00003750000000
(1520950982.600000) can0 3D9#000037A0000000
(1520950982.800000) can0 3D9#000037F0000000
(1520950983.000000) can0 3D9#00003840000000
(1520950983.200000) can0 3D9#00003890000000
(1520950983.400000) can0 3D9#000038E0000000
(1520950983.600000) can0 3D9#00003930000000
(1520950983.800000) can0 3D9#00003980000000
(1520950984.000000) can0 3D9#000039D0000000
(1520950984.200000) can0 3D9#00003A20000000
(1520950984.400000) can0 3D9#00003A70000000
(1520950984.600000) can0 3D9#00003AC0000000
(1520950984.800000) can0 3D9#00003B10000000
(1520950985.000000) can0 3D9#00003B60000000
(1520950985.200000) can0 3D9#00003BB0000000
(1520950985.400000) can0 3D9#00003C00000000
(1520950985.600000) can0 3D9#00003C50000000
(1520950985.800000) can0 3D9#00003CA0000000
(1520950986.000000) can0 3D9#00003CF0000000
(1520950986.200000) can0 3D9#00003D40000000
(1520950986.400000) can0 3D9#00003D90000000
(1520950986.600000) can0 3D9#00003DE0000000
(1520950986.800000) can0 3D9#00003E30000000
(1520950987.000000) can0 3D9#00003E80000000
(1520950987.200000) can0 3D9#00003ED0000000
(1520950987.400000) can0 3D9#00003F20000000
(1520950987.600000) can0 3D9#00003F70000000
(1520950987.800000) can0 3D9#00003FC0000000
(1520950988.000000) can0 3D9#00004010000000
(1520950988.200000) can0 3D9#00004060000000
(1520950988.400000) can0 3D9#000040B0000000
(1520950988.600000) can0 3D9#00004100000000
(1520950988.800000) can0 3D9#00004150000000



(1520950990.000000) can0 3D9#00004150000000
(1520950990.200000) can0 3D9#00004100000000
(1520950990.400000) can0 3D9#000040B0000000
(1520950990.600000) can0 3D9#00004060000000
(1520950992.800000) can0 3D9#00004010000000
(1520950991.000000) can0 3D9#00003FC0000000
(1520950991.200000) can0 3D9#00003F70000000
(1520950991.400000) can0 3D9#00003F20000000
(1520950991.600000) can0 3D9#00003ED0000000
(1520950991.800000) can0 3D9#00003E80000000
(1520950992.000000) can0 3D9#00003E30000000
(1520950992.200000) can0 3D9#00003DE0000000
(1520950992.400000) can0 3D9#00003D90000000
(1520950992.600000) can0 3D9#00003D40000000
(1520950992.800000) can0 3D9#00003CF0000000
(1520950993.000000) can0 3D9#00003CA0000000
(1520950993.200000) can0 3D9#00003C50000000
(1520950993.400000) can0 3D9#00003C00000000
(1520950993.600000) can0 3D9#00003BB0000000
(1520950993.800000) can0 3D9#00003B60000000
(1520950994.000000) can0 3D9#00003B10000000
(1520950994.200000) can0 3D9#00003AC0000000
(1520950994.400000) can0 3D9#00003A70000000
(1520950994.600000) can0 3D9#00003A20000000
(1520950994.800000) can0 3D9#000039D0000000
(1520950995.000000) can0 3D9#00003980000000
(1520950995.200000) can0 3D9#00003930000000
(1520950995.400000) can0 3D9#000038E0000000
(1520950995.600000) can0 3D9#00003890000000
(1520950995.800000) can0 3D9#00003840000000
(1520950996.000000) can0 3D9#000037F0000000
(1520950996.200000) can0 3D9#000037A0000000
(1520950996.400000) can0 3D9#00003750000000
(1520950996.600000) can0 3D9#00003700000000
(1520950996.800000) can0 3D9#000036B0000000
(1520950997.000000) can0 3D9#00003660000000
(1520950997.200000) can0 3D9#00003610000000
(1520950997.400000) can0 3D9#000035C0000000
(1520950997.600000) can0 3D9#00003570000000
(1520950997.800000) can0 3D9#00003520000000
(1520950998.000000) can0 3D9#000034D0000000
(1520950998.200000) can0 3D9#00003480000000
(1520950998.400000) can0 3D9#00003430000000
(1520950998.600000) can0 3D9#000033E0000000
(1520950998.800000) can0 3D9#00003390000000
