(1485366079.567616) can0 260#0800000000000779
(1485366079.570258) can0 0B2#000000000004
(1485366079.570476) can0 0B0#000000000004
(1485366079.573074) can0 2C4#03EA00140000A271
(1485366079.580360) can0 0B2#000000000005
(1485366079.580520) can0 0B0#000000000005
(1485366079.580873) can0 0B4#00000000000000BC
(1485366079.582632) can0 2C1#08FF54FF4A00006F
(1485366079.587861) can0 260#0800000000FFF364
(1485366079.589251) can0 440#4202000007000000
(1485366079.590289) can0 0B2#000000000006
(1485366079.590496) can0 0B0#000000000006
(1485366079.590771) can0 223#0000007FE000008C
(1485366079.591034) can0 224#0000000000000000
(1485366079.592654) can0 2C4#03E900140000A270
(1485366079.594853) can0 620#1000000030600050
(1485366079.600305) can0 0B2#000000000007
(1485366079.600517) can0 0B0#000000000007
(1485366079.600792) can0 0B4#00000000000000BC
(1485366079.608076) can0 260#0800000000000173
(1485366079.610347) can0 0B2#000000000008
(1485366079.610473) can0 0B0#000000000008
(1485366079.612925) can0 2C1#08FF5AFF5000007B
(1485366079.613129) can0 2C4#03E700140000A26E
(1485366079.620495) can0 0B2#000000000009
(1485366079.620623) can0 0B0#000000000009
(1485366079.620921) can0 223#0000007FE000008C
(1485366079.621250) can0 0B4#00000000000000BC
(1485366079.621394) can0 224#0000000000000000
(1485366079.621670) can0 4C3#0400300500000000
(1485366079.628323) can0 260#0800000000FFF768
(1485366079.630374) can0 0B2#00000000000A
(1485366079.630498) can0 0B0#00000000000A
(1485366079.632702) can0 2C4#03E500140000A26C
(1485366079.633156) can0 3A0#0000000000000014
(1485366079.638300) can0 394#00
(1485366079.640401) can0 0B2#00000000000B
(1485366079.640525) can0 0B0#00000000000B
(1485366079.640868) can0 0B4#00000000000000BC
(1485366079.642698) can0 2C1#08FF67FF60000098
(1485366079.648529) can0 260#0800000000FFFC6D
(1485366079.650372) can0 0B2#00000000000C
(1485366079.650496) can0 0B0#00000000000C
(1485366079.650807) can0 223#0000007FE000008C
(1485366079.651112) can0 224#0000000000000000
(1485366079.652720) can0 2C4#03E400140000A26B
(1485366079.660373) can0 0B2#00000000000D
(1485366079.660498) can0 0B0#00000000000D
(1485366079.660863) can0 0B4#00000000000000BC
(1485366079.668709) can0 260#0800000000FFF768
(1485366079.670298) can0 0B2#00000000000E
(1485366079.670416) can0 0B0#00000000000E
(1485366079.672701) can0 2C1#08FF6AFF6400009F
(1485366079.672852) can0 2C4#03E300140000A26A
(1485366079.674848) can0 621#1100000000000000
(1485366079.680423) can0 0B2#00000000000F
(1485366079.680570) can0 0B0#00000000000F
(1485366079.680857) can0 223#0000007FE000008C
(1485366079.681103) can0 0B4#00000000000000BC
(1485366079.681377) can0 224#0000000000000000
(1485366079.681646) can0 3B7#0000000000000000
(1485366079.683399) can0 622#1200000000000000
(1485366079.683551) can0 442#4002000003000000
(1485366079.688944) can0 260#0800000000000779
(1485366079.690273) can0 0B2#000000000000
(1485366079.690398) can0 0B0#000000000000
(1485366079.692601) can0 624#1A0057FFFF400000
(1485366079.692745) can0 2C4#03E300140000A26A
(1485366079.693874) can0 4ED#5C00000000000000
(1485366079.700350) can0 0B2#000000000001
(1485366079.700450) can0 0B0#000000000001
(1485366079.700808) can0 0B4#00000000000000BC
(1485366079.701795) can0 630#1700000000000000
(1485366079.702699) can0 2C1#08FF74FF700000B5
(1485366079.709067) can0 260#0800010000000073
(1485366079.710349) can0 0B2#000000000002
(1485366079.710475) can0 0B0#000000000002
(1485366079.710803) can0 223#0000007FE000008C
(1485366079.711007) can0 638#1300110000000000
(1485366079.711283) can0 224#0000000000000000
(1485366079.713577) can0 2C4#03E100140000A268
(1485366079.720354) can0 0B2#000000000003
(1485366079.720470) can0 0B0#000000000003
(1485366079.720812) can0 0B4#00000000000000BC
(1485366079.729354) can0 260#0800000000000173
(1485366079.730275) can0 0B2#000000000004
(1485366079.730377) can0 0B0#000000000004
(1485366079.733179) can0 3A0#0000000000000014
(1485366079.733487) can0 2C1#08FF7AFF770000C2
(1485366079.733691) can0 2C4#03E100140000A268
(1485366079.740424) can0 0B2#000000000005
(1485366079.740545) can0 0B0#000000000005
(1485366079.740860) can0 223#0000007FE000008C
(1485366079.741063) can0 0B4#00000000000000BC
(1485366079.741370) can0 224#0000000000000000
(1485366079.749553) can0 260#0800000000000173
(1485366079.750261) can0 0B2#000000000006
(1485366079.750406) can0 0B0#000000000006
(1485366079.752702) can0 2C4#03E000140000A267
(1485366079.760283) can0 0B2#000000000007
(1485366079.760481) can0 0B0#000000000007
(1485366079.760755) can0 0B4#00000000000000BC
(1485366079.762639) can0 2C1#08FF7DFF7A0000C8
(1485366079.763079) can0 4DC#1D00010900000000
(1485366079.769770) can0 260#080000000000097B
(1485366079.770360) can0 0B2#000000000008
(1485366079.770514) can0 0B0#000000000008
(1485366079.770799) can0 223#0000007FE000008C
(1485366079.771120) can0 224#0000000000000000
(1485366079.772718) can0 2C4#03DF00140000A266
(1485366079.779145) can0 440#4202000007000000
(1485366079.780393) can0 0B2#000000000009
(1485366079.780539) can0 0B0#000000000009
(1485366079.780884) can0 0B4#00000000000000BC
(1485366079.789970) can0 260#080000000000097B
(1485366079.790264) can0 0B2#00000000000A
(1485366079.790479) can0 0B0#00000000000A
(1485366079.792721) can0 2C1#08FF80FF800000D1
(1485366079.792891) can0 2C4#03E000140000A267
(1485366079.793052) can0 3B3#03E000
(1485366079.800371) can0 0B2#00000000000B
(1485366079.800572) can0 0B0#00000000000B
(1485366079.800866) can0 223#0000007FE000008C
(1485366079.801093) can0 0B4#00000000000000BC
(1485366079.801372) can0 224#0000000000000000
(1485366079.803468) can0 3B0#0000003200
(1485366079.810191) can0 260#0800010000FFFF71
(1485366079.810327) can0 0B2#00000000000C
(1485366079.810571) can0 0B0#00000000000C
(1485366079.812698) can0 2C4#03E300140000A26A
(1485366079.820398) can0 0B2#00000000000D
(1485366079.820515) can0 0B0#00000000000D
(1485366079.820856) can0 0B4#00000000000000BC
(1485366079.822669) can0 2C1#08FF74FF700000B5
(1485366079.830372) can0 260#0800000000FFF566
(1485366079.830516) can0 0B2#00000000000E
(1485366079.830751) can0 0B0#00000000000E
(1485366079.831007) can0 223#0000007FE000008C
(1485366079.831329) can0 224#0000000000000000
(1485366079.832721) can0 2C4#03E500140000A26C
(1485366079.833131) can0 3A0#0000000000000014
(1485366079.840369) can0 0B2#00000000000F
(1485366079.840513) can0 0B0#00000000000F
(1485366079.840808) can0 0B4#00000000000000BC
(1485366079.850272) can0 0B2#000000000000
(1485366079.850417) can0 0B0#000000000000
(1485366079.850708) can0 260#0800000000000072
(1485366079.852699) can0 2C1#08FF67FF6A0000A2
(1485366079.852865) can0 2C4#03E600140000A26D
(1485366079.860445) can0 0B2#000000000001
(1485366079.860580) can0 0B0#000000000001
(1485366079.860870) can0 223#0000007FE000008C
(1485366079.861134) can0 0B4#00000000000000BC
(1485366079.861350) can0 224#0000000000000000
(1485366079.863167) can0 380#00A0043000000300
(1485366079.870323) can0 0B2#000000000002
(1485366079.870453) can0 0B0#000000000002
(1485366079.870759) can0 260#0800000000FFF96A
(1485366079.872421) can0 442#4002000003000000
(1485366079.872648) can0 2C4#03E700140000A26E
(1485366079.880371) can0 0B2#000000000003
(1485366079.880499) can0 0B0#000000000003
(1485366079.880853) can0 0B4#00000000000000BC
(1485366079.882918) can0 2C1#08FF64FF64000099
(1485366079.890399) can0 0B2#000000000004
(1485366079.890518) can0 0B0#000000000004
(1485366079.890806) can0 223#0000007FE000008C
(1485366079.891052) can0 260#0800000000FFF869
(1485366079.891323) can0 224#0000000000000000
(1485366079.892724) can0 2C4#03E900140000A270
(1485366079.894620) can0 620#1000000030600050
(1485366079.900400) can0 0B2#000000000005
(1485366079.900526) can0 0B0#000000000005
(1485366079.900883) can0 0B4#00000000000000BC
(1485366079.910248) can0 0B2#000000000006
(1485366079.910469) can0 0B0#000000000006
(1485366079.911219) can0 260#0800000000000375
(1485366079.912642) can0 2C1#08FF5AFF57000082
(1485366079.912885) can0 2C4#03E800140000A26F
(1485366079.913266) can0 610#2000006400000000
(1485366079.920447) can0 0B2#000000000007
(1485366079.920607) can0 0B0#000000000007
(1485366079.920891) can0 223#0000007FE000008C
(1485366079.921107) can0 0B4#00000000000000BC
(1485366079.921387) can0 224#0000000000000000
(1485366079.923022) can0 611#2100201200021DB5
(1485366079.930323) can0 0B2#000000000008
(1485366079.930455) can0 0B0#000000000008
(1485366079.931472) can0 260#0800010000000275
(1485366079.932701) can0 2C4#03E700140000A26E
(1485366079.933114) can0 3A0#0000000000000014
(1485366079.934472) can0 640#A8000032020D0000
(1485366079.940307) can0 0B2#000000000009
(1485366079.940521) can0 0B0#000000000009
(1485366079.940867) can0 0B4#00000000000000BC
(1485366079.941393) can0 394#00
(1485366079.942699) can0 2C1#08FF60FF5D00008E
(1485366079.950349) can0 0B2#00000000000A
(1485366079.950508) can0 0B0#00000000000A
(1485366079.950770) can0 223#0000007FE000008C
(1485366079.951102) can0 224#0000000000000000
(1485366079.951643) can0 260#0800010000000376
(1485366079.952723) can0 2C4#03E700140000A26E
(1485366079.960348) can0 0B2#00000000000B
(1485366079.960484) can0 0B0#00000000000B
(1485366079.960795) can0 0B4#00000000000000BC
(1485366079.962396) can0 3B1#0000022A00000000
(1485366079.968999) can0 440#4202000007000000
(1485366079.970293) can0 0B2#00000000000C
(1485366079.970435) can0 0B0#00000000000C
(1485366079.971871) can0 260#0800010000000B7E
(1485366079.972671) can0 2C1#08FF67FF6400009C
(1485366079.972884) can0 2C4#03E500140000A26C
(1485366079.973134) can0 4C1#0100500500000000
(1485366079.980448) can0 0B2#00000000000D
(1485366079.980573) can0 0B0#00000000000D
(1485366079.980877) can0 223#0000007FE000008C
(1485366079.981080) can0 0B4#00000000000000BC
(1485366079.981377) can0 224#0000000000000000
(1485366079.981643) can0 3B7#0000000000000000
(1485366079.990330) can0 0B2#00000000000E
(1485366079.990459) can0 0B0#00000000000E
(1485366079.992070) can0 260#080000000000087A
(1485366079.992693) can0 2C4#03E500140000A26C
(1485366080.000402) can0 0B2#00000000000F
(1485366080.000536) can0 0B0#00000000000F
(1485366080.000907) can0 0B4#00000000000000BC
(1485366080.002998) can0 2C1#08FF6AFF670000A2
(1485366080.007275) can0 4C8#0900010700000000
(1485366080.010403) can0 0B2#000000000000
(1485366080.010568) can0 0B0#000000000000
(1485366080.010840) can0 223#0000007FE000008C
(1485366080.011143) can0 224#0000000000000000
(1485366080.012479) can0 260#0800010000FFF466
(1485366080.012663) can0 2C4#03E500140000A26C
(1485366080.020403) can0 0B2#000000000001
(1485366080.020536) can0 0B0#000000000001
(1485366080.020881) can0 0B4#00000000000000BC
(1485366080.030327) can0 0B2#000000000002
(1485366080.030463) can0 0B0#000000000002
(1485366080.032503) can0 260#0800000000FFF768
(1485366080.032639) can0 2C1#08FF6AFF670000A2
(1485366080.032932) can0 2C4#03E500140000A26C
(1485366080.033255) can0 3A0#0000000000000014
(1485366080.040479) can0 0B2#000000000003
(1485366080.040644) can0 0B0#000000000003
(1485366080.040928) can0 223#0000007FE000008C
(1485366080.041111) can0 0B4#00000000000000BC
(1485366080.041395) can0 224#0000000000000000
(1485366080.050304) can0 0B2#000000000004
(1485366080.050437) can0 0B0#000000000004
(1485366080.052678) can0 2C4#03E400140000A26B
(1485366080.052850) can0 260#0800000000FFF566
(1485366080.060355) can0 0B2#000000000005
(1485366080.060489) can0 0B0#000000000005
(1485366080.060815) can0 0B4#00000000000000BC
(1485366080.062678) can0 2C1#08FF6DFF6A0000A8
(1485366080.062849) can0 442#4002000003000000
(1485366080.070409) can0 0B2#000000000006
(1485366080.070537) can0 0B0#000000000006
(1485366080.070813) can0 223#0000007FE000008C
(1485366080.071140) can0 224#0000000000000000
(1485366080.072704) can0 2C4#03E400140000A26B
(1485366080.073068) can0 260#0800000000000476
(1485366080.080407) can0 0B2#000000000007
(1485366080.080538) can0 0B0#000000000007
(1485366080.080883) can0 0B4#00000000000000BC
(1485366080.090305) can0 0B2#000000000008
(1485366080.090440) can0 0B0#000000000008
(1485366080.092731) can0 2C1#08FF64FF6A00009F
(1485366080.092903) can0 2C4#03E700140000A26E
(1485366080.093247) can0 260#0800000000000476
(1485366080.100452) can0 0B2#000000000009
(1485366080.100602) can0 0B0#000000000009
(1485366080.100897) can0 223#0000007FE000008C
(1485366080.101109) can0 0B4#00000000000000BC
(1485366080.101381) can0 224#0000000000000000
(1485366080.110279) can0 0B2#00000000000A
(1485366080.110390) can0 0B0#00000000000A
(1485366080.113106) can0 2C4#03E700140000A26E
(1485366080.113255) can0 260#0800000000FFFF70
(1485366080.120325) can0 0B2#00000000000B
(1485366080.120452) can0 0B0#00000000000B
(1485366080.120775) can0 0B4#00000000000000BC
(1485366080.122675) can0 2C1#08FF67FF6400009C
(1485366080.130410) can0 0B2#00000000000C
(1485366080.130569) can0 0B0#00000000000C
(1485366080.130841) can0 223#0000007FE000008C
(1485366080.131149) can0 224#0000000000000000
(1485366080.132708) can0 2C4#03E600140000A26D
(1485366080.133147) can0 3A0#0000000000000014
(1485366080.133708) can0 260#0800000000000072
(1485366080.140407) can0 0B2#00000000000D
(1485366080.140539) can0 0B0#00000000000D
(1485366080.140889) can0 0B4#00000000000000BC
(1485366080.150332) can0 0B2#00000000000E
(1485366080.150466) can0 0B0#00000000000E
(1485366080.152699) can0 2C1#08FF67FF6400009C
(1485366080.152882) can0 2C4#03E500140000A26C
(1485366080.153926) can0 260#0800010000FFEF61
(1485366080.158732) can0 440#4202000007000000
(1485366080.160480) can0 0B2#00000000000F
(1485366080.160613) can0 0B0#00000000000F
(1485366080.160923) can0 223#0000007FE000008C
(1485366080.161146) can0 0B4#00000000000000BC
(1485366080.161394) can0 224#0000000000000000
(1485366080.170210) can0 0B2#000000000000
(1485366080.170390) can0 0B0#000000000000
(1485366080.172664) can0 2C4#03E500140000A26C
(1485366080.173887) can0 260#0800000000000173
(1485366080.180288) can0 0B2#000000000001
(1485366080.180484) can0 0B0#000000000001
(1485366080.180785) can0 0B4#00000000000000BC
(1485366080.182610) can0 2C1#08FF67FF6400009C
(1485366080.190263) can0 0B2#000000000002
(1485366080.190485) can0 0B0#000000000002
(1485366080.190733) can0 223#0000007FE000008C
(1485366080.191033) can0 224#0000000000000000
(1485366080.192638) can0 2C4#03E500140000A26C
(1485366080.194210) can0 620#1000000030600050
(1485366080.194462) can0 260#0800000000FFF768
(1485366080.200289) can0 0B2#000000000003
(1485366080.200485) can0 0B0#000000000003
(1485366080.200786) can0 0B4#00000000000000BC
(1485366080.210211) can0 0B2#000000000004
(1485366080.210388) can0 0B0#000000000004
(1485366080.213462) can0 2C1#08FF64FF64000099
(1485366080.213712) can0 2C4#03E700140000A26E
(1485366080.214312) can0 260#0800000000FFF96A
(1485366080.220338) can0 0B2#000000000005
(1485366080.220538) can0 0B0#000000000005
(1485366080.220788) can0 223#0000007FE000008C
(1485366080.221038) can0 0B4#00000000000000BC
(1485366080.221288) can0 224#0000000000000000
(1485366080.226361) can0 3B4#00004AB800000000
(1485366080.230213) can0 0B2#000000000006
(1485366080.230413) can0 0B0#000000000006
(1485366080.233064) can0 3A0#0000000000000014
(1485366080.233689) can0 2C4#03E300140000A26A
(1485366080.234514) can0 260#0800010000FFF96B
(1485366080.240265) can0 0B2#000000000007
(1485366080.240464) can0 0B0#000000000007
(1485366080.240764) can0 0B4#00000000000000BC
(1485366080.242612) can0 2C1#08FF70FF700000B1
(1485366080.244690) can0 394#00
(1485366080.250291) can0 0B2#000000000008
(1485366080.250487) can0 0B0#000000000008
(1485366080.250735) can0 223#0000007FE000008C
(1485366080.251060) can0 224#0000000000000000
(1485366080.252689) can0 2C4#03E300140000A26A
(1485366080.252939) can0 442#4002000003000000
(1485366080.254914) can0 260#0800000000FFF465
(1485366080.260264) can0 0B2#000000000009
(1485366080.260486) can0 0B0#000000000009
(1485366080.260762) can0 0B4#00000000000000BC
(1485366080.270211) can0 0B2#00000000000A
(1485366080.270439) can0 0B0#00000000000A
(1485366080.272612) can0 2C1#08FF77FF700000B8
(1485366080.272860) can0 2C4#03E200140000A269
(1485366080.275087) can0 260#0800000000FFFF70
(1485366080.280362) can0 0B2#00000000000B
(1485366080.280563) can0 0B0#00000000000B
(1485366080.280812) can0 223#0000007FE000008C
(1485366080.281063) can0 0B4#00000000000000BC
(1485366080.281315) can0 224#0000000000000000
(1485366080.281587) can0 3B7#0000000000000000
(1485366080.290239) can0 0B2#00000000000C
(1485366080.290460) can0 0B0#00000000000C
(1485366080.292613) can0 2C4#03E200140000A269
(1485366080.292789) can0 3B3#03E200
(1485366080.295141) can0 260#0800000000FFF364
(1485366080.300315) can0 0B2#00000000000D
(1485366080.300516) can0 0B0#00000000000D
(1485366080.300815) can0 0B4#00000000000000BC
(1485366080.302593) can0 2C1#08FF77FF770000BF
(1485366080.310292) can0 0B2#00000000000E
(1485366080.310515) can0 0B0#00000000000E
(1485366080.310738) can0 223#0000007FE000008C
(1485366080.311040) can0 224#0000000000000000
(1485366080.312641) can0 2C4#03E100140000A268
(1485366080.315541) can0 260#0800000000FFE354
(1485366080.320292) can0 0B2#00000000000F
(1485366080.320491) can0 0B0#00000000000F
(1485366080.320791) can0 0B4#00000000000000BC
(1485366080.330229) can0 0B2#000000000000
(1485366080.330427) can0 0B0#000000000000
(1485366080.332654) can0 2C1#08FF7AFF770000C2
(1485366080.332901) can0 2C4#03E200140000A269
(1485366080.333152) can0 3A0#0000000000000014
(1485366080.335727) can0 260#0800010000000073
(1485366080.340376) can0 0B2#000000000001
(1485366080.340575) can0 0B0#000000000001
(1485366080.340825) can0 223#0000007FE000008C
(1485366080.341075) can0 0B4#00000000000000BC
(1485366080.341327) can0 224#0000000000000000
(1485366080.348468) can0 440#4202000007000000
(1485366080.350228) can0 0B2#000000000002
(1485366080.350452) can0 0B0#000000000002
(1485366080.352627) can0 2C4#03E300140000A26A
(1485366080.355750) can0 260#080001000000077A
(1485366080.360279) can0 0B2#000000000003
(1485366080.360500) can0 0B0#000000000003
(1485366080.360801) can0 0B4#00000000000000BC
(1485366080.362600) can0 2C1#08FF74FF700000B5
(1485366080.370305) can0 0B2#000000000004
(1485366080.370527) can0 0B0#000000000004
(1485366080.370751) can0 223#0000007FE000008C
(1485366080.371050) can0 224#0000000000000000
(1485366080.372655) can0 2C4#03E300140000A26A
(1485366080.376157) can0 260#0800000000FFF768
(1485366080.380304) can0 0B2#000000000005
(1485366080.380501) can0 0B0#000000000005
(1485366080.380802) can0 0B4#00000000000000BC
(1485366080.390229) can0 0B2#000000000006
(1485366080.390454) can0 0B0#000000000006
(1485366080.392628) can0 2C1#08FF77FF770000BF
(1485366080.392875) can0 2C4#03E300140000A26A
(1485366080.396230) can0 260#0800010000FFFD6F
(1485366080.400406) can0 0B2#000000000007
(1485366080.400604) can0 0B0#000000000007
(1485366080.400854) can0 223#0000007FE000008C
(1485366080.401104) can0 0B4#00000000000000BC
(1485366080.401354) can0 224#0000000000000000
(1485366080.410254) can0 0B2#000000000008
(1485366080.410452) can0 0B0#000000000008
(1485366080.412655) can0 2C4#03E300140000A26A
(1485366080.413405) can0 610#2000006400000000
(1485366080.416356) can0 260#0800000000FFF768
(1485366080.420329) can0 0B2#000000000009
(1485366080.420531) can0 0B0#000000000009
(1485366080.420830) can0 0B4#00000000000000BC
(1485366080.422628) can0 2C1#08FF77FF770000BF
(1485366080.430332) can0 0B2#00000000000A
(1485366080.430530) can0 0B0#00000000000A
(1485366080.430780) can0 223#0000007FE000008C
(1485366080.431080) can0 224#0000000000000000
(1485366080.432636) can0 2C4#03E500140000A26C
(1485366080.433056) can0 3A0#0000000000000014
(1485366080.436581) can0 260#080000000000087A
(1485366080.440307) can0 0B2#00000000000B
(1485366080.440530) can0 0B0#00000000000B
(1485366080.440805) can0 0B4#00000000000000BC
(1485366080.442530) can0 442#4002000003000000
(1485366080.445407) can0 4DD#1E00000500000000
(1485366080.450233) can0 0B2#00000000000C
(1485366080.450456) can0 0B0#00000000000C
(1485366080.452607) can0 2C1#08FF6DFF700000AE
(1485366080.452855) can0 2C4#03E500140000A26C
(1485366080.456782) can0 260#0800000000FFFC6D
(1485366080.460408) can0 0B2#00000000000D
(1485366080.460606) can0 0B0#00000000000D
(1485366080.460855) can0 223#0000007FE000008C
(1485366080.461107) can0 0B4#00000000000000BC
(1485366080.461355) can0 224#0000000000000000
(1485366080.470230) can0 0B2#00000000000E
(1485366080.470431) can0 0B0#00000000000E
(1485366080.472658) can0 2C4#03E500140000A26C
(1485366080.476958) can0 260#080000000000087A
(1485366080.480283) can0 0B2#00000000000F
(1485366080.480481) can0 0B0#00000000000F
(1485366080.480782) can0 0B4#00000000000000BC
(1485366080.483456) can0 2C1#08FF70FF700000B1
(1485366080.490321) can0 0B2#000000000000
(1485366080.490509) can0 0B0#000000000000
(1485366080.490779) can0 223#0000007FE000008C
(1485366080.491068) can0 224#0000000000000000
(1485366080.492717) can0 2C4#03E500140000A26C
(1485366080.493940) can0 620#1000000030600050
(1485366080.497294) can0 260#0800000000FFF566
(1485366080.500368) can0 0B2#000000000001
(1485366080.500497) can0 0B0#000000000001
(1485366080.500826) can0 0B4#00000000000000BC
(1485366080.510318) can0 0B2#000000000002
(1485366080.510452) can0 0B0#000000000002
(1485366080.512669) can0 2C1#08FF67FF6A0000A2
(1485366080.512833) can0 2C4#03E700140000A26E
(1485366080.517400) can0 260#0800000000000173
(1485366080.520469) can0 0B2#000000000003
(1485366080.520615) can0 0B0#000000000003
(1485366080.520901) can0 223#0000007FE000008C
(1485366080.521149) can0 0B4#00000000000000BC
(1485366080.521402) can0 224#0000000000000000
(1485366080.526390) can0 38A#0804000000
(1485366080.530319) can0 0B2#000000000004
(1485366080.530453) can0 0B0#000000000004
(1485366080.532669) can0 2C4#03E700140000A26E
(1485366080.533081) can0 3A0#0000000000000014
(1485366080.537645) can0 260#0800000000FFF667
(1485366080.538286) can0 440#4202000007000000
(1485366080.540394) can0 0B2#000000000005
(1485366080.540530) can0 0B0#000000000005
(1485366080.540882) can0 0B4#00000000000000BC
(1485366080.542664) can0 2C1#08FF67FF6400009C
(1485366080.547623) can0 394#00
(1485366080.550418) can0 0B2#000000000006
(1485366080.550530) can0 0B0#000000000006
(1485366080.550849) can0 223#0000007FE000008C
(1485366080.551129) can0 224#0000000000000000
(1485366080.551420) can0 4C3#0400300500000000
(1485366080.552746) can0 2C4#03E700140000A26E
(1485366080.557846) can0 260#0800000000FFF566
(1485366080.560421) can0 0B2#000000000007
(1485366080.560528) can0 0B0#000000000007
(1485366080.560880) can0 0B4#00000000000000BC
(1485366080.570320) can0 0B2#000000000008
(1485366080.570429) can0 0B0#000000000008
(1485366080.572671) can0 2C1#08FF64FF64000099
(1485366080.572832) can0 2C4#03E700140000A26E
(1485366080.578097) can0 260#0800000000000577
(1485366080.580443) can0 0B2#000000000009
(1485366080.580572) can0 0B0#000000000009
(1485366080.580876) can0 223#0000007FE000008C
(1485366080.581132) can0 0B4#00000000000000BC
(1485366080.581344) can0 224#0000000000000000
(1485366080.581665) can0 3B7#0000000000000000
(1485366080.590315) can0 0B2#00000000000A
(1485366080.590455) can0 0B0#00000000000A
(1485366080.592696) can0 2C4#03E900140000A270
(1485366080.598296) can0 260#0800010000FFFA6C
(1485366080.600367) can0 0B2#00000000000B
(1485366080.600505) can0 0B0#00000000000B
(1485366080.600877) can0 0B4#00000000000000BC
(1485366080.602666) can0 2C1#08FF5AFF5A000085
(1485366080.610397) can0 0B2#00000000000C
(1485366080.610505) can0 0B0#00000000000C
(1485366080.610788) can0 223#0000007FE000008C
(1485366080.611123) can0 224#0000000000000000
(1485366080.613045) can0 2C4#03EA00140000A271
(1485366080.618473) can0 260#080000000000087A
(1485366080.620372) can0 0B2#00000000000D
(1485366080.620503) can0 0B0#00000000000D
(1485366080.620833) can0 0B4#00000000000000BC
(1485366080.630295) can0 0B2#00000000000E
(1485366080.630380) can0 0B0#00000000000E
(1485366080.632673) can0 2C1#08FF5AFF57000082
(1485366080.632837) can0 2C4#03E900140000A270
(1485366080.633151) can0 3A0#0000000000000014
(1485366080.633316) can0 442#4002000003000000
(1485366080.638649) can0 260#0800000000000577
(1485366080.640395) can0 0B2#00000000000F
(1485366080.640530) can0 0B0#00000000000F
(1485366080.640828) can0 223#0000007FE000008C
(1485366080.641093) can0 0B4#00000000000000BC
(1485366080.641317) can0 224#0000000000000000
(1485366080.650349) can0 0B2#000000000000
(1485366080.650475) can0 0B0#000000000000
(1485366080.652744) can0 2C4#03E900140000A270
(1485366080.658873) can0 260#0800010000000477
(1485366080.660393) can0 0B2#000000000001
(1485366080.660530) can0 0B0#000000000001
(1485366080.660836) can0 0B4#00000000000000BC
(1485366080.662670) can0 2C1#08FF57FF5700007F
(1485366080.670396) can0 0B2#000000000002
(1485366080.670525) can0 0B0#000000000002
(1485366080.670793) can0 223#0000007FE000008C
(1485366080.671130) can0 224#0000000000000000
(1485366080.672699) can0 2C4#03EA00140000A271
(1485366080.673719) can0 621#1100000000000000
(1485366080.679067) can0 260#0800000000000678
(1485366080.680396) can0 0B2#000000000003
(1485366080.680534) can0 0B0#000000000003
(1485366080.680886) can0 0B4#00000000000000BC
(1485366080.682496) can0 622#1200000000000000
(1485366080.690297) can0 0B2#000000000004
(1485366080.690403) can0 0B0#000000000004
(1485366080.691693) can0 624#1A0057FFFF400000
(1485366080.692673) can0 2C1#08FF57FF5400007C
(1485366080.692888) can0 2C4#03E900140000A270
(1485366080.693620) can0 4ED#5C00000000000000
(1485366080.699296) can0 260#0800000000FFFF70
(1485366080.700419) can0 0B2#000000000005
(1485366080.700560) can0 0B0#000000000005
(1485366080.700851) can0 223#0000007FE000008C
(1485366080.701118) can0 0B4#00000000000000BC
(1485366080.701303) can0 224#0000000000000000
(1485366080.701574) can0 630#1700000000000000
(1485366080.710075) can0 638#1300110000000000
(1485366080.710223) can0 0B2#000000000006
(1485366080.710486) can0 0B0#000000000006
(1485366080.713524) can0 2C4#03E800140000A26F
(1485366080.719472) can0 260#0800000000FFEE5F
(1485366080.720320) can0 0B2#000000000007
(1485366080.720481) can0 0B0#000000000007
(1485366080.720793) can0 0B4#00000000000000BC
(1485366080.722632) can0 2C1#08FF5AFF57000082
(1485366080.730325) can0 0B2#000000000008
(1485366080.730460) can0 0B0#000000000008
(1485366080.730760) can0 223#0000007FE000008C
(1485366080.731046) can0 224#0000000000000000
(1485366080.733053) can0 3A0#0000000000000014
(1485366080.733508) can0 440#4202000007000000
(1485366080.733853) can0 2C4#03E700140000A26E
(1485366080.739677) can0 260#0800000000000577
(1485366080.740313) can0 0B2#000000000009
(1485366080.740445) can0 0B0#000000000009
(1485366080.740793) can0 0B4#00000000000000BC
(1485366080.750301) can0 0B2#00000000000A
(1485366080.750382) can0 0B0#00000000000A
(1485366080.752676) can0 2C1#08FF64FF5D000092
(1485366080.752830) can0 2C4#03E600140000A26D
(1485366080.759873) can0 260#0800000000FFF768
(1485366080.760367) can0 0B2#00000000000B
(1485366080.760552) can0 0B0#00000000000B
(1485366080.760829) can0 223#0000007FE000008C
(1485366080.761053) can0 0B4#00000000000000BC
(1485366080.761332) can0 224#0000000000000000
(1485366080.763849) can0 4DC#1D00010900000000
(1485366080.770222) can0 0B2#00000000000C
(1485366080.770391) can0 0B0#00000000000C
(1485366080.772607) can0 2C4#03E500140000A26C
(1485366080.780095) can0 260#0800000000FFF768
(1485366080.780248) can0 0B2#00000000000D
(1485366080.780499) can0 0B0#00000000000D
(1485366080.780797) can0 0B4#00000000000000BC
(1485366080.782650) can0 2C1#08FF67FF6400009C
(1485366080.790372) can0 0B2#00000000000E
(1485366080.790494) can0 0B0#00000000000E
(1485366080.790792) can0 223#0000007FE000008C
(1485366080.791100) can0 224#0000000000000000
(1485366080.792703) can0 2C4#03E500140000A26C
(1485366080.792795) can0 3B3#03E500
(1485366080.793591) can0 620#1000000030600050
(1485366080.800303) can0 260#0800000000000173
(1485366080.800446) can0 0B2#00000000000F
(1485366080.800664) can0 0B0#00000000000F
(1485366080.800964) can0 0B4#00000000000000BC
(1485366080.803073) can0 3B0#0000003200
(1485366080.810303) can0 0B2#000000000000
(1485366080.810446) can0 0B0#000000000000
(1485366080.812641) can0 2C1#08FF60FF64000095
(1485366080.812883) can0 2C4#03E700140000A26E
(1485366080.820447) can0 0B2#000000000001
(1485366080.820589) can0 0B0#000000000001
(1485366080.820883) can0 223#0000007FE000008C
(1485366080.821142) can0 0B4#00000000000000BC
(1485366080.821353) can0 224#0000000000000000
(1485366080.821628) can0 260#080000000000087A
(1485366080.830301) can0 0B2#000000000002
(1485366080.830424) can0 0B0#000000000002
(1485366080.832680) can0 2C4#03E700140000A26E
(1485366080.833066) can0 3A0#0000000000000014
(1485366080.833529) can0 442#4002000003000000
(1485366080.840352) can0 0B2#000000000003
(1485366080.840486) can0 0B0#000000000003
(1485366080.840796) can0 260#0800000000000577
(1485366080.840974) can0 0B4#00000000000000BC
(1485366080.842876) can0 2C1#08FF5DFF5A000088
(1485366080.850355) can0 0B2#000000000004
(1485366080.850497) can0 0B0#000000000004
(1485366080.850792) can0 223#0000007FE000008C
(1485366080.850841) can0 394#00
(1485366080.851165) can0 224#0000000000000000
(1485366080.852703) can0 2C4#03E700140000A26E
(1485366080.860353) can0 0B2#000000000005
(1485366080.860510) can0 0B0#000000000005
(1485366080.860843) can0 0B4#00000000000000BC
(1485366080.861023) can0 260#0800000000FFFB6C
(1485366080.863124) can0 380#00A0043000000300
(1485366080.866830) can0 398#0669
(1485366080.870301) can0 0B2#000000000006
(1485366080.870415) can0 0B0#000000000006
(1485366080.872656) can0 2C1#08FF5DFF5A000088
(1485366080.872815) can0 2C4#03E700140000A26E
(1485366080.880430) can0 0B2#000000000007
(1485366080.880564) can0 0B0#000000000007
(1485366080.880865) can0 223#0000007FE000008C
(1485366080.881080) can0 0B4#00000000000000BC
(1485366080.881353) can0 224#0000000000000000
(1485366080.881608) can0 260#0800000000000678
(1485366080.881817) can0 3B7#0000000000000000
(1485366080.882927) can0 4C1#0100500500000000
(1485366080.890302) can0 0B2#000000000008
(1485366080.890412) can0 0B0#000000000008
(1485366080.892731) can0 2C4#03E600140000A26D
(1485366080.900353) can0 0B2#000000000009
(1485366080.900480) can0 0B0#000000000009
(1485366080.900799) can0 0B4#00000000000000BC
(1485366080.901359) can0 260#0800000000000476
(1485366080.902652) can0 2C1#08FF60FF5D00008E
(1485366080.910381) can0 0B2#00000000000A
(1485366080.910512) can0 0B0#00000000000A
(1485366080.910800) can0 223#0000007FE000008C
(1485366080.911106) can0 224#0000000000000000
(1485366080.912705) can0 2C4#03E400140000A26B
(1485366080.913503) can0 610#2000006400000000
(1485366080.920356) can0 0B2#00000000000B
(1485366080.920502) can0 0B0#00000000000B
(1485366080.920837) can0 0B4#00000000000000BC
(1485366080.921596) can0 260#0800000000000678
(1485366080.924511) can0 611#2100201200021DB5
(1485366080.930268) can0 0B2#00000000000C
(1485366080.930435) can0 0B0#00000000000C
(1485366080.932655) can0 2C1#08FF70FF670000A8
(1485366080.932828) can0 2C4#03E200140000A269
(1485366080.933135) can0 3A0#0000000000000014
(1485366080.933346) can0 440#4202000007000000
(1485366080.936851) can0 640#A8000032020D0000
(1485366080.940445) can0 0B2#00000000000D
(1485366080.940583) can0 0B0#00000000000D
(1485366080.940900) can0 223#0000007FE000008C
(1485366080.941069) can0 0B4#00000000000000BC
(1485366080.941384) can0 224#0000000000000000
(1485366080.941802) can0 260#0800010000000A7D
(1485366080.950308) can0 0B2#00000000000E
(1485366080.950440) can0 0B0#00000000000E
(1485366080.952682) can0 2C4#03E100140000A268
(1485366080.960356) can0 0B2#00000000000F
(1485366080.960500) can0 0B0#00000000000F
(1485366080.960828) can0 0B4#00000000000000BC
(1485366080.962030) can0 260#0800000000FFF768
(1485366080.962649) can0 2C1#08FF77FF770000BF
(1485366080.966633) can0 3B1#0000022A00000000
(1485366080.970308) can0 0B2#000000000000
(1485366080.970573) can0 0B0#000000000000
(1485366080.970756) can0 223#0000007FE000008C
(1485366080.971132) can0 224#0000000000000000
(1485366080.972734) can0 2C4#03E300140000A26A
(1485366080.980383) can0 0B2#000000000001
(1485366080.980515) can0 0B0#000000000001
(1485366080.980857) can0 0B4#00000000000000BC
(1485366080.982230) can0 260#0800000000FFFC6D
(1485366080.990300) can0 0B2#000000000002
(1485366080.990389) can0 0B0#000000000002
(1485366080.992685) can0 2C1#08FF70FF6A0000AB
(1485366080.992848) can0 2C4#03E300140000A26A
(1485366080.997485) can0 4C8#0900010700000000
(1485366081.000406) can0 0B2#000000000003
(1485366081.000543) can0 0B0#000000000003
(1485366081.000838) can0 223#0000007FE000008C
(1485366081.001049) can0 0B4#00000000000000BC
(1485366081.001301) can0 224#0000000000000000
(1485366081.002631) can0 260#0800000000FFF869
(1485366081.010309) can0 0B2#000000000004
(1485366081.010414) can0 0B0#000000000004
(1485366081.012658) can0 2C4#03E100140000A268
(1485366081.020332) can0 0B2#000000000005
(1485366081.020459) can0 0B0#000000000005
(1485366081.020802) can0 0B4#00000000000000BC
(1485366081.022633) can0 260#0800000000FFF96A
(1485366081.022817) can0 2C1#08FF77FF770000BF
(1485366081.030381) can0 0B2#000000000006
(1485366081.030519) can0 0B0#000000000006
(1485366081.030806) can0 223#0000007FE000008C
(1485366081.031138) can0 224#0000000000000000
(1485366081.032686) can0 2C4#03E100140000A268
(1485366081.033807) can0 442#4002000003000000
(1485366081.034281) can0 3A0#0000000000000014
(1485366081.040386) can0 0B2#000000000007
(1485366081.040518) can0 0B0#000000000007
(1485366081.040891) can0 0B4#00000000000000BC
(1485366081.042858) can0 260#0800000000000577
(1485366081.050334) can0 0B2#000000000008
(1485366081.050465) can0 0B0#000000000008
(1485366081.052711) can0 2C1#08FF74FF770000BC
(1485366081.052873) can0 2C4#03E300140000A26A
(1485366081.060457) can0 0B2#000000000009
(1485366081.060618) can0 0B0#000000000009
(1485366081.060890) can0 223#0000007FE000008C
(1485366081.061134) can0 0B4#00000000000000BC
(1485366081.061356) can0 224#0000000000000000
(1485366081.063293) can0 260#0800000000000375
(1485366081.070335) can0 0B2#00000000000A
(1485366081.070470) can0 0B0#00000000000A
(1485366081.072662) can0 2C4#03E300140000A26A
(1485366081.080386) can0 0B2#00000000000B
(1485366081.080521) can0 0B0#00000000000B
(1485366081.080849) can0 0B4#00000000000000BC
(1485366081.082656) can0 2C1#08FF77FF700000B8
(1485366081.083305) can0 260#0800010000FFF567
(1485366081.090298) can0 0B2#00000000000C
(1485366081.090514) can0 0B0#00000000000C
(1485366081.090748) can0 223#0000007FE000008C
(1485366081.091046) can0 224#0000000000000000
(1485366081.092622) can0 2C4#03E200140000A269
(1485366081.093223) can0 620#1000000030600050
(1485366081.100358) can0 0B2#00000000000D
(1485366081.100505) can0 0B0#00000000000D
(1485366081.100805) can0 0B4#00000000000000BC
(1485366081.103483) can0 260#0800000000000577
(1485366081.110312) can0 0B2#00000000000E
(1485366081.110447) can0 0B0#00000000000E
(1485366081.113114) can0 2C1#08FF77FF770000BF
(1485366081.113283) can0 2C4#03E300140000A26A
(1485366081.120460) can0 0B2#00000000000F
(1485366081.120586) can0 0B0#00000000000F
(1485366081.120892) can0 223#0000007FE000008C
(1485366081.121150) can0 0B4#00000000000000BC
(1485366081.121358) can0 224#0000000000000000
(1485366081.123857) can0 260#0800010000000073
(1485366081.130302) can0 0B2#000000000000
(1485366081.130418) can0 0B0#000000000000
(1485366081.132664) can0 2C4#03E500140000A26C
(1485366081.133023) can0 440#4202000007000000
(1485366081.133289) can0 3A0#0000000000000014
(1485366081.140315) can0 0B2#000000000001
(1485366081.140500) can0 0B0#000000000001
(1485366081.140799) can0 0B4#00000000000000BC
(1485366081.142577) can0 2C1#08FF67FF6700009F
(1485366081.143975) can0 260#0800000000FFF566
(1485366081.150266) can0 0B2#000000000002
(1485366081.150465) can0 0B0#000000000002
(1485366081.150715) can0 223#0000007FE000008C
(1485366081.151012) can0 224#0000000000000000
(1485366081.152842) can0 2C4#03E700140000A26E
(1485366081.153992) can0 394#00
(1485366081.160240) can0 0B2#000000000003
(1485366081.160468) can0 0B0#000000000003
(1485366081.160742) can0 0B4#00000000000000BC
(1485366081.164015) can0 260#0800010000FFFE70
(1485366081.170266) can0 0B2#000000000004
(1485366081.170466) can0 0B0#000000000004
(1485366081.172593) can0 2C1#08FF64FF64000099
(1485366081.172818) can0 2C4#03E700140000A26E
(1485366081.180391) can0 0B2#000000000005
(1485366081.180613) can0 0B0#000000000005
(1485366081.180863) can0 223#0000007FE000008C
(1485366081.181091) can0 0B4#00000000000000BC
(1485366081.181317) can0 224#0000000000000000
(1485366081.181641) can0 3B7#0000000000000000
(1485366081.184418) can0 260#0800000000FFF869
(1485366081.190243) can0 0B2#000000000006
(1485366081.190442) can0 0B0#000000000006
(1485366081.192669) can0 2C4#03E700140000A26E
(1485366081.200320) can0 0B2#000000000007
(1485366081.200517) can0 0B0#000000000007
(1485366081.200818) can0 0B4#00000000000000BC
(1485366081.202569) can0 2C1#08FF67FF6400009C
(1485366081.204595) can0 260#080001000000087B
(1485366081.210296) can0 0B2#000000000008
(1485366081.210494) can0 0B0#000000000008
(1485366081.210744) can0 223#0000007FE000008C
(1485366081.211044) can0 224#0000000000000000
(1485366081.212617) can0 2C4#03E600140000A26D
(1485366081.220268) can0 0B2#000000000009
(1485366081.220491) can0 0B0#000000000009
(1485366081.220765) can0 0B4#00000000000000BC
(1485366081.222597) can0 442#4002000003000000
(1485366081.224642) can0 260#0800010000FFF264
(1485366081.226368) can0 3B4#00004AB800000000
(1485366081.230170) can0 0B2#00000000000A
(1485366081.230392) can0 0B0#00000000000A
(1485366081.232595) can0 2C1#08FF6DFF6A0000A8
(1485366081.232844) can0 2C4#03E500140000A26C
(1485366081.233094) can0 3A0#0000000000000014
(1485366081.240345) can0 0B2#00000000000B
(1485366081.240544) can0 0B0#00000000000B
(1485366081.240794) can0 223#0000007FE000008C
(1485366081.241045) can0 0B4#00000000000000BC
(1485366081.241295) can0 224#0000000000000000
(1485366081.245019) can0 260#0800000000FFF465
(1485366081.250171) can0 0B2#00000000000C
(1485366081.250393) can0 0B0#00000000000C
(1485366081.253370) can0 2C4#03E300140000A26A
(1485366081.260243) can0 0B2#00000000000D
(1485366081.260446) can0 0B0#00000000000D
(1485366081.260743) can0 0B4#00000000000000BC
(1485366081.262572) can0 2C1#08FF74FF700000B5
(1485366081.265245) can0 260#0800000000000072
(1485366081.270270) can0 0B2#00000000000E
(1485366081.270469) can0 0B0#00000000000E
(1485366081.270718) can0 223#0000007FE000008C
(1485366081.271016) can0 224#0000000000000000
(1485366081.273297) can0 2C4#03E300140000A26A
(1485366081.280244) can0 0B2#00000000000F
(1485366081.280446) can0 0B0#00000000000F
(1485366081.280745) can0 0B4#00000000000000BC
(1485366081.285270) can0 260#0800000000FFF263
(1485366081.290182) can0 0B2#000000000000
(1485366081.290381) can0 0B0#000000000000
(1485366081.292683) can0 2C1#08FF7AFF700000BB
(1485366081.292906) can0 2C4#03E200140000A269
(1485366081.293057) can0 3B3#03E200
(1485366081.300335) can0 0B2#000000000001
(1485366081.300557) can0 0B0#000000000001
(1485366081.300780) can0 223#0000007FE000008C
(1485366081.301055) can0 0B4#00000000000000BC
(1485366081.301307) can0 224#0000000000000000
(1485366081.305650) can0 260#0800000000000577
(1485366081.310259) can0 0B2#000000000002
(1485366081.310433) can0 0B0#000000000002
(1485366081.312610) can0 2C4#03E000140000A267
(1485366081.320281) can0 0B2#000000000003
(1485366081.320479) can0 0B0#000000000003
(1485366081.320778) can0 0B4#00000000000000BC
(1485366081.322432) can0 440#4202000007000000
(1485366081.322655) can0 2C1#08FF80FF7D0000CE
(1485366081.325858) can0 260#0800000000000072
(1485366081.330334) can0 0B2#000000000004
(1485366081.330531) can0 0B0#000000000004
(1485366081.330779) can0 223#0000007FE000008C
(1485366081.331079) can0 224#0000000000000000
(1485366081.332635) can0 2C4#03E100140000A268
(1485366081.333008) can0 3A0#0000000000000014
(1485366081.340335) can0 0B2#000000000005
(1485366081.340559) can0 0B0#000000000005
(1485366081.340834) can0 0B4#00000000000000BC
(1485366081.345906) can0 260#0800000000FFF667
(1485366081.352583) can0 2C1#08FF7AFF7D0000C8
(1485366081.352834) can0 2C4#03E300140000A26A
(1485366081.366034) can0 260#0800000000000173
(1485366081.386252) can0 260#080000000000087A
(1485366081.387523) can0 620#1080000010600080
(1485366081.406451) can0 260#0800000000FFEF60
(1485366081.412951) can0 610#2000006400000000
(1485366081.423177) can0 442#4012000003000000
(1485366081.426650) can0 260#0800000000FFFE6F
(1485366081.446802) can0 260#0E00000000000078
(1485366081.456702) can0 394#00
(1485366081.458649) can0 4DD#1E00000500000000
(1485366081.467000) can0 260#0E00000000000078
(1485366081.487153) can0 260#0E00000000000078
(1485366081.507431) can0 260#0E00000000000078
(1485366081.522141) can0 440#4202000007000000
(1485366081.527566) can0 260#0E00000000000078
(1485366081.547841) can0 260#0E00000000000078
(1485366081.622478) can0 442#4012000003000000
(1485366081.672652) can0 621#1100000000000000
(1485366081.681605) can0 622#1200000000000000
(1485366081.690804) can0 624#1A0057FFFF400000
(1485366081.699983) can0 620#1000000010600080
(1485366081.709206) can0 630#1700000000000000
(1485366081.718382) can0 638#1300110000000000
(1485366081.722004) can0 440#4202000007000000
(1485366081.822635) can0 442#4012000003000000
(1485366081.912883) can0 610#2000006400000000
(1485366081.921813) can0 440#4202000007000000
(1485366081.923734) can0 611#2100201200021DB5
(1485366081.986798) can0 620#1000000010600080
(1485366082.012523) can0 442#4012000003000000
(1485366082.111924) can0 440#4202000007000000
(1485366082.202164) can0 442#4012000003000000
(1485366082.286675) can0 620#1000000010600080
(1485366082.301400) can0 440#4202000007000000
(1485366082.392228) can0 442#4012000003000000
(1485366082.413279) can0 610#2000006400000000
(1485366082.491577) can0 440#4202000007000000
(1485366082.582295) can0 442#4012000003000000
(1485366082.586214) can0 620#1000000010600080
(1485366082.671563) can0 621#1100000000000000
(1485366082.680641) can0 622#1200000000000000
(1485366082.680937) can0 440#4202000007000000
(1485366082.689842) can0 624#1A0057FFFF400000
(1485366082.699017) can0 630#1700000000000000
(1485366082.708218) can0 638#1300110000000000
(1485366082.772355) can0 442#4012000003000000
(1485366082.871183) can0 440#4202000007000000
(1485366082.885859) can0 620#1000000010600080
(1485366082.913094) can0 610#2000006400000000
(1485366082.922870) can0 611#2100201200021DB5
(1485366082.962420) can0 442#4012000003000000
(1485366083.060623) can0 440#4202000007000000
(1485366083.152433) can0 442#4012000003000000
(1485366083.185638) can0 620#1000000010600080
(1485366083.250808) can0 440#4202000007000000
(1485366083.342320) can0 442#4012000003000000
(1485366083.412834) can0 610#2000006400000000
(1485366083.440259) can0 440#4202000007000000
(1485366083.485386) can0 620#1000000010600080
(1485366083.532085) can0 442#4012000003000000
(1485366083.630413) can0 440#4202000007000000
(1485366083.670517) can0 621#1100000000000000
(1485366083.679817) can0 622#1200000000000000
(1485366083.688993) can0 624#1A0057FFFF400000
(1485366083.698186) can0 630#1700000000000000
(1485366083.707394) can0 638#1300110000000000
(1485366083.722390) can0 442#4012000003000000
(1485366083.784970) can0 620#1000000010600080
(1485366083.819845) can0 440#4202000007000000
(1485366083.912820) can0 442#4012000003000000
(1485366083.913590) can0 610#2000006400000000
(1485366083.924566) can0 611#2100201200021DB5
(1485366084.009967) can0 440#4202000007000000
(1485366084.084619) can0 620#1000000010600080
(1485366084.102144) can0 442#4012000003000000
(1485366084.199392) can0 440#4202000007000000
(1485366084.292708) can0 442#4012000003000000
(1485366084.384334) can0 620#1000000010600080
(1485366084.389510) can0 440#4202000007000000
(1485366084.413340) can0 610#2000006400000000
(1485366084.482464) can0 442#4012000003000000
(1485366084.578969) can0 440#4202000007000000
(1485366084.669423) can0 621#1100000000000000
(1485366084.672674) can0 442#4012000003000000
(1485366084.677870) can0 622#1200000000000000
(1485366084.687005) can0 624#1A0057FFFF400000
(1485366084.696273) can0 620#1000000010600080
(1485366084.705475) can0 630#1700000000000000
(1485366084.714652) can0 638#1300110000000000
(1485366084.769201) can0 440#4202000007000000
(1485366084.862455) can0 442#4012000003000000
(1485366084.913280) can0 610#2000006400000000
(1485366084.923077) can0 611#2100201200021DB5
(1485366084.958508) can0 440#4202000007000000
(1485366084.983606) can0 620#1000000010600080
(1485366085.052277) can0 442#4012000003000000
(1485366085.148652) can0 440#4202000007000000
(1485366085.242708) can0 442#4012000003000000
(1485366085.283234) can0 620#1000000010600080
(1485366085.338095) can0 440#4202000007000000
(1485366085.413046) can0 610#2000006400000000
(1485366085.432344) can0 442#4012000003000000
(1485366085.528325) can0 440#4202000007000000
(1485366085.582886) can0 620#1000000010600080
(1485366085.622377) can0 442#4012000003000000
(1485366085.668328) can0 621#1100000000000000
(1485366085.676980) can0 622#1200000000000000
(1485366085.686180) can0 624#1A0057FFFF400000
(1485366085.695381) can0 630#1700000000000000
(1485366085.704553) can0 638#1300110000000000
(1485366085.717632) can0 440#4202000007000000
(1485366085.812458) can0 442#4012000003000000
(1485366085.882632) can0 620#1000000010600080
(1485366085.912442) can0 440#4202000007000000
(1485366085.912989) can0 610#2000006400000000
(1485366085.923464) can0 611#2100201200021DB5
(1485366086.012263) can0 442#4012000003000000
(1485366086.112226) can0 440#4202000007000000
(1485366086.182253) can0 620#1000000010600080
(1485366086.212817) can0 442#4012000003000000
(1485366086.311949) can0 440#4202000007000000
(1485366086.413153) can0 442#4012000003000000
(1485366086.413945) can0 610#2000006400000000
(1485366086.481904) can0 620#1000000010600080
(1485366086.511752) can0 440#4202000007000000
(1485366086.602486) can0 442#4012000003000000
(1485366086.667186) can0 621#1100000000000000
(1485366086.676085) can0 622#1200000000000000
(1485366086.685262) can0 624#1A0057FFFF400000
(1485366086.694487) can0 630#1700000000000000
(1485366086.701536) can0 440#4202000007000000
(1485366086.703655) can0 638#1300110000000000
(1485366086.781588) can0 620#1000000010600080
(1485366086.792470) can0 442#4012000003000000
(1485366086.891337) can0 440#4202000007000000
(1485366086.912994) can0 610#2000006400000000
(1485366086.925043) can0 611#2100201200021DB5
(1485366086.982871) can0 442#4012000003000000
(1485366087.081096) can0 440#4202000007000000
(1485366087.081334) can0 620#1000000010600080
(1485366087.172535) can0 442#4012000003000000
(1485366087.270833) can0 440#4202000007000000
(1485366087.362447) can0 442#4012000003000000
(1485366087.380821) can0 620#1000000010600080
(1485366087.413442) can0 610#2000006400000000
(1485366087.460641) can0 440#4202000007000000
(1485366087.552679) can0 442#4012000003000000
(1485366087.650379) can0 440#4202000007000000
(1485366087.665981) can0 621#1100000000000000
(1485366087.675106) can0 622#1200000000000000
(1485366087.684308) can0 624#1A0057FFFF400000
(1485366087.693508) can0 620#1000000010600080
(1485366087.702707) can0 630#1700000000000000
(1485366087.711938) can0 638#1300110000000000
(1485366087.742617) can0 442#4012000003000000
(1485366087.840147) can0 440#4202000007000000
(1485366087.913297) can0 610#2000006400000000
(1485366087.923796) can0 611#2100201200021DB5
(1485366087.932371) can0 442#4012000003000000
(1485366087.980226) can0 620#1000000010600080
(1485366088.029991) can0 440#4202000007000000
(1485366088.122519) can0 442#4012000003000000
(1485366088.219820) can0 440#4202000007000000
(1485366088.279910) can0 620#1000000010600080
(1485366088.312391) can0 442#4012000003000000
(1485366088.409663) can0 440#4202000007000000
(1485366088.413074) can0 610#2000006400000000
