(1485365758.473169) can0 0B2#00000000000B
(1485365758.473306) can0 0B0#00000000000B
(1485365758.473607) can0 260#0800000000000375
(1485365758.473822) can0 0B4#00000000000000BC
(1485365758.483102) can0 0B2#00000000000C
(1485365758.483230) can0 0B0#00000000000C
(1485365758.484186) can0 2C1#08FF7DFF7A0000C8
(1485365758.484475) can0 2C4#040500130000A28C
(1485365758.492350) can0 3A0#0000000000000014
(1485365758.493167) can0 0B2#00000000000D
(1485365758.493361) can0 0B0#00000000000D
(1485365758.493611) can0 223#0000007FE000008C
(1485365758.493859) can0 0B4#00000000000000BC
(1485365758.494106) can0 224#0000000000000000
(1485365758.494371) can0 260#0800000000FFF869
(1485365758.503106) can0 0B2#00000000000E
(1485365758.503254) can0 0B0#00000000000E
(1485365758.504230) can0 2C4#040500130000A28C
(1485365758.508881) can0 621#1100000000000000
(1485365758.513180) can0 0B2#00000000000F
(1485365758.513308) can0 0B0#00000000000F
(1485365758.513688) can0 0B4#00000000000000BC
(1485365758.514084) can0 260#0800000000000173
(1485365758.514874) can0 2C1#08FF80FF7A0000CB
(1485365758.518881) can0 622#1200000000000000
(1485365758.523176) can0 0B2#000000000000
(1485365758.523321) can0 0B0#000000000000
(1485365758.523624) can0 223#0000007FE000008C
(1485365758.523932) can0 224#0000000000000000
(1485365758.524241) can0 2C4#040400130000A28B
(1485365758.528005) can0 624#1A0057FFFF400000
(1485365758.531055) can0 442#4002000003000000
(1485365758.533209) can0 0B2#000000000001
(1485365758.533336) can0 0B0#000000000001
(1485365758.533713) can0 0B4#00000000000000BC
(1485365758.534428) can0 260#0800000000FFFB6C
(1485365758.537209) can0 630#1700000000000000
(1485365758.543150) can0 0B2#000000000002
(1485365758.543276) can0 0B0#000000000002
(1485365758.544258) can0 2C1#08FF84FF7D0000D2
(1485365758.544410) can0 2C4#040300130000A28A
(1485365758.546374) can0 638#1300110000000000
(1485365758.553282) can0 0B2#000000000003
(1485365758.553405) can0 0B0#000000000003
(1485365758.553719) can0 223#0000007FE000008C
(1485365758.553925) can0 0B4#00000000000000BC
(1485365758.554201) can0 224#0000000000000000
(1485365758.554500) can0 3B7#0000000000000000
(1485365758.554728) can0 260#0800000000FFFC6D
(1485365758.554980) can0 4C3#0400300500000000
(1485365758.563133) can0 0B2#000000000004
(1485365758.563259) can0 0B0#000000000004
(1485365758.564231) can0 2C4#040400130000A28B
(1485365758.573208) can0 0B2#000000000005
(1485365758.573329) can0 0B0#000000000005
(1485365758.573681) can0 0B4#00000000000000BC
(1485365758.574201) can0 2C1#08FF80FF800000D1
(1485365758.574878) can0 260#0800000000000274
(1485365758.583199) can0 0B2#000000000006
(1485365758.583335) can0 0B0#000000000006
(1485365758.583649) can0 223#0000007FE000008C
(1485365758.583932) can0 224#0000000000000000
(1485365758.584498) can0 2C4#040500130000A28C
(1485365758.592423) can0 3A0#0000000000000014
(1485365758.593173) can0 0B2#000000000007
(1485365758.593301) can0 0B0#000000000007
(1485365758.593649) can0 0B4#00000000000000BC
(1485365758.595042) can0 260#0800000000000375
(1485365758.603120) can0 0B2#000000000008
(1485365758.603260) can0 0B0#000000000008
(1485365758.604225) can0 2C1#08FF7DFF7D0000CB
(1485365758.604386) can0 2C4#040500130000A28C
(1485365758.613274) can0 0B2#000000000009
(1485365758.613411) can0 0B0#000000000009
(1485365758.613710) can0 223#0000007FE000008C
(1485365758.613923) can0 0B4#00000000000000BC
(1485365758.614198) can0 224#0000000000000000
(1485365758.615295) can0 260#0800000000000476
(1485365758.623073) can0 0B2#00000000000A
(1485365758.623237) can0 0B0#00000000000A
(1485365758.624218) can0 2C4#040700130000A28E
(1485365758.628574) can0 440#4202000007000000
(1485365758.633149) can0 0B2#00000000000B
(1485365758.633289) can0 0B0#00000000000B
(1485365758.633613) can0 0B4#00000000000000BC
(1485365758.634192) can0 2C1#08FF6AFF670000A2
(1485365758.635471) can0 260#0800000000FFF364
(1485365758.643167) can0 0B2#00000000000C
(1485365758.643299) can0 0B0#00000000000C
(1485365758.643599) can0 223#0000007FE000008C
(1485365758.643864) can0 224#0000000000000000
(1485365758.644121) can0 620#1000000030600050
(1485365758.644597) can0 2C4#040A00130000A291
(1485365758.644815) can0 4C1#0100500500000000
(1485365758.651550) can0 610#2000006400000000
(1485365758.653171) can0 0B2#00000000000D
(1485365758.653311) can0 0B0#00000000000D
(1485365758.653662) can0 0B4#00000000000000BC
(1485365758.655666) can0 260#0800000000FFF465
(1485365758.663147) can0 0B2#00000000000E
(1485365758.663279) can0 0B0#00000000000E
(1485365758.664205) can0 2C1#08FF64FF60000095
(1485365758.664423) can0 2C4#040A00130000A291
(1485365758.673296) can0 0B2#00000000000F
(1485365758.673424) can0 0B0#00000000000F
(1485365758.673724) can0 223#0000007FE000008C
(1485365758.673958) can0 0B4#00000000000000BC
(1485365758.674240) can0 224#0000000000000000
(1485365758.675917) can0 260#0800010000000578
(1485365758.680600) can0 394#00
(1485365758.683167) can0 0B2#000000000000
(1485365758.683300) can0 0B0#000000000000
(1485365758.684247) can0 2C4#040A00130000A291
(1485365758.691624) can0 611#2100201200021DB5
(1485365758.692403) can0 3A0#0000000000000014
(1485365758.693170) can0 0B2#000000000001
(1485365758.693324) can0 0B0#000000000001
(1485365758.693649) can0 0B4#00000000000000BC
(1485365758.694622) can0 2C1#08FF64FF60000095
(1485365758.696093) can0 260#0800000000FFFF70
(1485365758.702049) can0 640#A8000032020E0000
(1485365758.703247) can0 0B2#000000000002
(1485365758.703387) can0 0B0#000000000002
(1485365758.703682) can0 223#0000007FE000008C
(1485365758.704012) can0 224#0000000000000000
(1485365758.704179) can0 2C4#040B00130000A292
(1485365758.713198) can0 0B2#000000000003
(1485365758.713362) can0 0B0#000000000003
(1485365758.713684) can0 0B4#00000000000000BC
(1485365758.716268) can0 260#0800000000FFFE6F
(1485365758.722023) can0 442#4002000003000000
(1485365758.723081) can0 0B2#000000000004
(1485365758.723234) can0 0B0#000000000004
(1485365758.724220) can0 2C1#08FF5DFF5A000088
(1485365758.724389) can0 2C4#040B00130000A292
(1485365758.733273) can0 0B2#000000000005
(1485365758.733412) can0 0B0#000000000005
(1485365758.733681) can0 223#0000007FE000008C
(1485365758.733923) can0 0B4#00000000000000BC
(1485365758.734201) can0 224#0000000000000000
(1485365758.736553) can0 260#0800000000FFFA6B
(1485365758.743123) can0 0B2#000000000006
(1485365758.743275) can0 0B0#000000000006
(1485365758.744221) can0 2C4#040C00130000A293
(1485365758.753199) can0 0B2#000000000007
(1485365758.753335) can0 0B0#000000000007
(1485365758.753689) can0 0B4#00000000000000BC
(1485365758.755090) can0 2C1#08FF57FF5400007C
(1485365758.756695) can0 260#0800000000000274
(1485365758.763199) can0 0B2#000000000008
(1485365758.763334) can0 0B0#000000000008
(1485365758.763620) can0 223#0000007FE000008C
(1485365758.763949) can0 224#0000000000000000
(1485365758.764233) can0 2C4#040C00130000A293
(1485365758.764339) can0 3B3#040C00
(1485365758.773178) can0 0B2#000000000009
(1485365758.773352) can0 0B0#000000000009
(1485365758.773702) can0 0B4#00000000000000BC
(1485365758.776900) can0 260#0800010000FFF365
(1485365758.783043) can0 0B2#00000000000A
(1485365758.783199) can0 0B0#00000000000A
(1485365758.784221) can0 2C1#08FF5AFF5400007F
(1485365758.784387) can0 2C4#040A00130000A291
(1485365758.792425) can0 3A0#0000000000000014
(1485365758.793192) can0 0B2#00000000000B
(1485365758.793336) can0 0B0#00000000000B
(1485365758.793638) can0 223#0000007FE000008C
(1485365758.793842) can0 0B4#00000000000000BC
(1485365758.794117) can0 224#0000000000000000
(1485365758.797151) can0 260#0800000000FFED5E
(1485365758.803146) can0 0B2#00000000000C
(1485365758.803277) can0 0B0#00000000000C
(1485365758.804223) can0 2C4#040A00130000A291
(1485365758.813151) can0 0B2#00000000000D
(1485365758.813364) can0 0B0#00000000000D
(1485365758.813635) can0 0B4#00000000000000BC
(1485365758.814152) can0 2C1#08FF64FF5A00008F
(1485365758.817325) can0 260#0800000000000A7C
(1485365758.818068) can0 3B4#00003BB800000000
(1485365758.818311) can0 440#4202000007000000
(1485365758.823223) can0 0B2#00000000000E
(1485365758.823361) can0 0B0#00000000000E
(1485365758.823621) can0 223#0000007FE000008C
(1485365758.823950) can0 224#0000000000000000
(1485365758.824232) can0 2C4#040800130000A28F
(1485365758.833198) can0 0B2#00000000000F
(1485365758.833337) can0 0B0#00000000000F
(1485365758.833687) can0 0B4#00000000000000BC
(1485365758.837525) can0 260#0800000000FFF869
(1485365758.843032) can0 0B2#000000000000
(1485365758.843220) can0 0B0#000000000000
(1485365758.844444) can0 2C1#08FF67FF60000098
(1485365758.844612) can0 2C4#040700130000A28E
(1485365758.853251) can0 0B2#000000000001
(1485365758.853387) can0 0B0#000000000001
(1485365758.853660) can0 223#0000007FE000008C
(1485365758.853897) can0 0B4#00000000000000BC
(1485365758.854157) can0 224#0000000000000000
(1485365758.854475) can0 3B7#0000000000000000
(1485365758.857777) can0 260#0800000000FFF667
(1485365758.863073) can0 0B2#000000000002
(1485365758.863197) can0 0B0#000000000002
(1485365758.864222) can0 2C4#040600130000A28D
(1485365758.873151) can0 0B2#000000000003
(1485365758.873287) can0 0B0#000000000003
(1485365758.873612) can0 0B4#00000000000000BC
(1485365758.874182) can0 2C1#08FF6DFF6A0000A8
(1485365758.877948) can0 260#0800000000FFF96A
(1485365758.883170) can0 0B2#000000000004
(1485365758.883298) can0 0B0#000000000004
(1485365758.883597) can0 223#0000007FE000008C
(1485365758.883865) can0 224#0000000000000000
(1485365758.884224) can0 2C4#040500130000A28C
(1485365758.892424) can0 3A0#0000000000000014
(1485365758.893121) can0 0B2#000000000005
(1485365758.893251) can0 0B0#000000000005
(1485365758.893599) can0 0B4#00000000000000BC
(1485365758.898126) can0 260#0800000000000375
(1485365758.903047) can0 0B2#000000000006
(1485365758.903195) can0 0B0#000000000006
(1485365758.904895) can0 2C1#08FF77FF740000BC
(1485365758.905062) can0 2C4#040300130000A28A
(1485365758.911095) can0 442#4002000003000000
(1485365758.913222) can0 0B2#000000000007
(1485365758.913363) can0 0B0#000000000007
(1485365758.913635) can0 223#0000007FE000008C
(1485365758.913875) can0 0B4#00000000000000BC
(1485365758.914160) can0 224#0000000000000000
(1485365758.918396) can0 260#0800000000000577
(1485365758.923073) can0 0B2#000000000008
(1485365758.923202) can0 0B0#000000000008
(1485365758.924218) can0 2C4#040300130000A28A
(1485365758.933124) can0 0B2#000000000009
(1485365758.933261) can0 0B0#000000000009
(1485365758.933611) can0 0B4#00000000000000BC
(1485365758.934205) can0 2C1#08FF77FF740000BC
(1485365758.938575) can0 260#0800000000000173
(1485365758.943171) can0 0B2#00000000000A
(1485365758.943307) can0 0B0#00000000000A
(1485365758.943581) can0 223#0000007FE000008C
(1485365758.943821) can0 620#1000000030600050
(1485365758.944101) can0 224#0000000000000000
(1485365758.944308) can0 2C4#040200130000A289
(1485365758.953151) can0 0B2#00000000000B
(1485365758.953312) can0 0B0#00000000000B
(1485365758.953661) can0 0B4#00000000000000BC
(1485365758.957901) can0 4DD#1E00000500000000
(1485365758.958730) can0 260#0800000000000173
(1485365758.963096) can0 0B2#00000000000C
(1485365758.963238) can0 0B0#00000000000C
(1485365758.964205) can0 2C1#08FF7DFF770000C5
(1485365758.964379) can0 2C4#040100130000A288
(1485365758.973277) can0 0B2#00000000000D
(1485365758.973428) can0 0B0#00000000000D
(1485365758.973701) can0 223#0000007FE000008C
(1485365758.973937) can0 0B4#00000000000000BC
(1485365758.974172) can0 224#0000000000000000
(1485365758.978997) can0 260#0800000000000173
(1485365758.983073) can0 0B2#00000000000E
(1485365758.983213) can0 0B0#00000000000E
(1485365758.983672) can0 394#00
(1485365758.984218) can0 2C4#040000130000A287
(1485365758.992376) can0 3A0#0000000000000014
(1485365758.993117) can0 0B2#00000000000F
(1485365758.993262) can0 0B0#00000000000F
(1485365758.993603) can0 0B4#00000000000000BC
(1485365758.994444) can0 2C1#08FF84FF800000D5
(1485365758.999147) can0 260#0800000000FFFF70
(1485365759.003141) can0 0B2#000000000000
(1485365759.003305) can0 0B0#000000000000
(1485365759.003604) can0 223#0000007FE000008C
(1485365759.003874) can0 224#0000000000000000
(1485365759.004203) can0 2C4#040000130000A287
(1485365759.008182) can0 440#4202000007000000
(1485365759.013178) can0 0B2#000000000001
(1485365759.013311) can0 0B0#000000000001
(1485365759.013663) can0 0B4#00000000000000BC
(1485365759.019324) can0 260#0800000000FFF566
(1485365759.023075) can0 0B2#000000000002
(1485365759.023214) can0 0B0#000000000002
(1485365759.024226) can0 2C1#08FF87FF840000DC
(1485365759.024388) can0 2C4#040000130000A287
(1485365759.033226) can0 0B2#000000000003
(1485365759.033361) can0 0B0#000000000003
(1485365759.033681) can0 223#0000007FE000008C
(1485365759.033853) can0 0B4#00000000000000BC
(1485365759.034157) can0 224#0000000000000000
(1485365759.039551) can0 260#0800000000000072
(1485365759.043076) can0 0B2#000000000004
(1485365759.043210) can0 0B0#000000000004
(1485365759.044218) can0 2C4#040300130000A28A
(1485365759.053147) can0 0B2#000000000005
(1485365759.053280) can0 0B0#000000000005
(1485365759.053645) can0 0B4#00000000000000BC
(1485365759.054544) can0 2C1#08FF6DFF770000B5
(1485365759.059648) can0 260#0800000000000072
(1485365759.063200) can0 0B2#000000000006
(1485365759.063338) can0 0B0#000000000006
(1485365759.063610) can0 223#0000007FE000008C
(1485365759.063928) can0 224#0000000000000000
(1485365759.064207) can0 2C4#040500130000A28C
(1485365759.073161) can0 0B2#000000000007
(1485365759.073304) can0 0B0#000000000007
(1485365759.073612) can0 0B4#00000000000000BC
(1485365759.079874) can0 260#0800000000FFF869
(1485365759.083094) can0 0B2#000000000008
(1485365759.083236) can0 0B0#000000000008
(1485365759.084229) can0 2C1#08FF67FF6A0000A2
(1485365759.084384) can0 2C4#040700130000A28E
(1485365759.092374) can0 3A0#0000000000000014
(1485365759.093247) can0 0B2#000000000009
(1485365759.093359) can0 0B0#000000000009
(1485365759.093663) can0 223#0000007FE000008C
(1485365759.093923) can0 0B4#00000000000000BC
(1485365759.094139) can0 224#0000000000000000
(1485365759.100048) can0 260#0800000000000C7E
(1485365759.101131) can0 442#4002000003000000
(1485365759.103104) can0 0B2#00000000000A
(1485365759.103231) can0 0B0#00000000000A
(1485365759.104418) can0 2C4#040800130000A28F
(1485365759.113157) can0 0B2#00000000000B
(1485365759.113308) can0 0B0#00000000000B
(1485365759.113663) can0 0B4#00000000000000BC
(1485365759.114163) can0 2C1#08FF60FF5D00008E
(1485365759.120085) can0 260#0800000000000072
(1485365759.123179) can0 0B2#00000000000C
(1485365759.123322) can0 0B0#00000000000C
(1485365759.123607) can0 223#0000007FE000008C
(1485365759.123877) can0 224#0000000000000000
(1485365759.124212) can0 2C4#040800130000A28F
(1485365759.133184) can0 0B2#00000000000D
(1485365759.133308) can0 0B0#00000000000D
(1485365759.133674) can0 0B4#00000000000000BC
(1485365759.140460) can0 260#0800000000000779
(1485365759.143054) can0 0B2#00000000000E
(1485365759.143195) can0 0B0#00000000000E
(1485365759.144213) can0 2C1#08FF60FF5D00008E
(1485365759.144393) can0 2C4#040800130000A28F
(1485365759.151235) can0 610#2000006400000000
(1485365759.153207) can0 0B2#00000000000F
(1485365759.153333) can0 0B0#00000000000F
(1485365759.153649) can0 223#0000007FE000008C
(1485365759.153899) can0 0B4#00000000000000BC
(1485365759.154091) can0 224#0000000000000000
(1485365759.154447) can0 3B7#0000000000000000
(1485365759.160511) can0 260#0800000000000375
(1485365759.163083) can0 0B2#000000000000
(1485365759.163207) can0 0B0#000000000000
(1485365759.164199) can0 2C4#040800130000A28F
(1485365759.173160) can0 0B2#000000000001
(1485365759.173283) can0 0B0#000000000001
(1485365759.173643) can0 0B4#00000000000000BC
(1485365759.174166) can0 2C1#08FF5DFF5A000088
(1485365759.180883) can0 260#0800000000000E80
(1485365759.181303) can0 4ED#5C00000000000000
(1485365759.183202) can0 0B2#000000000002
(1485365759.183334) can0 0B0#000000000002
(1485365759.183661) can0 223#0000007FE000008C
(1485365759.183921) can0 224#0000000000000000
(1485365759.185405) can0 2C4#040600130000A28D
(1485365759.187929) can0 3B1#0000022A00000000
(1485365759.192362) can0 3A0#0000000000000014
(1485365759.193183) can0 0B2#000000000003
(1485365759.193295) can0 0B0#000000000003
(1485365759.193606) can0 0B4#00000000000000BC
(1485365759.196029) can0 4C8#0900010700000000
(1485365759.197947) can0 440#4202000007000000
(1485365759.201076) can0 260#0800010000000376
(1485365759.203095) can0 0B2#000000000004
(1485365759.203236) can0 0B0#000000000004
(1485365759.204200) can0 2C1#08FF67FF60000098
(1485365759.204360) can0 2C4#040500130000A28C
(1485365759.213276) can0 0B2#000000000005
(1485365759.213407) can0 0B0#000000000005
(1485365759.213686) can0 223#0000007FE000008C
(1485365759.213950) can0 0B4#00000000000000BC
(1485365759.214157) can0 224#0000000000000000
(1485365759.221275) can0 260#0800000000FFF364
(1485365759.222308) can0 4DC#1D00010900000000
(1485365759.223094) can0 0B2#000000000006
(1485365759.223235) can0 0B0#000000000006
(1485365759.224198) can0 2C4#040500130000A28C
(1485365759.233176) can0 0B2#000000000007
(1485365759.233307) can0 0B0#000000000007
(1485365759.233679) can0 0B4#00000000000000BC
(1485365759.234197) can0 2C1#08FF6AFF670000A2
(1485365759.241477) can0 260#0800000000FFF768
(1485365759.243144) can0 0B2#000000000008
(1485365759.243306) can0 0B0#000000000008
(1485365759.243604) can0 223#0000007FE000008C
(1485365759.243841) can0 620#1000000030600050
(1485365759.244052) can0 224#0000000000000000
(1485365759.244284) can0 2C4#040500130000A28C
(1485365759.253152) can0 0B2#000000000009
(1485365759.253313) can0 0B0#000000000009
(1485365759.253649) can0 0B4#00000000000000BC
(1485365759.261699) can0 260#0800000000000779
(1485365759.262320) can0 3B0#0000003200
(1485365759.263071) can0 0B2#00000000000A
(1485365759.263219) can0 0B0#00000000000A
(1485365759.264201) can0 2C1#08FF6AFF670000A2
(1485365759.264375) can0 2C4#040400130000A28B
(1485365759.264551) can0 3B3#040400
(1485365759.273253) can0 0B2#00000000000B
(1485365759.273395) can0 0B0#00000000000B
(1485365759.273706) can0 223#0000007FE000008C
(1485365759.273927) can0 0B4#00000000000000BC
(1485365759.274202) can0 224#0000000000000000
(1485365759.281702) can0 260#0800000000000375
(1485365759.283094) can0 0B2#00000000000C
(1485365759.283237) can0 0B0#00000000000C
(1485365759.284223) can0 2C4#040400130000A28B
(1485365759.286872) can0 394#00
(1485365759.291225) can0 442#4002000003000000
(1485365759.292374) can0 3A0#0000000000000014
(1485365759.293143) can0 0B2#00000000000D
(1485365759.293285) can0 0B0#00000000000D
(1485365759.293631) can0 0B4#00000000000000BC
(1485365759.294159) can0 2C1#08FF6AFF670000A2
(1485365759.302102) can0 260#0800000000FFFC6D
(1485365759.303125) can0 0B2#00000000000E
(1485365759.303261) can0 0B0#00000000000E
(1485365759.303531) can0 223#0000007FE000008C
(1485365759.303890) can0 224#0000000000000000
(1485365759.304220) can0 2C4#040500130000A28C
(1485365759.313127) can0 0B2#00000000000F
(1485365759.313270) can0 0B0#00000000000F
(1485365759.313580) can0 0B4#00000000000000BC
(1485365759.319050) can0 38A#0804000000
(1485365759.322121) can0 260#0800000000000678
(1485365759.322294) can0 380#00A0043000000300
(1485365759.323095) can0 0B2#000000000000
(1485365759.323232) can0 0B0#000000000000
(1485365759.324201) can0 2C1#08FF67FF6400009C
(1485365759.324373) can0 2C4#040500130000A28C
(1485365759.333249) can0 0B2#000000000001
(1485365759.333423) can0 0B0#000000000001
(1485365759.333683) can0 223#0000007FE000008C
(1485365759.333942) can0 0B4#00000000000000BC
(1485365759.334197) can0 224#0000000000000000
(1485365759.342502) can0 260#0800000000FFFE6F
(1485365759.343094) can0 0B2#000000000002
(1485365759.343246) can0 0B0#000000000002
(1485365759.344199) can0 2C4#040300130000A28A
(1485365759.353172) can0 0B2#000000000003
(1485365759.353320) can0 0B0#000000000003
(1485365759.353663) can0 0B4#00000000000000BC
(1485365759.354157) can0 2C1#08FF6DFF6A0000A8
(1485365759.362551) can0 260#0800000000FFFC6D
(1485365759.363141) can0 0B2#000000000004
(1485365759.363289) can0 0B0#000000000004
(1485365759.363580) can0 223#0000007FE000008C
(1485365759.363871) can0 224#0000000000000000
(1485365759.364193) can0 2C4#040300130000A28A
(1485365759.373077) can0 0B2#000000000005
(1485365759.373262) can0 0B0#000000000005
(1485365759.373559) can0 0B4#00000000000000BC
(1485365759.382923) can0 260#0800000000000577
(1485365759.383060) can0 0B2#000000000006
(1485365759.383302) can0 0B0#000000000006
(1485365759.384193) can0 2C1#08FF70FF6A0000AB
(1485365759.384365) can0 2C4#040300130000A28A
(1485365759.387664) can0 440#4202000007000000
(1485365759.392351) can0 3A0#0000000000000014
(1485365759.393173) can0 0B2#000000000007
(1485365759.393331) can0 0B0#000000000007
(1485365759.393598) can0 223#0000007FE000008C
(1485365759.393850) can0 0B4#00000000000000BC
(1485365759.394110) can0 224#0000000000000000
(1485365759.402953) can0 260#0800000000000779
(1485365759.403094) can0 0B2#000000000008
(1485365759.403339) can0 0B0#000000000008
(1485365759.404410) can0 2C4#040200130000A289
(1485365759.413102) can0 0B2#000000000009
(1485365759.413247) can0 0B0#000000000009
(1485365759.413587) can0 0B4#00000000000000BC
(1485365759.414119) can0 2C1#08FF7AFF700000BB
(1485365759.423127) can0 0B2#00000000000A
(1485365759.423271) can0 0B0#00000000000A
(1485365759.423512) can0 223#0000007FE000008C
(1485365759.423867) can0 260#0800000000FFF566
(1485365759.423995) can0 224#0000000000000000
(1485365759.424281) can0 2C4#040100130000A288
(1485365759.433084) can0 0B2#00000000000B
(1485365759.433251) can0 0B0#00000000000B
(1485365759.433601) can0 0B4#00000000000000BC
(1485365759.443051) can0 0B2#00000000000C
(1485365759.443184) can0 0B0#00000000000C
(1485365759.443475) can0 260#0800000000FFF566
(1485365759.444159) can0 2C1#08FF7AFF770000C2
(1485365759.444377) can0 2C4#040100130000A288
(1485365759.453202) can0 0B2#00000000000D
(1485365759.453319) can0 0B0#00000000000D
(1485365759.453613) can0 223#0000007FE000008C
(1485365759.453867) can0 0B4#00000000000000BC
(1485365759.454083) can0 224#0000000000000000
(1485365759.454404) can0 3B7#0000000000000000
(1485365759.463048) can0 0B2#00000000000E
(1485365759.463209) can0 0B0#00000000000E
(1485365759.463713) can0 260#0800000000FFF566
(1485365759.465002) can0 2C4#040300130000A28A
(1485365759.473126) can0 0B2#00000000000F
(1485365759.473269) can0 0B0#00000000000F
(1485365759.473633) can0 0B4#00000000000000BC
(1485365759.474176) can0 2C1#08FF70FF6D0000AE
(1485365759.481002) can0 442#4002000003000000
(1485365759.483174) can0 0B2#000000000000
(1485365759.483309) can0 0B0#000000000000
(1485365759.483602) can0 223#0000007FE000008C
(1485365759.483841) can0 260#0800000000000274
(1485365759.484096) can0 224#0000000000000000
(1485365759.484302) can0 2C4#040300130000A28A
(1485365759.484584) can0 4C3#0400300500000000
(1485365759.492324) can0 3A0#0000000000000014
(1485365759.493123) can0 0B2#000000000001
(1485365759.493271) can0 0B0#000000000001
(1485365759.493614) can0 0B4#00000000000000BC
(1485365759.503048) can0 0B2#000000000002
(1485365759.503183) can0 0B0#000000000002
(1485365759.504173) can0 2C1#08FF6DFF6D0000AB
(1485365759.504344) can0 260#080001000000087B
(1485365759.504641) can0 2C4#040400130000A28B
(1485365759.507721) can0 621#1100000000000000
(1485365759.513200) can0 0B2#000000000003
(1485365759.513341) can0 0B0#000000000003
(1485365759.513638) can0 223#0000007FE000008C
(1485365759.513875) can0 0B4#00000000000000BC
(1485365759.514125) can0 224#0000000000000000
(1485365759.517676) can0 622#1200000000000000
(1485365759.523048) can0 0B2#000000000004
(1485365759.523209) can0 0B0#000000000004
(1485365759.524197) can0 2C4#040500130000A28C
(1485365759.524406) can0 260#080007000000067F
(1485365759.526970) can0 624#1A0057FFFF400000
(1485365759.533127) can0 0B2#000000000005
(1485365759.533271) can0 0B0#000000000005
(1485365759.533615) can0 0B4#00000000000000BC
(1485365759.534118) can0 2C1#08FF6AFF670000A2
(1485365759.536172) can0 630#1700000000000000
(1485365759.543146) can0 0B2#000000000006
(1485365759.543279) can0 0B0#000000000006
(1485365759.543536) can0 223#0000007FE000008C
(1485365759.543872) can0 224#0000000000000000
(1485365759.544180) can0 2C4#040400130000A28B
(1485365759.544684) can0 260#080006000000057D
(1485365759.545371) can0 638#1300110000000000
(1485365759.553127) can0 0B2#000000000007
(1485365759.553261) can0 0B0#000000000007
(1485365759.553614) can0 0B4#00000000000000BC
(1485365759.554448) can0 4C1#0100500500000000
(1485365759.554612) can0 620#1000000030600050
(1485365759.563050) can0 0B2#000000000008
(1485365759.563193) can0 0B0#000000000008
(1485365759.564172) can0 2C1#08FF70FF6A0000AB
(1485365759.564355) can0 2C4#040300130000A28A
(1485365759.564859) can0 260#08FFFE000000006F
(1485365759.573203) can0 0B2#000000000009
(1485365759.573335) can0 0B0#000000000009
(1485365759.573639) can0 223#0000007FE000008C
(1485365759.573879) can0 0B4#00000000000000BC
(1485365759.574125) can0 224#0000000000000000
(1485365759.577477) can0 440#4202000007000000
(1485365759.583101) can0 0B2#00000000000A
(1485365759.583236) can0 0B0#00000000000A
(1485365759.584200) can0 2C4#040200130000A289
(1485365759.585098) can0 260#08FFF80000FFFB63
(1485365759.589878) can0 394#00
(1485365759.592325) can0 3A0#0000000000000014
(1485365759.593123) can0 0B2#00000000000B
(1485365759.593259) can0 0B0#00000000000B
(1485365759.593631) can0 0B4#00000000000000BC
(1485365759.594148) can0 2C1#08FF74FF700000B5
(1485365759.603076) can0 0B2#00000000000C
(1485365759.603284) can0 0B0#00000000000C
(1485365759.603513) can0 223#0000007FE000008C
(1485365759.603839) can0 224#0000000000000000
(1485365759.604139) can0 2C4#040300130000A28A
(1485365759.605265) can0 260#08FFFE0000FFFC6A
(1485365759.613153) can0 0B2#00000000000D
(1485365759.613279) can0 0B0#00000000000D
(1485365759.613632) can0 0B4#00000000000000BC
(1485365759.623078) can0 0B2#00000000000E
(1485365759.623210) can0 0B0#00000000000E
(1485365759.624120) can0 2C1#08FF6DFF6D0000AB
(1485365759.624359) can0 2C4#040400130000A28B
(1485365759.625504) can0 260#080005000000067D
(1485365759.633158) can0 0B2#00000000000F
(1485365759.633415) can0 0B0#00000000000F
(1485365759.633597) can0 223#0000007FE000008C
(1485365759.633917) can0 0B4#00000000000000BC
(1485365759.634101) can0 224#0000000000000000
(1485365759.643073) can0 0B2#000000000000
(1485365759.643211) can0 0B0#000000000000
(1485365759.644175) can0 2C4#040500130000A28C
(1485365759.645724) can0 260#080007000000037C
(1485365759.651352) can0 610#2000006400000000
(1485365759.653149) can0 0B2#000000000001
(1485365759.653271) can0 0B0#000000000001
(1485365759.653631) can0 0B4#00000000000000BC
(1485365759.654147) can0 2C1#08FF60FF67000098
(1485365759.663128) can0 0B2#000000000002
(1485365759.663269) can0 0B0#000000000002
(1485365759.663566) can0 223#0000007FE000008C
(1485365759.663851) can0 224#0000000000000000
(1485365759.664604) can0 2C4#040700130000A28E
(1485365759.665974) can0 260#08000B000000027F
(1485365759.671402) can0 442#4002000003000000
(1485365759.673102) can0 0B2#000000000003
(1485365759.673245) can0 0B0#000000000003
(1485365759.673589) can0 0B4#00000000000000BC
(1485365759.683001) can0 0B2#000000000004
(1485365759.683193) can0 0B0#000000000004
(1485365759.684117) can0 2C1#08FF57FF5D000085
(1485365759.684364) can0 2C4#040800130000A28F
(1485365759.686149) can0 260#0800050000FFF56B
(1485365759.691108) can0 611#2100201200021DB5
(1485365759.692291) can0 3A0#0000000000000014
(1485365759.693195) can0 0B2#000000000005
(1485365759.693376) can0 0B0#000000000005
(1485365759.693656) can0 223#0000007FE000008C
(1485365759.693870) can0 0B4#00000000000000BC
(1485365759.694115) can0 224#0000000000000000
(1485365759.703100) can0 640#A8000032020E0000
(1485365759.703247) can0 0B2#000000000006
(1485365759.703492) can0 0B0#000000000006
(1485365759.704187) can0 2C4#040800130000A28F
(1485365759.706323) can0 260#08FFFA000000006B
(1485365759.713154) can0 0B2#000000000007
(1485365759.713316) can0 0B0#000000000007
(1485365759.713636) can0 0B4#00000000000000BC
(1485365759.714148) can0 2C1#08FF60FF57000088
(1485365759.723174) can0 0B2#000000000008
(1485365759.723299) can0 0B0#000000000008
(1485365759.723601) can0 223#0000007FE000008C
(1485365759.723872) can0 224#0000000000000000
(1485365759.724151) can0 2C4#040600130000A28D
(1485365759.726574) can0 260#08FFF8000000056E
(1485365759.733202) can0 0B2#000000000009
(1485365759.733311) can0 0B0#000000000009
(1485365759.733665) can0 0B4#00000000000000BC
(1485365759.743097) can0 0B2#00000000000A
(1485365759.743247) can0 0B0#00000000000A
(1485365759.745329) can0 2C1#08FF6DFF670000A5
(1485365759.745514) can0 2C4#040300130000A28A
(1485365759.746767) can0 260#0800000000000375
(1485365759.753184) can0 0B2#00000000000B
(1485365759.753373) can0 0B0#00000000000B
(1485365759.753612) can0 223#0000007FE000008C
(1485365759.753863) can0 0B4#00000000000000BC
(1485365759.754115) can0 224#0000000000000000
(1485365759.754412) can0 3B7#0000000000000000
(1485365759.762999) can0 0B2#00000000000C
(1485365759.763239) can0 0B0#00000000000C
(1485365759.764083) can0 2C4#040300130000A28A
(1485365759.764284) can0 3B3#040300
(1485365759.766953) can0 260#080007000000057E
(1485365759.767276) can0 440#4202000007000000
(1485365759.773129) can0 0B2#00000000000D
(1485365759.773287) can0 0B0#00000000000D
(1485365759.773603) can0 0B4#00000000000000BC
(1485365759.774120) can0 2C1#08FF6DFF6A0000A8
(1485365759.783154) can0 0B2#00000000000E
(1485365759.783296) can0 0B0#00000000000E
(1485365759.783601) can0 223#0000007FE000008C
(1485365759.783871) can0 224#0000000000000000
(1485365759.784219) can0 2C4#040400130000A28B
(1485365759.787200) can0 260#0800030000FFEF63
(1485365759.792304) can0 3A0#0000000000000014
(1485365759.793153) can0 0B2#00000000000F
(1485365759.793311) can0 0B0#00000000000F
(1485365759.793655) can0 0B4#00000000000000BC
(1485365759.803077) can0 0B2#000000000000
(1485365759.803221) can0 0B0#000000000000
(1485365759.804173) can0 2C1#08FF6AFF670000A2
(1485365759.804332) can0 2C4#040400130000A28B
(1485365759.807385) can0 260#08FFF90000000872
(1485365759.813225) can0 0B2#000000000001
(1485365759.813360) can0 0B0#000000000001
(1485365759.813670) can0 223#0000007FE000008C
(1485365759.813853) can0 0B4#00000000000000BC
(1485365759.814120) can0 224#0000000000000000
(1485365759.819771) can0 3B4#00003BB800000000
(1485365759.823021) can0 0B2#000000000002
(1485365759.823165) can0 0B0#000000000002
(1485365759.824167) can0 2C4#040300130000A28A
(1485365759.827550) can0 260#08FFF90000000973
(1485365759.833078) can0 0B2#000000000003
(1485365759.833245) can0 0B0#000000000003
(1485365759.833533) can0 0B4#00000000000000BC
(1485365759.834120) can0 2C1#08FF6AFF670000A2
(1485365759.842726) can0 620#1000000030600050
(1485365759.843206) can0 0B2#000000000004
(1485365759.843358) can0 0B0#000000000004
(1485365759.843622) can0 223#0000007FE000008C
(1485365759.843951) can0 224#0000000000000000
(1485365759.844170) can0 2C4#040200130000A289
(1485365759.847874) can0 260#0800010000FFFB6D
(1485365759.853178) can0 0B2#000000000005
(1485365759.853310) can0 0B0#000000000005
(1485365759.853657) can0 0B4#00000000000000BC
(1485365759.860904) can0 442#4002000003000000
(1485365759.863076) can0 0B2#000000000006
(1485365759.863221) can0 0B0#000000000006
(1485365759.864173) can0 2C1#08FF77FF6D0000B5
(1485365759.864333) can0 2C4#040100130000A288
(1485365759.868000) can0 260#0800070000000881
(1485365759.873229) can0 0B2#000000000007
(1485365759.873372) can0 0B0#000000000007
(1485365759.873665) can0 223#0000007FE000008C
(1485365759.873928) can0 0B4#00000000000000BC
(1485365759.874142) can0 224#0000000000000000
(1485365759.883051) can0 0B2#000000000008
(1485365759.883186) can0 0B0#000000000008
(1485365759.884171) can0 2C4#040000130000A287
(1485365759.888178) can0 260#080003000000057A
(1485365759.892330) can0 3A0#0000000000000014
(1485365759.892917) can0 394#00
(1485365759.893071) can0 0B2#000000000009
(1485365759.893311) can0 0B0#000000000009
(1485365759.893596) can0 0B4#00000000000000BC
(1485365759.895125) can0 2C1#08FF84FF7A0000CF
(1485365759.903106) can0 0B2#00000000000A
(1485365759.903236) can0 0B0#00000000000A
(1485365759.903504) can0 223#0000007FE000008C
(1485365759.903854) can0 224#0000000000000000
(1485365759.904125) can0 2C4#03FE00130000A284
(1485365759.908459) can0 260#08FFFC0000FFF864
(1485365759.913105) can0 0B2#00000000000B
(1485365759.913248) can0 0B0#00000000000B
(1485365759.913590) can0 0B4#00000000000000BC
(1485365759.922953) can0 0B2#00000000000C
(1485365759.923172) can0 0B0#00000000000C
(1485365759.924122) can0 2C1#08FF8DFF840000E2
(1485365759.924358) can0 2C4#03FD00130000A283
(1485365759.928561) can0 260#08FFFD0000000A78
(1485365759.933179) can0 0B2#00000000000D
(1485365759.933312) can0 0B0#00000000000D
(1485365759.933615) can0 223#0000007FE000008C
(1485365759.933829) can0 0B4#00000000000000BC
(1485365759.934103) can0 224#0000000000000000
(1485365759.943001) can0 0B2#00000000000E
(1485365759.943164) can0 0B0#00000000000E
(1485365759.944173) can0 2C4#03FC00130000A282
(1485365759.948778) can0 260#0800020000FFF366
(1485365759.949901) can0 398#0700
(1485365759.953079) can0 0B2#00000000000F
(1485365759.953212) can0 0B0#00000000000F
(1485365759.953539) can0 0B4#00000000000000BC
(1485365759.954124) can0 2C1#08FF97FF900000F8
(1485365759.956980) can0 440#4202000007000000
(1485365759.963101) can0 0B2#000000000000
(1485365759.963238) can0 0B0#000000000000
(1485365759.963532) can0 223#0000007FE000008C
(1485365759.963850) can0 224#0000000000000000
(1485365759.964464) can0 2C4#03FB00130000A281
(1485365759.969004) can0 4DD#1E00000500000000
(1485365759.969189) can0 260#0800030000000B80
(1485365759.973078) can0 0B2#000000000001
(1485365759.973242) can0 0B0#000000000001
(1485365759.973539) can0 0B4#00000000000000BC
(1485365759.983024) can0 0B2#000000000002
(1485365759.983156) can0 0B0#000000000002
(1485365759.984167) can0 2C1#08FF9AFF940000FF
(1485365759.984346) can0 2C4#03FB00130000A281
(1485365759.989205) can0 260#08FFFC0000000A77
(1485365759.992301) can0 3A0#0000000000000014
(1485365759.993151) can0 0B2#000000000003
(1485365759.993315) can0 0B0#000000000003
(1485365759.993590) can0 223#0000007FE000008C
(1485365759.993860) can0 0B4#00000000000000BC
(1485365759.994080) can0 224#0000000000000000
(1485365760.003005) can0 0B2#000000000004
(1485365760.003190) can0 0B0#000000000004
(1485365760.004092) can0 2C4#03FC00130000A282
(1485365760.009239) can0 260#08FFF70000FFFC63
(1485365760.013123) can0 0B2#000000000005
(1485365760.013263) can0 0B0#000000000005
(1485365760.013616) can0 0B4#00000000000000BC
(1485365760.014146) can0 2C1#08FF9AFF97000002
(1485365760.023076) can0 0B2#000000000006
(1485365760.023261) can0 0B0#000000000006
(1485365760.023510) can0 223#0000007FE000008C
(1485365760.023813) can0 224#0000000000000000
(1485365760.024084) can0 2C4#03FC00130000A282
(1485365760.029603) can0 260#08FFFC0000FFFC68
(1485365760.033105) can0 0B2#000000000007
(1485365760.033239) can0 0B0#000000000007
(1485365760.033610) can0 0B4#00000000000000BC
(1485365760.043051) can0 0B2#000000000008
(1485365760.043175) can0 0B0#000000000008
(1485365760.045330) can0 2C1#08FF84FF900000E5
(1485365760.045491) can0 2C4#040100130000A288
(1485365760.049804) can0 260#080005000000037A
(1485365760.051172) can0 442#4002000003000000
(1485365760.053178) can0 0B2#000000000009
(1485365760.053312) can0 0B0#000000000009
(1485365760.053615) can0 223#0000007FE000008C
(1485365760.053829) can0 0B4#00000000000000BC
(1485365760.054122) can0 224#0000000000000000
(1485365760.054410) can0 3B7#0000000000000000
(1485365760.063025) can0 0B2#00000000000A
(1485365760.063183) can0 0B0#00000000000A
(1485365760.064173) can0 2C4#040300130000A28A
(1485365760.069902) can0 260#080007000000017A
(1485365760.073031) can0 0B2#00000000000B
(1485365760.073256) can0 0B0#00000000000B
(1485365760.073567) can0 0B4#00000000000000BC
(1485365760.074115) can0 2C1#08FF7AFF770000C2
(1485365760.083078) can0 0B2#00000000000C
(1485365760.083255) can0 0B0#00000000000C
(1485365760.083571) can0 223#0000007FE000008C
(1485365760.083849) can0 224#0000000000000000
(1485365760.084198) can0 2C4#040500130000A28C
(1485365760.089926) can0 260#0800000000000678
(1485365760.092279) can0 3A0#0000000000000014
(1485365760.093100) can0 0B2#00000000000D
(1485365760.093244) can0 0B0#00000000000D
(1485365760.093592) can0 0B4#00000000000000BC
(1485365760.103003) can0 0B2#00000000000E
(1485365760.103216) can0 0B0#00000000000E
(1485365760.104084) can0 2C1#08FF6DFF700000AE
(1485365760.104338) can0 2C4#040700130000A28E
(1485365760.110244) can0 260#08FFF9000000006A
(1485365760.113144) can0 0B2#00000000000F
(1485365760.113369) can0 0B0#00000000000F
(1485365760.113618) can0 223#0000007FE000008C
(1485365760.113842) can0 0B4#00000000000000BC
(1485365760.114090) can0 224#0000000000000000
(1485365760.122995) can0 0B2#000000000000
(1485365760.123216) can0 0B0#000000000000
(1485365760.124090) can0 2C4#040800130000A28F
(1485365760.130281) can0 260#08FFFD0000FFF966
(1485365760.133083) can0 0B2#000000000001
(1485365760.133280) can0 0B0#000000000001
(1485365760.133581) can0 0B4#00000000000000BC
(1485365760.134104) can0 2C1#08FF64FF60000095
(1485365760.142305) can0 620#1080000030600040
(1485365760.143104) can0 0B2#000000000002
(1485365760.143329) can0 0B0#000000000002
(1485365760.143554) can0 223#0000007FE000008C
(1485365760.143881) can0 224#0000000000000000
(1485365760.144131) can0 2C4#040800130000A28F
(1485365760.146681) can0 440#4202000007000000
(1485365760.150656) can0 260#0800030000000075
(1485365760.151977) can0 610#2000006400000000
(1485365760.153081) can0 0B2#000000000003
(1485365760.153305) can0 0B0#000000000003
(1485365760.153580) can0 0B4#00000000000000BC
(1485365760.163008) can0 0B2#000000000004
(1485365760.163206) can0 0B0#000000000004
(1485365760.164104) can0 2C1#08FF67FF5D000095
(1485365760.164351) can0 2C4#040700130000A28E
(1485365760.170708) can0 260#080005000000087F
(1485365760.173155) can0 0B2#000000000005
(1485365760.173382) can0 0B0#000000000005
(1485365760.173631) can0 223#0000007FE000008C
(1485365760.173881) can0 0B4#00000000000000BC
(1485365760.174104) can0 224#0000000000000000
(1485365760.180978) can0 4ED#5C00000000000000
(1485365760.183006) can0 0B2#000000000006
(1485365760.183206) can0 0B0#000000000006
(1485365760.184103) can0 2C4#040700130000A28E
(1485365760.186230) can0 4C8#0900010700000000
(1485365760.189532) can0 3B1#0000022A00000000
(1485365760.191081) can0 260#0800000000000779
(1485365760.192229) can0 3A0#0000000000000014
(1485365760.193006) can0 0B2#000000000007
(1485365760.193229) can0 0B0#000000000007
(1485365760.193530) can0 0B4#00000000000000BC
(1485365760.194432) can0 2C1#08FF67FF6400009C
(1485365760.196183) can0 394#00
(1485365760.203057) can0 0B2#000000000008
(1485365760.203282) can0 0B0#000000000008
(1485365760.203532) can0 223#0000007FE000008C
(1485365760.203832) can0 224#0000000000000000
(1485365760.204131) can0 2C4#040700130000A28E
(1485365760.211280) can0 260#08FFFB0000FFF45F
(1485365760.213057) can0 0B2#000000000009
(1485365760.213282) can0 0B0#000000000009
(1485365760.213558) can0 0B4#00000000000000BC
(1485365760.222209) can0 4DC#1D00010900000000
(1485365760.223030) can0 0B2#00000000000A
(1485365760.223230) can0 0B0#00000000000A
(1485365760.224106) can0 2C1#08FF6DFF640000A2
(1485365760.224316) can0 2C4#040500130000A28C
(1485365760.231467) can0 260#08FFFE0000000271
(1485365760.233170) can0 0B2#00000000000B
(1485365760.233369) can0 0B0#00000000000B
(1485365760.233618) can0 223#0000007FE000008C
(1485365760.233869) can0 0B4#00000000000000BC
(1485365760.234118) can0 224#0000000000000000
(1485365760.240718) can0 442#4002000003000000
(1485365760.243041) can0 0B2#00000000000C
(1485365760.243243) can0 0B0#00000000000C
(1485365760.244091) can0 2C4#040300130000A28A
(1485365760.251534) can0 260#0800030000FFFA6E
(1485365760.253082) can0 0B2#00000000000D
(1485365760.253307) can0 0B0#00000000000D
(1485365760.253605) can0 0B4#00000000000000BC
(1485365760.254105) can0 2C1#08FF7DFF740000C2
(1485365760.262184) can0 3B0#0000003200
(1485365760.263105) can0 0B2#00000000000E
(1485365760.263330) can0 0B0#00000000000E
(1485365760.263555) can0 223#0000007FE000008C
(1485365760.263882) can0 224#0000000000000000
(1485365760.264383) can0 2C4#040100130000A288
(1485365760.264545) can0 3B3#040100
(1485365760.271863) can0 260#0800040000000379
(1485365760.273081) can0 0B2#00000000000F
(1485365760.273281) can0 0B0#00000000000F
(1485365760.273578) can0 0B4#00000000000000BC
(1485365760.282956) can0 0B2#000000000000
(1485365760.283187) can0 0B0#000000000000
(1485365760.284082) can0 2C1#08FF80FF7A0000CB
(1485365760.284330) can0 2C4#040100130000A288
(1485365760.292081) can0 260#0800000000000173
(1485365760.292329) can0 3A0#0000000000000014
(1485365760.293108) can0 0B2#000000000001
(1485365760.293306) can0 0B0#000000000001
(1485365760.293558) can0 223#0000007FE000008C
(1485365760.293808) can0 0B4#00000000000000BC
(1485365760.294056) can0 224#0000000000000000
(1485365760.302982) can0 0B2#000000000002
(1485365760.303206) can0 0B0#000000000002
(1485365760.304055) can0 2C4#040100130000A288
(1485365760.312285) can0 260#08FFFD0000FFFC69
(1485365760.313034) can0 0B2#000000000003
(1485365760.313259) can0 0B0#000000000003
(1485365760.313534) can0 0B4#00000000000000BC
(1485365760.314083) can0 2C1#08FF80FF7D0000CE
(1485365760.322207) can0 380#00A0043000000300
(1485365760.323034) can0 0B2#000000000004
(1485365760.323259) can0 0B0#000000000004
(1485365760.323483) can0 223#0000007FE000008C
(1485365760.323786) can0 224#0000000000000000
(1485365760.324832) can0 2C4#040100130000A288
(1485365760.332484) can0 260#0800000000000072
(1485365760.333057) can0 0B2#000000000005
(1485365760.333284) can0 0B0#000000000005
(1485365760.333582) can0 0B4#00000000000000BC
(1485365760.336410) can0 440#4202000007000000
(1485365760.342930) can0 0B2#000000000006
(1485365760.343134) can0 0B0#000000000006
(1485365760.344081) can0 2C1#08FF7AFF7A0000C5
(1485365760.344305) can0 2C4#040300130000A28A
(1485365760.352707) can0 260#0800020000000377
(1485365760.353081) can0 0B2#000000000007
(1485365760.353281) can0 0B0#000000000007
(1485365760.353531) can0 223#0000007FE000008C
(1485365760.353805) can0 0B4#00000000000000BC
(1485365760.354033) can0 224#0000000000000000
(1485365760.354357) can0 3B7#0000000000000000
(1485365760.363009) can0 0B2#000000000008
(1485365760.363206) can0 0B0#000000000008
(1485365760.364080) can0 2C4#040400130000A28B
(1485365760.372707) can0 260#080002000000087C
(1485365760.373109) can0 0B2#000000000009
(1485365760.373311) can0 0B0#000000000009
(1485365760.373610) can0 0B4#00000000000000BC
(1485365760.374060) can0 2C1#08FF74FF700000B5
(1485365760.383084) can0 0B2#00000000000A
(1485365760.383282) can0 0B0#00000000000A
(1485365760.383533) can0 223#0000007FE000008C
(1485365760.383831) can0 224#0000000000000000
(1485365760.384107) can0 2C4#040500130000A28C
(1485365760.392184) can0 3A0#0000000000000014
(1485365760.393058) can0 0B2#00000000000B
(1485365760.393286) can0 0B0#00000000000B
(1485365760.393535) can0 260#0800000000000072
(1485365760.393811) can0 0B4#00000000000000BC
(1485365760.402966) can0 0B2#00000000000C
(1485365760.403168) can0 0B0#00000000000C
(1485365760.404092) can0 2C1#08FF67FF6A0000A2
(1485365760.404315) can0 2C4#040700130000A28E
(1485365760.413122) can0 0B2#00000000000D
(1485365760.413319) can0 0B0#00000000000D
(1485365760.413569) can0 223#0000007FE000008C
(1485365760.413819) can0 0B4#00000000000000BC
(1485365760.414070) can0 224#0000000000000000
(1485365760.414319) can0 260#08FFFE0000FFF664
(1485365760.414569) can0 4C3#0400300500000000
(1485365760.419296) can0 38A#0804000000
(1485365760.422911) can0 0B2#00000000000E
(1485365760.423135) can0 0B0#00000000000E
(1485365760.424091) can0 2C4#040700130000A28E
(1485365760.430818) can0 442#4002000003000000
(1485365760.433019) can0 0B2#00000000000F
(1485365760.433217) can0 0B0#00000000000F
(1485365760.433541) can0 0B4#00000000000000BC
(1485365760.433819) can0 260#0800000000000375
(1485365760.434092) can0 2C1#08FF64FF60000095
(1485365760.441921) can0 620#1000000030600040
(1485365760.443070) can0 0B2#000000000000
(1485365760.443269) can0 0B0#000000000000
(1485365760.443519) can0 223#0000007FE000008C
(1485365760.443819) can0 224#0000000000000000
(1485365760.444119) can0 2C4#040600130000A28D
(1485365760.453021) can0 0B2#000000000001
(1485365760.453217) can0 0B0#000000000001
(1485365760.453517) can0 0B4#00000000000000BC
(1485365760.453820) can0 260#0800010000000477
(1485365760.462920) can0 0B2#000000000002
(1485365760.463120) can0 0B0#000000000002
(1485365760.464039) can0 2C1#08FF74FF670000AC
(1485365760.464290) can0 2C4#040300130000A28A
(1485365760.464549) can0 4C1#0100500500000000
(1485365760.473092) can0 0B2#000000000003
(1485365760.473293) can0 0B0#000000000003
(1485365760.473543) can0 223#0000007FE000008C
(1485365760.473817) can0 0B4#00000000000000BC
(1485365760.474044) can0 224#0000000000000000
(1485365760.474294) can0 260#0800020000FFF164
(1485365760.482944) can0 0B2#000000000004
(1485365760.483145) can0 0B0#000000000004
(1485365760.484092) can0 2C4#040200130000A289
(1485365760.493034) can0 0B2#000000000005
(1485365760.493231) can0 0B0#000000000005
(1485365760.493478) can0 3A0#0000000000000014
(1485365760.493725) can0 0B4#00000000000000BC
(1485365760.494105) can0 2C1#08FF80FF770000C8
(1485365760.494332) can0 260#0800000000000A7C
(1485365760.499083) can0 394#00
(1485365760.503057) can0 0B2#000000000006
(1485365760.503257) can0 0B0#000000000006
(1485365760.503508) can0 223#0000007FE000008C
(1485365760.503833) can0 224#0000000000000000
(1485365760.504106) can0 2C4#040100130000A288
(1485365760.506408) can0 621#1100000000000000
(1485365760.513035) can0 0B2#000000000007
(1485365760.513258) can0 0B0#000000000007
(1485365760.513534) can0 0B4#00000000000000BC
(1485365760.514481) can0 260#08FFFF0000000777
(1485365760.516408) can0 622#1200000000000000
(1485365760.523008) can0 0B2#000000000008
(1485365760.523208) can0 0B0#000000000008
(1485365760.524309) can0 2C1#08FF87FF7D0000D5
(1485365760.524534) can0 2C4#040000130000A287
(1485365760.524908) can0 624#1A0057FFFF400000
(1485365760.526258) can0 440#4202000007000000
(1485365760.533161) can0 0B2#000000000009
(1485365760.533356) can0 0B0#000000000009
(1485365760.533603) can0 223#0000007FE000008C
(1485365760.533856) can0 0B4#00000000000000BC
(1485365760.534104) can0 224#0000000000000000
(1485365760.534352) can0 630#1700000000000000
(1485365760.534685) can0 260#0800000000000779
(1485365760.543015) can0 0B2#00000000000A
(1485365760.543138) can0 0B0#00000000000A
(1485365760.543425) can0 638#1300110000000000
(1485365760.544132) can0 2C4#03FE00130000A284
(1485365760.553091) can0 0B2#00000000000B
(1485365760.553214) can0 0B0#00000000000B
(1485365760.553551) can0 0B4#00000000000000BC
(1485365760.554115) can0 2C1#08FF94FF8D0000F2
(1485365760.554984) can0 260#0800010000FFF466
(1485365760.563113) can0 0B2#00000000000C
(1485365760.563237) can0 0B0#00000000000C
(1485365760.563508) can0 223#0000007FE000008C
(1485365760.563865) can0 224#0000000000000000
(1485365760.564136) can0 2C4#03FE00130000A284
(1485365760.573115) can0 0B2#00000000000D
(1485365760.573238) can0 0B0#00000000000D
(1485365760.573593) can0 0B4#00000000000000BC
(1485365760.575158) can0 260#0800010000000376
(1485365760.583038) can0 0B2#00000000000E
(1485365760.583150) can0 0B0#00000000000E
(1485365760.584160) can0 2C1#08FF9AFF900000FB
(1485365760.584308) can0 2C4#03FC00130000A282
(1485365760.592265) can0 3A0#0000000000000014
(1485365760.593188) can0 0B2#00000000000F
(1485365760.593312) can0 0B0#00000000000F
(1485365760.593603) can0 223#0000007FE000008C
(1485365760.593863) can0 0B4#00000000000000BC
(1485365760.594120) can0 224#0000000000000000
(1485365760.595413) can0 260#0800000000FFF263
(1485365760.603015) can0 0B2#000000000000
(1485365760.603138) can0 0B0#000000000000
(1485365760.604138) can0 2C4#03FC00130000A282
(1485365760.613091) can0 0B2#000000000001
(1485365760.613213) can0 0B0#000000000001
(1485365760.613549) can0 0B4#00000000000000BC
(1485365760.614111) can0 2C1#08FFA0FF9D00000E
(1485365760.615587) can0 260#0800000000000779
(1485365760.622112) can0 442#4002000003000000
(1485365760.623138) can0 0B2#000000000002
(1485365760.623255) can0 0B0#000000000002
(1485365760.623545) can0 223#0000007FE000008C
(1485365760.623865) can0 224#0000000000000000
(1485365760.624473) can0 2C4#03FC00130000A282
(1485365760.633113) can0 0B2#000000000003
(1485365760.633237) can0 0B0#000000000003
(1485365760.633600) can0 0B4#00000000000000BC
(1485365760.635781) can0 260#0800000000000779
(1485365760.643035) can0 0B2#000000000004
(1485365760.643183) can0 0B0#000000000004
(1485365760.644135) can0 2C1#08FF9AFF9A000005
(1485365760.644324) can0 2C4#03FE00130000A284
(1485365760.651413) can0 610#2000006400000000
(1485365760.653188) can0 0B2#000000000005
(1485365760.653311) can0 0B0#000000000005
(1485365760.653628) can0 223#0000007FE000008C
(1485365760.653874) can0 0B4#00000000000000BC
(1485365760.654131) can0 224#0000000000000000
(1485365760.654382) can0 3B7#0000000000000000
(1485365760.656034) can0 260#0800010000000578
(1485365760.663029) can0 0B2#000000000006
(1485365760.663157) can0 0B0#000000000006
(1485365760.664112) can0 2C4#03FF00130000A285
(1485365760.673108) can0 0B2#000000000007
(1485365760.673240) can0 0B0#000000000007
(1485365760.673592) can0 0B4#00000000000000BC
(1485365760.674328) can0 2C1#08FF97FF940000FC
(1485365760.676203) can0 260#0800010000FFFF71
(1485365760.683104) can0 0B2#000000000008
(1485365760.683240) can0 0B0#000000000008
(1485365760.683535) can0 223#0000007FE000008C
(1485365760.683874) can0 224#0000000000000000
(1485365760.684127) can0 2C4#040000130000A287
(1485365760.691381) can0 611#2100201200021DB5
(1485365760.692226) can0 3A0#0000000000000014
(1485365760.693103) can0 0B2#000000000009
(1485365760.693239) can0 0B0#000000000009
(1485365760.693593) can0 0B4#00000000000000BC
(1485365760.696383) can0 260#080001000000077A
(1485365760.701907) can0 640#A8000032020E0000
(1485365760.702974) can0 0B2#00000000000A
(1485365760.703143) can0 0B0#00000000000A
(1485365760.704130) can0 2C1#08FF94FF8D0000F2
(1485365760.704293) can0 2C4#03FF00130000A285
(1485365760.713157) can0 0B2#00000000000B
(1485365760.713267) can0 0B0#00000000000B
(1485365760.713542) can0 223#0000007FE000008C
(1485365760.713873) can0 0B4#00000000000000BC
(1485365760.714016) can0 224#0000000000000000
(1485365760.716657) can0 260#0800040000FFF86D
(1485365760.721476) can0 440#4202000007000000
(1485365760.721639) can0 620#1080000030600050
(1485365760.723051) can0 0B2#00000000000C
(1485365760.723204) can0 0B0#00000000000C
(1485365760.724118) can0 2C4#03FD00130000A283
(1485365760.733079) can0 0B2#00000000000D
(1485365760.733215) can0 0B0#00000000000D
(1485365760.733541) can0 0B4#00000000000000BC
(1485365760.734129) can0 2C1#08FFA0FF9D00000E
(1485365760.736881) can0 260#0800030000000277
(1485365760.743132) can0 0B2#00000000000E
(1485365760.743264) can0 0B0#00000000000E
(1485365760.743543) can0 223#0000007FE000008C
(1485365760.743895) can0 224#0000000000000000
(1485365760.744116) can0 2C4#03FC00130000A282
(1485365760.753132) can0 0B2#00000000000F
(1485365760.753258) can0 0B0#00000000000F
(1485365760.753630) can0 0B4#00000000000000BC
(1485365760.757008) can0 260#08FFFD0000FFF15E
(1485365760.763056) can0 0B2#000000000000
(1485365760.763179) can0 0B0#000000000000
(1485365760.764128) can0 2C1#08FFA7FFA400001C
(1485365760.764284) can0 2C4#03FC00130000A282
(1485365760.764482) can0 3B3#03FC00
(1485365760.773207) can0 0B2#000000000001
(1485365760.773340) can0 0B0#000000000001
(1485365760.773645) can0 223#0000007FE000008C
(1485365760.773860) can0 0B4#00000000000000BC
(1485365760.774149) can0 224#0000000000000000
(1485365760.777259) can0 260#08FFFC0000FFFC68
(1485365760.783054) can0 0B2#000000000002
(1485365760.783181) can0 0B0#000000000002
(1485365760.784128) can0 2C4#03FE00130000A284
(1485365760.792256) can0 3A0#0000000000000014
(1485365760.793104) can0 0B2#000000000003
(1485365760.793241) can0 0B0#000000000003
(1485365760.793585) can0 0B4#00000000000000BC
(1485365760.794098) can0 2C1#08FF9DFFA000000E
(1485365760.797432) can0 260#0800020000FFFC6F
(1485365760.802160) can0 394#00
(1485365760.803101) can0 0B2#000000000004
(1485365760.803241) can0 0B0#000000000004
(1485365760.803498) can0 223#0000007FE000008C
(1485365760.803877) can0 224#0000000000000000
(1485365760.804098) can0 2C4#03FF00130000A285
(1485365760.811154) can0 442#4002000003000000
(1485365760.813106) can0 0B2#000000000005
(1485365760.813230) can0 0B0#000000000005
(1485365760.813583) can0 0B4#00000000000000BC
(1485365760.817633) can0 260#08000B0000FFFC78
(1485365760.817802) can0 3B4#00003BB800000000
(1485365760.823026) can0 0B2#000000000006
(1485365760.823188) can0 0B0#000000000006
(1485365760.824114) can0 2C1#08FF97FF9A000002
(1485365760.824281) can0 2C4#040100130000A288
(1485365760.833209) can0 0B2#000000000007
(1485365760.833341) can0 0B0#000000000007
(1485365760.833617) can0 223#0000007FE000008C
(1485365760.833885) can0 0B4#00000000000000BC
(1485365760.834108) can0 224#0000000000000000
(1485365760.837883) can0 260#08000C0000000785
(1485365760.843028) can0 0B2#000000000008
(1485365760.843189) can0 0B0#000000000008
(1485365760.844128) can0 2C4#040300130000A28A
(1485365760.853082) can0 0B2#000000000009
(1485365760.853216) can0 0B0#000000000009
(1485365760.853544) can0 0B4#00000000000000BC
(1485365760.854129) can0 2C1#08FF8DFF8A0000E8
(1485365760.858057) can0 260#080007000000067F
(1485365760.863054) can0 0B2#00000000000A
(1485365760.863203) can0 0B0#00000000000A
(1485365760.863480) can0 223#0000007FE000008C
(1485365760.863855) can0 224#0000000000000000
(1485365760.864237) can0 2C4#040300130000A28A
(1485365760.873011) can0 0B2#00000000000B
(1485365760.873195) can0 0B0#00000000000B
(1485365760.873494) can0 0B4#00000000000000BC
(1485365760.878254) can0 260#0800000000000375
(1485365760.883055) can0 0B2#00000000000C
(1485365760.883179) can0 0B0#00000000000C
(1485365760.884130) can0 2C1#08FF90FF8A0000EB
(1485365760.884283) can0 2C4#040200130000A289
(1485365760.892233) can0 3A0#0000000000000014
(1485365760.893205) can0 0B2#00000000000D
(1485365760.893342) can0 0B0#00000000000D
(1485365760.893643) can0 223#0000007FE000008C
(1485365760.893857) can0 0B4#00000000000000BC
(1485365760.894143) can0 224#0000000000000000
(1485365760.898482) can0 260#08FFFA000000046F
(1485365760.903056) can0 0B2#00000000000E
(1485365760.903179) can0 0B0#00000000000E
(1485365760.904129) can0 2C4#040200130000A289
(1485365760.910781) can0 440#4202000007000000
(1485365760.913107) can0 0B2#00000000000F
(1485365760.913237) can0 0B0#00000000000F
(1485365760.913588) can0 0B4#00000000000000BC
(1485365760.914107) can0 2C1#08FF94FF900000F5
(1485365760.918677) can0 260#08FFFA0000000570
(1485365760.923081) can0 0B2#000000000000
(1485365760.923210) can0 0B0#000000000000
(1485365760.923474) can0 223#0000007FE000008C
(1485365760.923857) can0 224#0000000000000000
(1485365760.924338) can0 2C4#040300130000A28A
(1485365760.933076) can0 0B2#000000000001
(1485365760.933216) can0 0B0#000000000001
(1485365760.933561) can0 0B4#00000000000000BC
(1485365760.938881) can0 260#0800030000FFF76B
(1485365760.942976) can0 0B2#000000000002
(1485365760.943117) can0 0B0#000000000002
(1485365760.944127) can0 2C1#08FF7DFF870000D5
(1485365760.944295) can0 2C4#040700130000A28E
(1485365760.953134) can0 0B2#000000000003
(1485365760.953266) can0 0B0#000000000003
(1485365760.953545) can0 223#0000007FE000008C
(1485365760.953857) can0 0B4#00000000000000BC
(1485365760.954039) can0 224#0000000000000000
(1485365760.954381) can0 3B7#0000000000000000
(1485365760.959079) can0 260#0800100000000A8C
(1485365760.961355) can0 620#1080000030600040
(1485365760.963024) can0 0B2#000000000004
(1485365760.963169) can0 0B0#000000000004
(1485365760.964101) can0 2C4#040700130000A28E
(1485365760.973054) can0 0B2#000000000005
(1485365760.973198) can0 0B0#000000000005
(1485365760.973501) can0 0B4#00000000000000BC
(1485365760.974500) can0 2C1#08FF7AFF770000C2
(1485365760.979233) can0 260#080016000000038B
(1485365760.981131) can0 4DD#1E00000500000000
(1485365760.983051) can0 0B2#000000000006
(1485365760.983188) can0 0B0#000000000006
(1485365760.983482) can0 223#0000007FE000008C
(1485365760.983855) can0 224#0000000000000000
(1485365760.984125) can0 2C4#040700130000A28E
(1485365760.992433) can0 3A0#0000000000000014
(1485365760.993021) can0 0B2#000000000007
(1485365760.993166) can0 0B0#000000000007
(1485365760.993501) can0 0B4#00000000000000BC
(1485365760.999354) can0 260#08000A000000037F
(1485365761.002973) can0 0B2#000000000008
(1485365761.003117) can0 0B0#000000000008
(1485365761.004102) can0 2C1#08FF77FF770000BF
(1485365761.004287) can0 2C4#040800130000A28F
(1485365761.010883) can0 442#4002000003000000
(1485365761.013132) can0 0B2#000000000009
(1485365761.013275) can0 0B0#000000000009
(1485365761.013569) can0 223#0000007FE000008C
(1485365761.013874) can0 0B4#00000000000000BC
(1485365761.014037) can0 224#0000000000000000
(1485365761.019656) can0 260#08FFF80000FFF55D
(1485365761.023008) can0 0B2#00000000000A
(1485365761.023149) can0 0B0#00000000000A
(1485365761.024090) can0 2C4#040800130000A28F
(1485365761.033059) can0 0B2#00000000000B
(1485365761.033201) can0 0B0#00000000000B
(1485365761.033537) can0 0B4#00000000000000BC
(1485365761.034079) can0 2C1#08FF70FF6D0000AE
(1485365761.039756) can0 260#08FFF10000FFF859
(1485365761.043103) can0 0B2#00000000000C
(1485365761.043252) can0 0B0#00000000000C
(1485365761.043535) can0 223#0000007FE000008C
(1485365761.043877) can0 224#0000000000000000
(1485365761.044076) can0 2C4#040900130000A290
(1485365761.053054) can0 0B2#00000000000D
(1485365761.053272) can0 0B0#00000000000D
(1485365761.053572) can0 0B4#00000000000000BC
(1485365761.059699) can0 260#08FFF50000FFFA5F
(1485365761.062924) can0 0B2#00000000000E
(1485365761.063147) can0 0B0#00000000000E
(1485365761.064047) can0 2C1#08FF6DFF6A0000A8
(1485365761.064297) can0 2C4#040900130000A290
(1485365761.073094) can0 0B2#00000000000F
(1485365761.073295) can0 0B0#00000000000F
(1485365761.073545) can0 223#0000007FE000008C
(1485365761.073822) can0 0B4#00000000000000BC
(1485365761.074047) can0 224#0000000000000000
(1485365761.080097) can0 260#0800000000FFFC6D
(1485365761.082944) can0 0B2#000000000000
(1485365761.083146) can0 0B0#000000000000
(1485365761.084070) can0 2C4#040900130000A290
(1485365761.092148) can0 3A0#0000000000000014
(1485365761.092997) can0 0B2#000000000001
(1485365761.093220) can0 0B0#000000000001
(1485365761.093521) can0 0B4#00000000000000BC
(1485365761.094047) can0 2C1#08FF6DFF670000A5
(1485365761.100123) can0 260#0800030000FFFD71
(1485365761.103022) can0 0B2#000000000002
(1485365761.103220) can0 0B0#000000000002
(1485365761.103466) can0 223#0000007FE000008C
(1485365761.103822) can0 224#0000000000000000
(1485365761.104072) can0 2C4#040800130000A28F
(1485365761.105435) can0 394#00
(1485365761.110537) can0 440#4202000007000000
(1485365761.113013) can0 0B2#000000000003
(1485365761.113234) can0 0B0#000000000003
(1485365761.113533) can0 0B4#00000000000000BC
(1485365761.120513) can0 260#0800000000FFFD6E
(1485365761.122935) can0 0B2#000000000004
(1485365761.123160) can0 0B0#000000000004
(1485365761.124286) can0 2C1#08FF6DFF6A0000A8
(1485365761.124535) can0 2C4#040800130000A28F
(1485365761.133084) can0 0B2#000000000005
(1485365761.133267) can0 0B0#000000000005
(1485365761.133534) can0 223#0000007FE000008C
(1485365761.133811) can0 0B4#00000000000000BC
(1485365761.134019) can0 224#0000000000000000
(1485365761.140524) can0 260#08FFFC0000000976
(1485365761.142970) can0 0B2#000000000006
(1485365761.143170) can0 0B0#000000000006
(1485365761.144047) can0 2C4#040800130000A28F
(1485365761.151447) can0 610#2000006400000000
(1485365761.153022) can0 0B2#000000000007
(1485365761.153220) can0 0B0#000000000007
(1485365761.153520) can0 0B4#00000000000000BC
(1485365761.154047) can0 2C1#08FF6AFF670000A2
(1485365761.160924) can0 260#0800000000000072
(1485365761.163047) can0 0B2#000000000008
(1485365761.163272) can0 0B0#000000000008
(1485365761.163497) can0 223#0000007FE000008C
(1485365761.163821) can0 224#0000000000000000
(1485365761.164072) can0 2C4#040800130000A28F
(1485365761.173037) can0 0B2#000000000009
(1485365761.173261) can0 0B0#000000000009
(1485365761.173561) can0 0B4#00000000000000BC
(1485365761.176109) can0 4C8#0900010700000000
(1485365761.180687) can0 4ED#5C00000000000000
(1485365761.180961) can0 260#0800030000FFFA6E
(1485365761.182960) can0 0B2#00000000000A
(1485365761.183161) can0 0B0#00000000000A
(1485365761.184586) can0 2C1#08FF6DFF670000A5
(1485365761.184835) can0 2C4#040700130000A28E
(1485365761.192136) can0 3A0#0000000000000014
(1485365761.192733) can0 3B1#0000022A00000000
(1485365761.193110) can0 0B2#00000000000B
(1485365761.193334) can0 0B0#00000000000B
(1485365761.193584) can0 223#0000007FE000008C
(1485365761.193836) can0 0B4#00000000000000BC
(1485365761.194062) can0 224#0000000000000000
(1485365761.201111) can0 442#4002000003000000
(1485365761.201357) can0 260#0800030000FFFA6E
(1485365761.202983) can0 0B2#00000000000C
(1485365761.203184) can0 0B0#00000000000C
(1485365761.204014) can0 2C4#040600130000A28D
(1485365761.213038) can0 0B2#00000000000D
(1485365761.213262) can0 0B0#00000000000D
(1485365761.213536) can0 0B4#00000000000000BC
(1485365761.214062) can0 2C1#08FF70FF6D0000AE
(1485365761.221535) can0 260#0800000000FFF465
(1485365761.222109) can0 4DC#1D00010900000000
(1485365761.223011) can0 0B2#00000000000E
(1485365761.223212) can0 0B0#00000000000E
(1485365761.223461) can0 223#0000007FE000008C
(1485365761.223761) can0 224#0000000000000000
(1485365761.224086) can0 2C4#040500130000A28C
(1485365761.232969) can0 0B2#00000000000F
(1485365761.233193) can0 0B0#00000000000F
(1485365761.233494) can0 0B4#00000000000000BC
(1485365761.241720) can0 260#08FFFE0000FFF765
(1485365761.242948) can0 0B2#000000000000
(1485365761.243147) can0 0B0#000000000000
(1485365761.244047) can0 2C1#08FF7AFF740000BF
(1485365761.244298) can0 2C4#040400130000A28B
(1485365761.253070) can0 0B2#000000000001
(1485365761.253298) can0 0B0#000000000001
(1485365761.253522) can0 223#0000007FE000008C
(1485365761.253822) can0 0B4#00000000000000BC
(1485365761.254048) can0 224#0000000000000000
(1485365761.254322) can0 3B7#0000000000000000
(1485365761.260949) can0 620#1000000030600040
(1485365761.261748) can0 260#0800000000000375
(1485365761.263023) can0 0B2#000000000002
(1485365761.263220) can0 0B0#000000000002
(1485365761.263420) can0 3B0#0000003200
(1485365761.264025) can0 2C4#040300130000A28A
(1485365761.264202) can0 3B3#040300
(1485365761.273049) can0 0B2#000000000003
(1485365761.273249) can0 0B0#000000000003
(1485365761.273547) can0 0B4#00000000000000BC
(1485365761.274073) can0 2C1#08FF7DFF7A0000C8
(1485365761.282148) can0 260#0800020000000478
(1485365761.283048) can0 0B2#000000000004
(1485365761.283272) can0 0B0#000000000004
(1485365761.283522) can0 223#0000007FE000008C
(1485365761.283822) can0 224#0000000000000000
(1485365761.284070) can0 2C4#040300130000A28A
(1485365761.292123) can0 3A0#0000000000000014
(1485365761.293048) can0 0B2#000000000005
(1485365761.293247) can0 0B0#000000000005
(1485365761.293547) can0 0B4#00000000000000BC
(1485365761.300700) can0 440#4202000007000000
(1485365761.302172) can0 260#0800020000000A7E
(1485365761.302968) can0 0B2#000000000006
(1485365761.303170) can0 0B0#000000000006
(1485365761.304047) can0 2C1#08FF7DFF7A0000C8
(1485365761.304273) can0 2C4#040300130000A28A
(1485365761.313124) can0 0B2#000000000007
(1485365761.313323) can0 0B0#000000000007
(1485365761.313570) can0 223#0000007FE000008C
(1485365761.313823) can0 0B4#00000000000000BC
(1485365761.314072) can0 224#0000000000000000
(1485365761.322149) can0 380#00A0043000000300
(1485365761.322546) can0 260#0800000000FFF768
(1485365761.322923) can0 0B2#000000000008
(1485365761.323123) can0 0B0#000000000008
(1485365761.324047) can0 2C4#040100130000A288
(1485365761.333004) can0 0B2#000000000009
(1485365761.333220) can0 0B0#000000000009
(1485365761.333520) can0 0B4#00000000000000BC
(1485365761.334047) can0 2C1#08FF87FF840000DC
(1485365761.342805) can0 260#08FFFE000000006F
(1485365761.343058) can0 0B2#00000000000A
(1485365761.343296) can0 0B0#00000000000A
(1485365761.343516) can0 223#0000007FE000008C
(1485365761.343860) can0 224#0000000000000000
(1485365761.344075) can0 2C4#040100130000A288
(1485365761.344312) can0 4C3#0400300500000000
(1485365761.353108) can0 0B2#00000000000B
(1485365761.353237) can0 0B0#00000000000B
(1485365761.353611) can0 0B4#00000000000000BC
(1485365761.363031) can0 260#0800000000000779
(1485365761.363162) can0 0B2#00000000000C
(1485365761.363379) can0 0B0#00000000000C
(1485365761.364037) can0 2C1#08FF84FF840000D9
(1485365761.364294) can0 2C4#040100130000A288
(1485365761.373169) can0 0B2#00000000000D
(1485365761.373293) can0 0B0#00000000000D
(1485365761.373606) can0 223#0000007FE000008C
(1485365761.373867) can0 0B4#00000000000000BC
(1485365761.374085) can0 224#0000000000000000
(1485365761.374348) can0 4C1#0100500500000000
(1485365761.382968) can0 0B2#00000000000E
(1485365761.383092) can0 0B0#00000000000E
(1485365761.383385) can0 260#080001000000077A
(1485365761.384341) can0 2C4#040100130000A288
(1485365761.392190) can0 3A0#0000000000000014
(1485365761.393041) can0 0B2#00000000000F
(1485365761.393167) can0 0B0#00000000000F
(1485365761.393514) can0 0B4#00000000000000BC
(1485365761.394097) can0 2C1#08FF8DFF840000E2
(1485365761.401066) can0 442#4002000003000000
(1485365761.403112) can0 0B2#000000000000
(1485365761.403242) can0 0B0#000000000000
(1485365761.403539) can0 223#0000007FE000008C
(1485365761.403860) can0 260#0800010000FFEF61
(1485365761.404047) can0 224#0000000000000000
(1485365761.404256) can0 2C4#040000130000A287
(1485365761.408559) can0 394#00
(1485365761.413128) can0 0B2#000000000001
(1485365761.413269) can0 0B0#000000000001
(1485365761.413597) can0 0B4#00000000000000BC
(1485365761.423006) can0 0B2#000000000002
(1485365761.423140) can0 0B0#000000000002
(1485365761.423445) can0 260#0800000000000173
(1485365761.424067) can0 2C1#08FF90FF8A0000EB
(1485365761.424301) can0 2C4#040000130000A287
(1485365761.433174) can0 0B2#000000000003
(1485365761.433306) can0 0B0#000000000003
(1485365761.433622) can0 223#0000007FE000008C
(1485365761.433847) can0 0B4#00000000000000BC
(1485365761.434108) can0 224#0000000000000000
(1485365761.442987) can0 0B2#000000000004
(1485365761.443102) can0 0B0#000000000004
(1485365761.443889) can0 260#0800000000FFF364
(1485365761.444032) can0 2C4#03FF00130000A285
(1485365761.445492) can0 398#072C
(1485365761.453067) can0 0B2#000000000005
(1485365761.453197) can0 0B0#000000000005
(1485365761.453500) can0 0B4#00000000000000BC
(1485365761.454086) can0 2C1#08FF97FF940000FC
(1485365761.463065) can0 0B2#000000000006
(1485365761.463181) can0 0B0#000000000006
(1485365761.463492) can0 223#0000007FE000008C
(1485365761.463764) can0 224#0000000000000000
(1485365761.464017) can0 260#080000000000087A
(1485365761.465192) can0 2C4#03FF00130000A285
(1485365761.472968) can0 0B2#000000000007
(1485365761.473170) can0 0B0#000000000007
(1485365761.473469) can0 0B4#00000000000000BC
(1485365761.482966) can0 0B2#000000000008
(1485365761.483090) can0 0B0#000000000008
(1485365761.484113) can0 2C1#08FF97FF940000FC
(1485365761.484280) can0 2C4#040000130000A287
(1485365761.484600) can0 260#0800010000000679
(1485365761.492163) can0 3A0#0000000000000014
(1485365761.493115) can0 0B2#000000000009
(1485365761.493243) can0 0B0#000000000009
(1485365761.493509) can0 223#0000007FE000008C
(1485365761.493870) can0 0B4#00000000000000BC
(1485365761.493984) can0 224#0000000000000000
(1485365761.500567) can0 440#4202000007000000
(1485365761.502966) can0 0B2#00000000000A
(1485365761.503088) can0 0B0#00000000000A
(1485365761.504113) can0 2C4#040000130000A287
(1485365761.504479) can0 260#0800010000000275
(1485365761.505262) can0 621#1100000000000000
(1485365761.513019) can0 0B2#00000000000B
(1485365761.513175) can0 0B0#00000000000B
(1485365761.513520) can0 0B4#00000000000000BC
(1485365761.514047) can0 2C1#08FF90FF8D0000EE
(1485365761.515267) can0 622#1200000000000000
(1485365761.517893) can0 38A#0804000000
(1485365761.523042) can0 0B2#00000000000C
(1485365761.523177) can0 0B0#00000000000C
(1485365761.523489) can0 223#0000007FE000008C
(1485365761.523751) can0 224#0000000000000000
(1485365761.524003) can0 624#1A0057FFFF400000
(1485365761.524252) can0 2C4#040100130000A288
(1485365761.524860) can0 260#0800000000000577
(1485365761.533044) can0 0B2#00000000000D
(1485365761.533167) can0 0B0#00000000000D
(1485365761.533478) can0 630#1700000000000000
(1485365761.533737) can0 0B4#00000000000000BC
(1485365761.542342) can0 638#1300110000000000
(1485365761.542988) can0 0B2#00000000000E
(1485365761.543110) can0 0B0#00000000000E
(1485365761.544113) can0 2C1#08FF84FF8A0000DF
(1485365761.544255) can0 2C4#040300130000A28A
(1485365761.545013) can0 260#0800000000000375
(1485365761.553121) can0 0B2#00000000000F
(1485365761.553267) can0 0B0#00000000000F
(1485365761.553571) can0 223#0000007FE000008C
(1485365761.553869) can0 0B4#00000000000000BC
(1485365761.554000) can0 224#0000000000000000
(1485365761.554347) can0 3B7#0000000000000000
(1485365761.560619) can0 620#1000000030600040
(1485365761.563066) can0 0B2#000000000000
(1485365761.563205) can0 0B0#000000000000
(1485365761.564092) can0 2C4#040300130000A28A
(1485365761.565240) can0 260#0800000000FFFF70
(1485365761.573066) can0 0B2#000000000001
(1485365761.573190) can0 0B0#000000000001
(1485365761.573520) can0 0B4#00000000000000BC
(1485365761.574091) can0 2C1#08FF87FF840000DC
(1485365761.583067) can0 0B2#000000000002
(1485365761.583205) can0 0B0#000000000002
(1485365761.583509) can0 223#0000007FE000008C
(1485365761.583869) can0 224#0000000000000000
(1485365761.584085) can0 2C4#040100130000A288
(1485365761.585456) can0 260#0800000000000072
(1485365761.592158) can0 3A0#0000000000000014
(1485365761.593032) can0 0B2#000000000003
(1485365761.593168) can0 0B0#000000000003
(1485365761.593504) can0 0B4#00000000000000BC
(1485365761.600936) can0 442#4002000003000000
(1485365761.602955) can0 0B2#000000000004
(1485365761.603094) can0 0B0#000000000004
(1485365761.604085) can0 2C1#08FF90FF8A0000EB
(1485365761.604240) can0 2C4#040100130000A288
(1485365761.605663) can0 260#0800000000000072
(1485365761.613071) can0 0B2#000000000005
(1485365761.613247) can0 0B0#000000000005
(1485365761.613496) can0 223#0000007FE000008C
(1485365761.613795) can0 0B4#00000000000000BC
(1485365761.613995) can0 224#0000000000000000
(1485365761.622966) can0 0B2#000000000006
(1485365761.623099) can0 0B0#000000000006
(1485365761.624060) can0 2C4#040000130000A287
(1485365761.625890) can0 260#0800010000000679
(1485365761.633034) can0 0B2#000000000007
(1485365761.633189) can0 0B0#000000000007
(1485365761.633501) can0 0B4#00000000000000BC
(1485365761.634053) can0 2C1#08FF90FF900000F1
(1485365761.643065) can0 0B2#000000000008
(1485365761.643177) can0 0B0#000000000008
(1485365761.643475) can0 223#0000007FE000008C
(1485365761.643740) can0 224#0000000000000000
(1485365761.644089) can0 2C4#040100130000A288
(1485365761.646091) can0 260#0800000000FFF96A
(1485365761.651427) can0 610#2000006400000000
(1485365761.653007) can0 0B2#000000000009
(1485365761.653180) can0 0B0#000000000009
(1485365761.653559) can0 0B4#00000000000000BC
(1485365761.662986) can0 0B2#00000000000A
(1485365761.663115) can0 0B0#00000000000A
(1485365761.664092) can0 2C1#08FF8DFF8D0000EB
(1485365761.664237) can0 2C4#040200130000A289
(1485365761.666266) can0 260#0800000000000173
(1485365761.673148) can0 0B2#00000000000B
(1485365761.673266) can0 0B0#00000000000B
(1485365761.673556) can0 223#0000007FE000008C
(1485365761.673869) can0 0B4#00000000000000BC
(1485365761.674049) can0 224#0000000000000000
(1485365761.682990) can0 0B2#00000000000C
(1485365761.683116) can0 0B0#00000000000C
(1485365761.684439) can0 2C4#040300130000A28A
(1485365761.686391) can0 260#0800000000000072
(1485365761.691916) can0 611#2100201200021DB5
(1485365761.692101) can0 3A0#0000000000000014
(1485365761.693057) can0 0B2#00000000000D
(1485365761.693196) can0 0B0#00000000000D
(1485365761.693553) can0 0B4#00000000000000BC
(1485365761.694067) can0 2C1#08FF7DFF840000D2
(1485365761.700313) can0 440#4202000007000000
(1485365761.703054) can0 0B2#00000000000E
(1485365761.703208) can0 0B0#00000000000E
(1485365761.703503) can0 223#0000007FE000008C
(1485365761.703859) can0 224#0000000000000000
(1485365761.703987) can0 640#A8000032020E0000
(1485365761.704259) can0 2C4#040500130000A28C
(1485365761.706707) can0 260#0800000000FFF566
(1485365761.711382) can0 394#00
(1485365761.713060) can0 0B2#00000000000F
(1485365761.713194) can0 0B0#00000000000F
(1485365761.713540) can0 0B4#00000000000000BC
(1485365761.723010) can0 0B2#000000000000
(1485365761.723144) can0 0B0#000000000000
(1485365761.724083) can0 2C1#08FF7AFF7A0000C5
(1485365761.724245) can0 2C4#040600130000A28D
(1485365761.726877) can0 260#0800010000000073
(1485365761.733135) can0 0B2#000000000001
(1485365761.733267) can0 0B0#000000000001
(1485365761.733551) can0 223#0000007FE000008C
(1485365761.733860) can0 0B4#00000000000000BC
(1485365761.734040) can0 224#0000000000000000
(1485365761.742920) can0 0B2#000000000002
(1485365761.743089) can0 0B0#000000000002
(1485365761.744923) can0 2C4#040600130000A28D
(1485365761.747054) can0 260#0800010000000578
(1485365761.753004) can0 0B2#000000000003
(1485365761.753143) can0 0B0#000000000003
(1485365761.753519) can0 0B4#00000000000000BC
(1485365761.754078) can0 2C1#08FF74FF700000B5
(1485365761.763032) can0 0B2#000000000004
(1485365761.763190) can0 0B0#000000000004
(1485365761.763464) can0 223#0000007FE000008C
(1485365761.763752) can0 224#0000000000000000
(1485365761.764812) can0 2C4#040A00130000A291
(1485365761.764881) can0 3B3#040A00
(1485365761.767332) can0 260#0800000000000577
(1485365761.773029) can0 0B2#000000000005
(1485365761.773167) can0 0B0#000000000005
(1485365761.773504) can0 0B4#00000000000000BC
(1485365761.783007) can0 0B2#000000000006
(1485365761.783144) can0 0B0#000000000006
(1485365761.784083) can0 2C1#08FF64FF64000099
(1485365761.784237) can0 2C4#040A00130000A291
(1485365761.787482) can0 260#0800000000FFFE6F
(1485365761.790537) can0 442#4002000003000000
(1485365761.792155) can0 3A0#0000000000000014
(1485365761.793158) can0 0B2#000000000007
(1485365761.793299) can0 0B0#000000000007
(1485365761.793596) can0 223#0000007FE000008C
(1485365761.793858) can0 0B4#00000000000000BC
(1485365761.794063) can0 224#0000000000000000
(1485365761.803011) can0 0B2#000000000008
(1485365761.803143) can0 0B0#000000000008
(1485365761.804082) can0 2C4#040900130000A290
(1485365761.807689) can0 260#0800000000FFF869
(1485365761.813097) can0 0B2#000000000009
(1485365761.813217) can0 0B0#000000000009
(1485365761.813551) can0 0B4#00000000000000BC
(1485365761.814013) can0 2C1#08FF6AFF670000A2
(1485365761.817895) can0 3B4#00003CB800000000
(1485365761.823217) can0 0B2#00000000000A
(1485365761.823368) can0 0B0#00000000000A
(1485365761.823669) can0 223#0000007FE000008C
(1485365761.823969) can0 224#0000000000000000
(1485365761.824188) can0 2C4#040800130000A28F
(1485365761.827873) can0 260#0800000000FFF566
(1485365761.833145) can0 0B2#00000000000B
(1485365761.833260) can0 0B0#00000000000B
(1485365761.833624) can0 0B4#00000000000000BC
(1485365761.843021) can0 0B2#00000000000C
(1485365761.843143) can0 0B0#00000000000C
(1485365761.844055) can0 2C1#08FF70FF6A0000AB
(1485365761.844238) can0 2C4#040700130000A28E
(1485365761.848105) can0 260#0800000000000B7D
(1485365761.853136) can0 0B2#00000000000D
(1485365761.853268) can0 0B0#00000000000D
(1485365761.853547) can0 223#0000007FE000008C
(1485365761.853877) can0 0B4#00000000000000BC
(1485365761.854019) can0 224#0000000000000000
(1485365761.854371) can0 3B7#0000000000000000
(1485365761.860260) can0 620#1000000030600040
(1485365761.863050) can0 0B2#00000000000E
(1485365761.863210) can0 0B0#00000000000E
(1485365761.864044) can0 2C4#040700130000A28E
(1485365761.868295) can0 260#0800010000FFFA6C
(1485365761.873057) can0 0B2#00000000000F
(1485365761.873205) can0 0B0#00000000000F
(1485365761.873581) can0 0B4#00000000000000BC
(1485365761.874013) can0 2C1#08FF70FF6D0000AE
(1485365761.883095) can0 0B2#000000000000
(1485365761.883216) can0 0B0#000000000000
(1485365761.883512) can0 223#0000007FE000008C
(1485365761.883871) can0 224#0000000000000000
(1485365761.884073) can0 2C4#040500130000A28C
(1485365761.888568) can0 260#0800010000000679
(1485365761.889577) can0 440#4202000007000000
(1485365761.892143) can0 3A0#0000000000000014
(1485365761.893094) can0 0B2#000000000001
(1485365761.893217) can0 0B0#000000000001
(1485365761.893553) can0 0B4#00000000000000BC
(1485365761.902968) can0 0B2#000000000002
(1485365761.903110) can0 0B0#000000000002
(1485365761.904065) can0 2C1#08FF77FF740000BC
(1485365761.904231) can0 2C4#040500130000A28C
(1485365761.908666) can0 260#0800000000000678
(1485365761.913115) can0 0B2#000000000003
(1485365761.913244) can0 0B0#000000000003
(1485365761.913574) can0 223#0000007FE000008C
(1485365761.913848) can0 0B4#00000000000000BC
(1485365761.914002) can0 224#0000000000000000
(1485365761.923068) can0 0B2#000000000004
(1485365761.923182) can0 0B0#000000000004
(1485365761.924066) can0 2C4#040500130000A28C
(1485365761.928917) can0 260#0800000000FFF263
(1485365761.933120) can0 0B2#000000000005
(1485365761.933236) can0 0B0#000000000005
(1485365761.933602) can0 0B4#00000000000000BC
(1485365761.934042) can0 2C1#08FF7AFF740000BF
(1485365761.943142) can0 0B2#000000000006
(1485365761.943269) can0 0B0#000000000006
(1485365761.943564) can0 223#0000007FE000008C
(1485365761.943852) can0 224#0000000000000000
(1485365761.944214) can0 2C4#040400130000A28B
(1485365761.949141) can0 260#0800000000FFFB6C
(1485365761.953117) can0 0B2#000000000007
(1485365761.953242) can0 0B0#000000000007
(1485365761.953595) can0 0B4#00000000000000BC
(1485365761.962992) can0 0B2#000000000008
(1485365761.963119) can0 0B0#000000000008
(1485365761.964067) can0 2C1#08FF7AFF770000C2
(1485365761.964237) can0 2C4#040400130000A28B
(1485365761.969311) can0 260#0800000000000375
(1485365761.973120) can0 0B2#000000000009
(1485365761.973272) can0 0B0#000000000009
(1485365761.973545) can0 223#0000007FE000008C
(1485365761.973881) can0 0B4#00000000000000BC
(1485365761.974021) can0 224#0000000000000000
(1485365761.981059) can0 442#4002000003000000
(1485365761.982978) can0 0B2#00000000000A
(1485365761.983122) can0 0B0#00000000000A
(1485365761.984091) can0 2C4#040500130000A28C
(1485365761.989410) can0 260#0800000000000B7D
(1485365761.992134) can0 3A0#0000000000000014
(1485365761.993034) can0 0B2#00000000000B
(1485365761.993169) can0 0B0#00000000000B
(1485365761.993537) can0 0B4#00000000000000BC
(1485365761.994057) can0 2C1#08FF70FF740000B5
(1485365761.998411) can0 4DD#1E00000500000000
(1485365762.003033) can0 0B2#00000000000C
(1485365762.003192) can0 0B0#00000000000C
(1485365762.003488) can0 223#0000007FE000008C
(1485365762.003786) can0 224#0000000000000000
(1485365762.004041) can0 2C4#040600130000A28D
(1485365762.009606) can0 260#0800000000000173
(1485365762.013061) can0 0B2#00000000000D
(1485365762.013195) can0 0B0#00000000000D
(1485365762.013514) can0 0B4#00000000000000BC
(1485365762.014530) can0 394#00
(1485365762.022958) can0 0B2#00000000000E
(1485365762.023124) can0 0B0#00000000000E
(1485365762.025235) can0 2C1#08FF6DFF6A0000A8
(1485365762.025383) can0 2C4#040700130000A28E
(1485365762.029911) can0 260#0800000000000274
(1485365762.033113) can0 0B2#00000000000F
(1485365762.033245) can0 0B0#00000000000F
(1485365762.033539) can0 223#0000007FE000008C
(1485365762.033861) can0 0B4#00000000000000BC
(1485365762.033991) can0 224#0000000000000000
(1485365762.042961) can0 0B2#000000000000
(1485365762.043096) can0 0B0#000000000000
(1485365762.044083) can0 2C4#040700130000A28E
(1485365762.050012) can0 260#0800000000000173
(1485365762.053012) can0 0B2#000000000001
(1485365762.053158) can0 0B0#000000000001
(1485365762.053506) can0 0B4#00000000000000BC
(1485365762.054059) can0 2C1#08FF6AFF670000A2
(1485365762.063058) can0 0B2#000000000002
(1485365762.063209) can0 0B0#000000000002
(1485365762.063492) can0 223#0000007FE000008C
(1485365762.063852) can0 224#0000000000000000
(1485365762.064033) can0 2C4#040700130000A28E
(1485365762.070036) can0 260#080000000000087A
(1485365762.072988) can0 0B2#000000000003
(1485365762.073174) can0 0B0#000000000003
(1485365762.073475) can0 0B4#00000000000000BC
(1485365762.079829) can0 440#4202000007000000
(1485365762.082973) can0 0B2#000000000004
(1485365762.083174) can0 0B0#000000000004
(1485365762.084025) can0 2C1#08FF6DFF670000A5
(1485365762.084252) can0 2C4#040600130000A28D
(1485365762.090350) can0 260#0800000000000B7D
(1485365762.092051) can0 3A0#0000000000000014
(1485365762.093100) can0 0B2#000000000005
(1485365762.093324) can0 0B0#000000000005
(1485365762.093549) can0 223#0000007FE000008C
(1485365762.093825) can0 0B4#00000000000000BC
(1485365762.094051) can0 224#0000000000000000
(1485365762.102951) can0 0B2#000000000006
(1485365762.103126) can0 0B0#000000000006
(1485365762.104025) can0 2C4#040500130000A28C
(1485365762.110377) can0 260#0800000000000173
(1485365762.112974) can0 0B2#000000000007
(1485365762.113199) can0 0B0#000000000007
(1485365762.113498) can0 0B4#00000000000000BC
(1485365762.114001) can0 2C1#08FF70FF6D0000AE
(1485365762.123000) can0 0B2#000000000008
(1485365762.123224) can0 0B0#000000000008
(1485365762.123449) can0 223#0000007FE000008C
(1485365762.123748) can0 224#0000000000000000
(1485365762.124026) can0 2C4#040300130000A28A
(1485365762.130750) can0 260#0800000000FFFF70
(1485365762.133002) can0 0B2#000000000009
(1485365762.133170) can0 0B0#000000000009
(1485365762.133501) can0 0B4#00000000000000BC
(1485365762.142927) can0 0B2#00000000000A
(1485365762.143151) can0 0B0#00000000000A
(1485365762.144000) can0 2C1#08FF7AFF740000BF
(1485365762.144251) can0 2C4#040300130000A28A
(1485365762.150825) can0 260#0800020000000074
(1485365762.151300) can0 610#2000006400000000
(1485365762.153073) can0 0B2#00000000000B
(1485365762.153297) can0 0B0#00000000000B
(1485365762.153549) can0 223#0000007FE000008C
(1485365762.153826) can0 0B4#00000000000000BC
(1485365762.154050) can0 224#0000000000000000
(1485365762.154349) can0 3B7#0000000000000000
(1485365762.159877) can0 620#1000000030600040
(1485365762.163077) can0 0B2#00000000000C
(1485365762.163276) can0 0B0#00000000000C
(1485365762.164000) can0 2C4#040100130000A288
(1485365762.166327) can0 4C8#0900010700000000
(1485365762.171175) can0 260#080006000000037B
(1485365762.171999) can0 442#4002000003000000
(1485365762.172973) can0 0B2#00000000000D
(1485365762.173199) can0 0B0#00000000000D
(1485365762.173471) can0 0B4#00000000000000BC
(1485365762.175051) can0 2C1#08FF8DFF7D0000DB
(1485365762.180377) can0 4ED#5C00000000000000
(1485365762.183001) can0 0B2#00000000000E
(1485365762.183202) can0 0B0#00000000000E
(1485365762.183448) can0 223#0000007FE000008C
(1485365762.183751) can0 224#0000000000000000
(1485365762.184050) can0 2C4#03FE00130000A284
(1485365762.191202) can0 260#080008000000027C
(1485365762.192049) can0 3A0#0000000000000014
(1485365762.192975) can0 0B2#00000000000F
(1485365762.193199) can0 0B0#00000000000F
(1485365762.193498) can0 0B4#00000000000000BC
(1485365762.199250) can0 3B1#0000022A00000000
(1485365762.202901) can0 0B2#000000000000
(1485365762.203098) can0 0B0#000000000000
(1485365762.204001) can0 2C1#08FF8DFF8D0000EB
(1485365762.204253) can0 2C4#040000130000A287
(1485365762.211601) can0 260#0800070000000079
(1485365762.213053) can0 0B2#000000000001
(1485365762.213276) can0 0B0#000000000001
(1485365762.213526) can0 223#0000007FE000008C
(1485365762.213751) can0 0B4#00000000000000BC
(1485365762.214027) can0 224#0000000000000000
(1485365762.222027) can0 4DC#1D00010900000000
(1485365762.222900) can0 0B2#000000000002
(1485365762.223126) can0 0B0#000000000002
(1485365762.223998) can0 2C4#040100130000A288
(1485365762.231827) can0 260#0800030000FFF66A
(1485365762.232976) can0 0B2#000000000003
(1485365762.233199) can0 0B0#000000000003
(1485365762.233471) can0 0B4#00000000000000BC
(1485365762.234001) can0 2C1#08FF7AFF7D0000C8
(1485365762.242974) can0 0B2#000000000004
(1485365762.243199) can0 0B0#000000000004
(1485365762.243449) can0 223#0000007FE000008C
(1485365762.243749) can0 224#0000000000000000
(1485365762.244450) can0 2C4#040300130000A28A
(1485365762.252003) can0 260#0800020000000074
(1485365762.252975) can0 0B2#000000000005
(1485365762.253171) can0 0B0#000000000005
(1485365762.253472) can0 0B4#00000000000000BC
(1485365762.259723) can0 620#1080000030600050
(1485365762.262003) can0 3B0#0000003200
(1485365762.262926) can0 0B2#000000000006
(1485365762.263126) can0 0B0#000000000006
(1485365762.264002) can0 2C1#08FF77FF770000BF
(1485365762.264225) can0 2C4#040400130000A28B
(1485365762.264399) can0 3B3#040400
(1485365762.269153) can0 440#4202000007000000
(1485365762.272026) can0 260#080004000000087E
(1485365762.273028) can0 0B2#000000000007
(1485365762.273251) can0 0B0#000000000007
(1485365762.273473) can0 223#0000007FE000008C
(1485365762.273720) can0 0B4#00000000000000BC
(1485365762.273974) can0 224#0000000000000000
(1485365762.274273) can0 4C3#0400300500000000
(1485365762.282903) can0 0B2#000000000008
(1485365762.283099) can0 0B0#000000000008
(1485365762.284001) can0 2C4#040500130000A28C
(1485365762.284252) can0 4C1#0100500500000000
(1485365762.292050) can0 3A0#0000000000000014
(1485365762.292402) can0 260#0800030000FFDC50
(1485365762.292951) can0 0B2#000000000009
(1485365762.293176) can0 0B0#000000000009
(1485365762.293452) can0 0B4#00000000000000BC
(1485365762.294001) can0 2C1#08FF6AFF670000A2
(1485365762.303088) can0 0B2#00000000000A
(1485365762.303203) can0 0B0#00000000000A
(1485365762.303498) can0 223#0000007FE000008C
(1485365762.303861) can0 224#0000000000000000
(1485365762.304963) can0 2C4#040700130000A28E
(1485365762.312489) can0 260#0800000000FFFC6D
(1485365762.313055) can0 0B2#00000000000B
(1485365762.313195) can0 0B0#00000000000B
(1485365762.313506) can0 0B4#00000000000000BC
(1485365762.317613) can0 394#00
(1485365762.322137) can0 380#00A0043000000300
(1485365762.322982) can0 0B2#00000000000C
(1485365762.323129) can0 0B0#00000000000C
(1485365762.324385) can0 2C1#08FF74FF670000AC
(1485365762.324559) can0 2C4#040400130000A28B
(1485365762.332887) can0 260#08FFFD0000000371
(1485365762.333077) can0 0B2#00000000000D
(1485365762.333314) can0 0B0#00000000000D
(1485365762.333547) can0 223#0000007FE000008C
(1485365762.333863) can0 0B4#00000000000000BC
(1485365762.334043) can0 224#0000000000000000
(1485365762.343013) can0 0B2#00000000000E
(1485365762.343154) can0 0B0#00000000000E
(1485365762.344057) can0 2C4#040300130000A28A
(1485365762.352913) can0 260#08FFFB0000FFF661
(1485365762.353057) can0 0B2#00000000000F
(1485365762.353277) can0 0B0#00000000000F
(1485365762.353549) can0 0B4#00000000000000BC
(1485365762.354007) can0 2C1#08FF77FF740000BC
(1485365762.360866) can0 442#4002000003000000
(1485365762.363034) can0 0B2#000000000000
(1485365762.363158) can0 0B0#000000000000
(1485365762.363458) can0 223#0000007FE000008C
(1485365762.363754) can0 224#0000000000000000
(1485365762.364004) can0 2C4#040300130000A28A
(1485365762.373035) can0 0B2#000000000001
(1485365762.373161) can0 0B0#000000000001
(1485365762.373462) can0 260#08FFFA000000016C
(1485365762.373717) can0 0B4#00000000000000BC
(1485365762.382985) can0 0B2#000000000002
(1485365762.383130) can0 0B0#000000000002
(1485365762.384059) can0 2C1#08FF7AFF740000BF
(1485365762.384217) can0 2C4#040300130000A28A
(1485365762.392089) can0 3A0#0000000000000014
(1485365762.393135) can0 0B2#000000000003
(1485365762.393274) can0 0B0#000000000003
(1485365762.393542) can0 223#0000007FE000008C
(1485365762.393862) can0 0B4#00000000000000BC
(1485365762.394042) can0 224#0000000000000000
(1485365762.394287) can0 260#08FFFE0000000574
(1485365762.402982) can0 0B2#000000000004
(1485365762.403131) can0 0B0#000000000004
(1485365762.404033) can0 2C4#040200130000A289
(1485365762.413038) can0 0B2#000000000005
(1485365762.413179) can0 0B0#000000000005
(1485365762.413529) can0 0B4#00000000000000BC
(1485365762.413703) can0 260#0800040000FFFD72
(1485365762.414040) can0 2C1#08FF7DFF7A0000C8
(1485365762.423013) can0 0B2#000000000006
(1485365762.423157) can0 0B0#000000000006
(1485365762.423417) can0 223#0000007FE000008C
(1485365762.423723) can0 224#0000000000000000
(1485365762.424006) can0 2C4#040200130000A289
(1485365762.432970) can0 0B2#000000000007
(1485365762.433128) can0 0B0#000000000007
(1485365762.433467) can0 0B4#00000000000000BC
(1485365762.433880) can0 260#0800050000FFF56B
(1485365762.443014) can0 0B2#000000000008
(1485365762.443156) can0 0B0#000000000008
(1485365762.444060) can0 2C1#08FF77FF770000BF
(1485365762.444213) can0 2C4#040300130000A28A
(1485365762.453138) can0 0B2#000000000009
(1485365762.453281) can0 0B0#000000000009
(1485365762.453575) can0 223#0000007FE000008C
(1485365762.453820) can0 0B4#00000000000000BC
(1485365762.454008) can0 224#0000000000000000
(1485365762.454305) can0 260#0800000000000072
(1485365762.454547) can0 3B7#0000000000000000
(1485365762.459363) can0 440#4202000007000000
(1485365762.462987) can0 0B2#00000000000A
(1485365762.463132) can0 0B0#00000000000A
(1485365762.464035) can0 2C4#040300130000A28A
(1485365762.473049) can0 0B2#00000000000B
(1485365762.473171) can0 0B0#00000000000B
(1485365762.473517) can0 0B4#00000000000000BC
(1485365762.474008) can0 2C1#08FF7DFF740000C2
(1485365762.474392) can0 260#08FFFC0000FFFD69
(1485365762.483043) can0 0B2#00000000000C
(1485365762.483162) can0 0B0#00000000000C
(1485365762.483479) can0 223#0000007FE000008C
(1485365762.483759) can0 224#0000000000000000
(1485365762.484053) can0 2C4#040200130000A289
(1485365762.492100) can0 3A0#0000000000000014
(1485365762.492999) can0 0B2#00000000000D
(1485365762.493189) can0 0B0#00000000000D
(1485365762.493503) can0 0B4#00000000000000BC
(1485365762.494666) can0 260#0800000000FFFA6B
(1485365762.502902) can0 0B2#00000000000E
(1485365762.503056) can0 0B0#00000000000E
(1485365762.504115) can0 621#1100000000000000
(1485365762.504270) can0 2C1#08FF7DFF7A0000C8
(1485365762.504560) can0 2C4#040200130000A289
(1485365762.513071) can0 0B2#00000000000F
(1485365762.513193) can0 0B0#00000000000F
(1485365762.513507) can0 223#0000007FE000008C
(1485365762.513766) can0 0B4#00000000000000BC
(1485365762.513994) can0 224#0000000000000000
(1485365762.514255) can0 622#1200000000000000
(1485365762.514881) can0 260#0800030000000378
(1485365762.522944) can0 624#1A0057FFFF400000
(1485365762.523060) can0 0B2#000000000000
(1485365762.523348) can0 0B0#000000000000
(1485365762.524035) can0 2C4#040300130000A28A
(1485365762.532138) can0 630#1700000000000000
(1485365762.532986) can0 0B2#000000000001
(1485365762.533132) can0 0B0#000000000001
(1485365762.533472) can0 0B4#00000000000000BC
(1485365762.534006) can0 2C1#08FF7DFF770000C5
(1485365762.535108) can0 260#0800040000000B81
(1485365762.541314) can0 638#1300110000000000
(1485365762.542983) can0 0B2#000000000002
(1485365762.543131) can0 0B0#000000000002
(1485365762.543416) can0 223#0000007FE000008C
(1485365762.543724) can0 224#0000000000000000
(1485365762.544088) can0 2C4#040300130000A28A
(1485365762.550773) can0 442#4002000003000000
(1485365762.552999) can0 0B2#000000000003
(1485365762.553121) can0 0B0#000000000003
(1485365762.553482) can0 0B4#00000000000000BC
(1485365762.555270) can0 260#0800020000FFF265
(1485365762.559446) can0 620#1000000030600050
(1485365762.562970) can0 0B2#000000000004
(1485365762.563093) can0 0B0#000000000004
(1485365762.564066) can0 2C1#08FF7DFF7A0000C8
(1485365762.564201) can0 2C4#040200130000A289
(1485365762.573071) can0 0B2#000000000005
(1485365762.573191) can0 0B0#000000000005
(1485365762.573506) can0 223#0000007FE000008C
(1485365762.573678) can0 0B4#00000000000000BC
(1485365762.573990) can0 224#0000000000000000
(1485365762.575546) can0 260#08FFFE0000FFFF6D
(1485365762.582946) can0 0B2#000000000006
(1485365762.583056) can0 0B0#000000000006
(1485365762.584068) can0 2C4#040200130000A289
(1485365762.592100) can0 3A0#0000000000000014
(1485365762.592995) can0 0B2#000000000007
(1485365762.593121) can0 0B0#000000000007
(1485365762.593503) can0 0B4#00000000000000BC
(1485365762.594016) can0 2C1#08FF7AFF770000C2
(1485365762.595720) can0 260#08FFFA0000FFF963
(1485365762.603070) can0 0B2#000000000008
(1485365762.603185) can0 0B0#000000000008
(1485365762.603496) can0 223#0000007FE000008C
(1485365762.603871) can0 224#0000000000000000
(1485365762.604248) can0 2C4#040200130000A289
(1485365762.613050) can0 0B2#000000000009
(1485365762.613171) can0 0B0#000000000009
(1485365762.613513) can0 0B4#00000000000000BC
(1485365762.615895) can0 260#08FFF70000FFFA61
(1485365762.618669) can0 38A#0804000000
(1485365762.620649) can0 394#00
(1485365762.622942) can0 0B2#00000000000A
(1485365762.623059) can0 0B0#00000000000A
(1485365762.624042) can0 2C1#08FF80FF7A0000CB
(1485365762.624195) can0 2C4#040100130000A288
(1485365762.633087) can0 0B2#00000000000B
(1485365762.633222) can0 0B0#00000000000B
(1485365762.633507) can0 223#0000007FE000008C
(1485365762.633748) can0 0B4#00000000000000BC
(1485365762.633998) can0 224#0000000000000000
(1485365762.636137) can0 260#08FFF7000000056D
(1485365762.642936) can0 0B2#00000000000C
(1485365762.643062) can0 0B0#00000000000C
(1485365762.644033) can0 2C4#040100130000A288
(1485365762.648748) can0 440#4202000007000000
(1485365762.651896) can0 610#2000006400000000
(1485365762.653020) can0 0B2#00000000000D
(1485365762.653145) can0 0B0#00000000000D
(1485365762.653484) can0 0B4#00000000000000BC
(1485365762.654240) can0 2C1#08FF80FF7D0000CE
(1485365762.656348) can0 260#08FFF9000000006A
(1485365762.663023) can0 0B2#00000000000E
(1485365762.663146) can0 0B0#00000000000E
(1485365762.663451) can0 223#0000007FE000008C
(1485365762.663750) can0 224#0000000000000000
(1485365762.664012) can0 2C4#040200130000A289
(1485365762.672937) can0 0B2#00000000000F
(1485365762.673137) can0 0B0#00000000000F
(1485365762.673438) can0 0B4#00000000000000BC
(1485365762.676431) can0 260#08FFFB0000FFF661
(1485365762.682942) can0 0B2#000000000000
(1485365762.683059) can0 0B0#000000000000
(1485365762.684043) can0 2C1#08FF80FF7D0000CE
(1485365762.684216) can0 2C4#040100130000A288
(1485365762.691285) can0 611#2100201200021DB5
(1485365762.692085) can0 3A0#0000000000000014
(1485365762.693085) can0 0B2#000000000001
(1485365762.693222) can0 0B0#000000000001
(1485365762.693539) can0 223#0000007FE000008C
(1485365762.693721) can0 0B4#00000000000000BC
(1485365762.694028) can0 224#0000000000000000
(1485365762.696765) can0 260#08FFFA0000000B76
(1485365762.702888) can0 640#A8000032020E0000
(1485365762.703022) can0 0B2#000000000002
(1485365762.703265) can0 0B0#000000000002
(1485365762.704027) can0 2C4#040000130000A287
(1485365762.713024) can0 0B2#000000000003
(1485365762.713148) can0 0B0#000000000003
(1485365762.713507) can0 0B4#00000000000000BC
(1485365762.714021) can0 2C1#08FF8AFF870000E2
(1485365762.716946) can0 260#08FFF8000000036C
(1485365762.722944) can0 0B2#000000000004
(1485365762.723175) can0 0B0#000000000004
(1485365762.723397) can0 223#0000007FE000008C
(1485365762.723768) can0 224#0000000000000000
(1485365762.724022) can0 2C4#040000130000A287
(1485365762.733048) can0 0B2#000000000005
(1485365762.733146) can0 0B0#000000000005
(1485365762.733499) can0 0B4#00000000000000BC
(1485365762.737123) can0 260#08FFF7000000036B
(1485365762.741346) can0 442#4002000003000000
(1485365762.742970) can0 0B2#000000000006
(1485365762.743101) can0 0B0#000000000006
(1485365762.744042) can0 2C1#08FF87FF870000DF
(1485365762.744194) can0 2C4#040100130000A288
(1485365762.753088) can0 0B2#000000000007
(1485365762.753223) can0 0B0#000000000007
(1485365762.753504) can0 223#0000007FE000008C
(1485365762.753757) can0 0B4#00000000000000BC
(1485365762.754034) can0 224#0000000000000000
(1485365762.754338) can0 3B7#0000000000000000
(1485365762.757364) can0 260#08FFFA0000FFF660
(1485365762.762964) can0 0B2#000000000008
(1485365762.763098) can0 0B0#000000000008
(1485365762.764017) can0 2C4#040300130000A28A
(1485365762.764088) can0 3B3#040300
(1485365762.773021) can0 0B2#000000000009
(1485365762.773147) can0 0B0#000000000009
(1485365762.773529) can0 0B4#00000000000000BC
(1485365762.774017) can0 2C1#08FF67FF7A0000B2
(1485365762.777574) can0 260#0800000000000072
(1485365762.782996) can0 0B2#00000000000A
(1485365762.783121) can0 0B0#00000000000A
(1485365762.783427) can0 223#0000007FE000008C
(1485365762.783736) can0 224#0000000000000000
(1485365762.784014) can0 2C4#040800130000A28F
(1485365762.792045) can0 3A0#0000000000000014
(1485365762.792921) can0 0B2#00000000000B
(1485365762.793144) can0 0B0#00000000000B
(1485365762.793464) can0 0B4#00000000000000BC
(1485365762.797725) can0 260#0800000000FFF96A
(1485365762.802918) can0 0B2#00000000000C
(1485365762.803066) can0 0B0#00000000000C
(1485365762.804273) can0 2C1#08FF60FF64000095
(1485365762.804428) can0 2C4#040A00130000A291
(1485365762.813098) can0 0B2#00000000000D
(1485365762.813221) can0 0B0#00000000000D
(1485365762.813513) can0 223#0000007FE000008C
(1485365762.813758) can0 0B4#00000000000000BC
(1485365762.814016) can0 224#0000000000000000
(1485365762.817902) can0 3B4#00003CB800000000
(1485365762.818096) can0 260#08FFFE0000FFF462
(1485365762.822976) can0 0B2#00000000000E
(1485365762.823115) can0 0B0#00000000000E
(1485365762.824043) can0 2C4#040C00130000A293
(1485365762.833039) can0 0B2#00000000000F
(1485365762.833161) can0 0B0#00000000000F
(1485365762.833508) can0 0B4#00000000000000BC
(1485365762.834008) can0 2C1#08FF54FF54000079
(1485365762.838164) can0 260#08FFFA0000FFFC66
(1485365762.838931) can0 440#4202000007000000
(1485365762.843062) can0 0B2#000000000000
(1485365762.843189) can0 0B0#000000000000
(1485365762.843489) can0 223#0000007FE000008C
(1485365762.843864) can0 224#0000000000000000
(1485365762.843967) can0 2C4#040C00130000A293
(1485365762.853041) can0 0B2#000000000001
(1485365762.853173) can0 0B0#000000000001
(1485365762.853501) can0 0B4#00000000000000BC
(1485365762.858339) can0 260#08FFFA000000036E
(1485365762.859056) can0 620#1000000030600050
(1485365762.862991) can0 0B2#000000000002
(1485365762.863123) can0 0B0#000000000002
(1485365762.864890) can0 2C1#08FF5DFF5A000088
(1485365762.865053) can0 2C4#040900130000A290
(1485365762.873115) can0 0B2#000000000003
(1485365762.873267) can0 0B0#000000000003
(1485365762.873506) can0 223#0000007FE000008C
(1485365762.873865) can0 0B4#00000000000000BC
(1485365762.873992) can0 224#0000000000000000
(1485365762.878612) can0 260#08FFFE0000000170
(1485365762.882938) can0 0B2#000000000004
(1485365762.883062) can0 0B0#000000000004
(1485365762.884495) can0 2C4#040800130000A28F
(1485365762.892063) can0 3A0#0000000000000014
(1485365762.893014) can0 0B2#000000000005
(1485365762.893149) can0 0B0#000000000005
(1485365762.893501) can0 0B4#00000000000000BC
(1485365762.894044) can0 2C1#08FF60FF5D00008E
(1485365762.898785) can0 260#080004000000047A
(1485365762.903065) can0 0B2#000000000006
(1485365762.903210) can0 0B0#000000000006
(1485365762.903505) can0 223#0000007FE000008C
(1485365762.903881) can0 224#0000000000000000
(1485365762.903970) can0 2C4#040700130000A28E
(1485365762.913042) can0 0B2#000000000007
(1485365762.913173) can0 0B0#000000000007
(1485365762.913509) can0 0B4#00000000000000BC
(1485365762.918934) can0 260#08000C0000000684
(1485365762.922938) can0 0B2#000000000008
(1485365762.923090) can0 0B0#000000000008
(1485365762.923710) can0 394#00
(1485365762.924007) can0 2C1#08FF6AFF6000009B
(1485365762.924219) can0 2C4#040500130000A28C
(1485365762.930960) can0 442#4002000003000000
(1485365762.933090) can0 0B2#000000000009
(1485365762.933224) can0 0B0#000000000009
(1485365762.933508) can0 223#0000007FE000008C
(1485365762.933748) can0 0B4#00000000000000BC
(1485365762.933997) can0 224#0000000000000000
(1485365762.938738) can0 398#0709
(1485365762.939172) can0 260#08000C0000000A88
(1485365762.942908) can0 0B2#00000000000A
(1485365762.943040) can0 0B0#00000000000A
(1485365762.944037) can0 2C4#040500130000A28C
(1485365762.952975) can0 0B2#00000000000B
(1485365762.953098) can0 0B0#00000000000B
(1485365762.953479) can0 0B4#00000000000000BC
(1485365762.954258) can0 2C1#08FF6AFF670000A2
(1485365762.959273) can0 260#080007000000057E
(1485365762.963073) can0 0B2#00000000000C
