(1485365700.915440) can0 0B2#00000000000F
(1485365700.915573) can0 0B0#00000000000F
(1485365700.915889) can0 0B4#00000000000000BC
(1485365700.917639) can0 2C1#08FFB0FFAD00002E
(1485365700.925406) can0 0B2#000000000000
(1485365700.925624) can0 0B0#000000000000
(1485365700.925870) can0 223#0000007FE000008C
(1485365700.926170) can0 224#0000000000000000
(1485365700.926825) can0 2C4#040B00130000A292
(1485365700.930061) can0 260#0800000000000072
(1485365700.935388) can0 0B2#000000000001
(1485365700.935597) can0 0B0#000000000001
(1485365700.935898) can0 0B4#00000000000000BC
(1485365700.945449) can0 0B2#000000000002
(1485365700.945594) can0 0B0#000000000002
(1485365700.946898) can0 2C1#08FFB0FFB0000031
(1485365700.947054) can0 2C4#040C00130000A293
(1485365700.950326) can0 260#0800000000FFFC6D
(1485365700.955602) can0 0B2#000000000003
(1485365700.955714) can0 0B0#000000000003
(1485365700.956024) can0 223#0000007FE000008C
(1485365700.956255) can0 0B4#00000000000000BC
(1485365700.956522) can0 224#0000000000000000
(1485365700.956795) can0 3B7#0000000000000000
(1485365700.965452) can0 0B2#000000000004
(1485365700.965565) can0 0B0#000000000004
(1485365700.967098) can0 2C4#040B00130000A292
(1485365700.970475) can0 442#4002000003000000
(1485365700.970638) can0 260#0800010000000B7E
(1485365700.975551) can0 0B2#000000000005
(1485365700.975630) can0 0B0#000000000005
(1485365700.976015) can0 0B4#00000000000000BC
(1485365700.976873) can0 2C1#08FFC0FFB0000041
(1485365700.985552) can0 0B2#000000000006
(1485365700.985651) can0 0B0#000000000006
(1485365700.985951) can0 223#0000007FE000008C
(1485365700.986260) can0 224#0000000000000000
(1485365700.986896) can0 2C4#040800130000A28F
(1485365700.990754) can0 260#0800000000000A7C
(1485365700.995553) can0 0B2#000000000007
(1485365700.995648) can0 0B0#000000000007
(1485365700.995958) can0 0B4#00000000000000BC
(1485365700.997300) can0 3A0#0000000000000014
(1485365701.005402) can0 0B2#000000000008
(1485365701.005512) can0 0B0#000000000008
(1485365701.006840) can0 2C1#08FFBDFFBD00004B
(1485365701.007043) can0 2C4#040A00130000A291
(1485365701.010932) can0 260#0800000000000A7C
(1485365701.015554) can0 0B2#000000000009
(1485365701.015676) can0 0B0#000000000009
(1485365701.015961) can0 223#0000007FE000008C
(1485365701.016212) can0 0B4#00000000000000BC
(1485365701.016521) can0 224#0000000000000000
(1485365701.025403) can0 0B2#00000000000A
(1485365701.025568) can0 0B0#00000000000A
(1485365701.026874) can0 2C4#040C00130000A293
(1485365701.030425) can0 3B1#0000022A00000000
(1485365701.031095) can0 260#0800000000000779
(1485365701.035537) can0 0B2#00000000000B
(1485365701.035621) can0 0B0#00000000000B
(1485365701.035949) can0 0B4#00000000000000BC
(1485365701.036903) can0 2C1#08FFB4FFB0000035
(1485365701.045555) can0 0B2#00000000000C
(1485365701.045634) can0 0B0#00000000000C
(1485365701.045913) can0 223#0000007FE000008C
(1485365701.046222) can0 224#0000000000000000
(1485365701.048076) can0 2C4#040B00130000A292
(1485365701.051348) can0 260#0800000000000A7C
(1485365701.055554) can0 0B2#00000000000D
(1485365701.055632) can0 0B0#00000000000D
(1485365701.055922) can0 0B4#00000000000000BC
(1485365701.065379) can0 0B2#00000000000E
(1485365701.065488) can0 0B0#00000000000E
(1485365701.066902) can0 2C1#08FFBAFFB400003F
(1485365701.067057) can0 2C4#040A00130000A291
(1485365701.069978) can0 440#4202000007000000
(1485365701.071551) can0 260#0800010000000578
(1485365701.075553) can0 0B2#00000000000F
(1485365701.075652) can0 0B0#00000000000F
(1485365701.075948) can0 223#0000007FE000008C
(1485365701.076169) can0 0B4#00000000000000BC
(1485365701.076522) can0 224#0000000000000000
(1485365701.085453) can0 0B2#000000000000
(1485365701.085566) can0 0B0#000000000000
(1485365701.086902) can0 2C4#040A00130000A291
(1485365701.091601) can0 260#0800000000000072
(1485365701.095554) can0 0B2#000000000001
(1485365701.095632) can0 0B0#000000000001
(1485365701.095979) can0 0B4#00000000000000BC
(1485365701.096528) can0 394#00
(1485365701.096826) can0 2C1#08FFBDFFBA000048
(1485365701.097285) can0 3A0#0000000000000014
(1485365701.105551) can0 0B2#000000000002
(1485365701.105652) can0 0B0#000000000002
(1485365701.105915) can0 223#0000007FE000008C
(1485365701.106250) can0 224#0000000000000000
(1485365701.106864) can0 2C4#040B00130000A292
(1485365701.111904) can0 260#0800010000FFE759
(1485365701.115553) can0 0B2#000000000003
(1485365701.115648) can0 0B0#000000000003
(1485365701.115913) can0 620#1000000030600050
(1485365701.116145) can0 0B4#00000000000000BC
(1485365701.125405) can0 0B2#000000000004
(1485365701.125514) can0 0B0#000000000004
(1485365701.126877) can0 2C1#08FFB4FFB700003C
(1485365701.127028) can0 2C4#040C00130000A293
(1485365701.132102) can0 260#0800000000000375
(1485365701.135481) can0 0B2#000000000005
(1485365701.135669) can0 0B0#000000000005
(1485365701.135934) can0 223#0000007FE000008C
(1485365701.136180) can0 0B4#00000000000000BC
(1485365701.136523) can0 224#0000000000000000
(1485365701.145379) can0 0B2#000000000006
(1485365701.145519) can0 0B0#000000000006
(1485365701.146878) can0 2C4#040E00130000A295
(1485365701.152195) can0 260#0800010000FFF86A
(1485365701.155450) can0 0B2#000000000007
(1485365701.155567) can0 0B0#000000000007
(1485365701.155914) can0 0B4#00000000000000BC
(1485365701.156881) can0 2C1#08FFB0FFAD00002E
(1485365701.165455) can0 0B2#000000000008
(1485365701.165594) can0 0B0#000000000008
(1485365701.165874) can0 223#0000007FE000008C
(1485365701.166164) can0 224#0000000000000000
(1485365701.166893) can0 2C4#041000130000A297
(1485365701.170307) can0 442#4002000003000000
(1485365701.172407) can0 260#0800010000FFFC6E
(1485365701.175450) can0 0B2#000000000009
(1485365701.175567) can0 0B0#000000000009
(1485365701.175914) can0 0B4#00000000000000BC
(1485365701.179929) can0 610#2000006400000000
(1485365701.185383) can0 0B2#00000000000A
(1485365701.185488) can0 0B0#00000000000A
(1485365701.186878) can0 2C1#08FFA0FFA0000011
(1485365701.187052) can0 2C4#041100130000A298
(1485365701.192730) can0 260#0800010000FFF668
(1485365701.195553) can0 0B2#00000000000B
(1485365701.195653) can0 0B0#00000000000B
(1485365701.195916) can0 223#0000007FE000008C
(1485365701.196185) can0 0B4#00000000000000BC
(1485365701.196548) can0 224#0000000000000000
(1485365701.197287) can0 3A0#0000000000000014
(1485365701.198353) can0 4ED#5C00000000000000
(1485365701.205381) can0 0B2#00000000000C
(1485365701.205489) can0 0B0#00000000000C
(1485365701.206878) can0 2C4#041000130000A297
(1485365701.212631) can0 260#0800000000FFF96A
(1485365701.215428) can0 0B2#00000000000D
(1485365701.215570) can0 0B0#00000000000D
(1485365701.215945) can0 0B4#00000000000000BC
(1485365701.216881) can0 2C1#08FFA7FFA0000018
(1485365701.225468) can0 0B2#00000000000E
(1485365701.225592) can0 0B0#00000000000E
(1485365701.225897) can0 223#0000007FE000008C
(1485365701.226164) can0 224#0000000000000000
(1485365701.227116) can0 2C4#041000130000A297
(1485365701.227332) can0 4DC#1D00010900000000
(1485365701.230445) can0 4DD#1E00000500000000
(1485365701.232995) can0 260#0800010000FFF86A
(1485365701.235440) can0 0B2#00000000000F
(1485365701.235596) can0 0B0#00000000000F
(1485365701.235877) can0 0B4#00000000000000BC
(1485365701.245423) can0 0B2#000000000000
(1485365701.245569) can0 0B0#000000000000
(1485365701.246870) can0 2C1#08FFA4FFA4000019
(1485365701.247035) can0 2C4#041000130000A297
(1485365701.253049) can0 260#0800000000FFFD6E
(1485365701.255567) can0 0B2#000000000001
(1485365701.255690) can0 0B0#000000000001
(1485365701.256013) can0 223#0000007FE000008C
(1485365701.256179) can0 0B4#00000000000000BC
(1485365701.256523) can0 224#0000000000000000
(1485365701.256767) can0 3B7#0000000000000000
(1485365701.265373) can0 0B2#000000000002
(1485365701.265515) can0 0B0#000000000002
(1485365701.266895) can0 2C4#040F00130000A296
(1485365701.266957) can0 3B3#040F00
(1485365701.267223) can0 3B0#0000003200
(1485365701.269775) can0 440#4202000007000000
(1485365701.273425) can0 260#0800000000000779
(1485365701.275420) can0 0B2#000000000003
(1485365701.275598) can0 0B0#000000000003
(1485365701.275917) can0 0B4#00000000000000BC
(1485365701.276874) can0 2C1#08FFAAFFA7000022
(1485365701.285449) can0 0B2#000000000004
(1485365701.285594) can0 0B0#000000000004
(1485365701.285898) can0 223#0000007FE000008C
(1485365701.286220) can0 224#0000000000000000
(1485365701.287769) can0 2C4#040E00130000A295
(1485365701.293621) can0 260#0800000000FFF667
(1485365701.295442) can0 0B2#000000000005
(1485365701.295595) can0 0B0#000000000005
(1485365701.295916) can0 0B4#00000000000000BC
(1485365701.297294) can0 3A0#0000000000000014
(1485365701.305397) can0 0B2#000000000006
(1485365701.305518) can0 0B0#000000000006
(1485365701.306869) can0 2C1#08FFADFFAA000028
(1485365701.307053) can0 2C4#040E00130000A295
(1485365701.313825) can0 260#0800000000FFF869
(1485365701.315545) can0 0B2#000000000007
(1485365701.315654) can0 0B0#000000000007
(1485365701.315953) can0 223#0000007FE000008C
(1485365701.316189) can0 0B4#00000000000000BC
(1485365701.316525) can0 224#0000000000000000
(1485365701.316831) can0 4C1#0100500500000000
(1485365701.320675) can0 38A#0804000000
(1485365701.325373) can0 0B2#000000000008
(1485365701.325519) can0 0B0#000000000008
(1485365701.326834) can0 2C4#040E00130000A295
(1485365701.327285) can0 380#00A0043000000300
(1485365701.334024) can0 260#0800000000000173
(1485365701.335444) can0 0B2#000000000009
(1485365701.335593) can0 0B0#000000000009
(1485365701.335917) can0 0B4#00000000000000BC
(1485365701.337071) can0 2C1#08FFA7FFA400001C
(1485365701.345472) can0 0B2#00000000000A
(1485365701.345617) can0 0B0#00000000000A
(1485365701.345916) can0 223#0000007FE000008C
(1485365701.346238) can0 224#0000000000000000
(1485365701.346893) can0 2C4#041100130000A298
(1485365701.354224) can0 260#0800000000000476
(1485365701.355468) can0 0B2#00000000000B
(1485365701.355618) can0 0B0#00000000000B
(1485365701.355911) can0 0B4#00000000000000BC
(1485365701.359548) can0 442#4002000003000000
(1485365701.360435) can0 398#07A0
(1485365701.365400) can0 0B2#00000000000C
(1485365701.365518) can0 0B0#00000000000C
(1485365701.366871) can0 2C1#08FF90FF970000F8
(1485365701.367036) can0 2C4#041300130000A29A
(1485365701.374272) can0 260#080000000000087A
(1485365701.375569) can0 0B2#00000000000D
(1485365701.375700) can0 0B0#00000000000D
(1485365701.376004) can0 223#0000007FE000008C
(1485365701.376214) can0 0B4#00000000000000BC
(1485365701.376523) can0 224#0000000000000000
(1485365701.385400) can0 0B2#00000000000E
(1485365701.385545) can0 0B0#00000000000E
(1485365701.386871) can0 2C4#041500130000A29C
(1485365701.394647) can0 260#0800000000FFEE5F
(1485365701.395448) can0 0B2#00000000000F
(1485365701.395569) can0 0B0#00000000000F
(1485365701.395928) can0 0B4#00000000000000BC
(1485365701.397298) can0 3A0#0000000000000013
(1485365701.397669) can0 2C1#08FF8AFF870000E2
(1485365701.399746) can0 394#00
(1485365701.405472) can0 0B2#000000000000
(1485365701.405618) can0 0B0#000000000000
(1485365701.405920) can0 223#0000007FE000008C
(1485365701.406214) can0 224#0000000000000000
(1485365701.406859) can0 2C4#041300130000A29A
(1485365701.414672) can0 260#0800000000000C7E
(1485365701.415085) can0 620#1000000030600050
(1485365701.415523) can0 0B2#000000000001
(1485365701.415649) can0 0B0#000000000001
(1485365701.415975) can0 0B4#00000000000000BC
(1485365701.425372) can0 0B2#000000000002
(1485365701.425490) can0 0B0#000000000002
(1485365701.426871) can0 2C1#08FF97FF8A0000F2
(1485365701.427035) can0 2C4#041100130000A298
(1485365701.435047) can0 260#0800000000FFF465
(1485365701.435521) can0 0B2#000000000003
(1485365701.435644) can0 0B0#000000000003
(1485365701.435964) can0 223#0000007FE000008C
(1485365701.436150) can0 0B4#00000000000000BC
(1485365701.436379) can0 224#0000000000000000
(1485365701.445372) can0 0B2#000000000004
(1485365701.445520) can0 0B0#000000000004
(1485365701.446870) can0 2C4#041000130000A297
(1485365701.455075) can0 260#0800000000FFF566
(1485365701.455418) can0 0B2#000000000005
(1485365701.455602) can0 0B0#000000000005
(1485365701.455915) can0 0B4#00000000000000BC
(1485365701.456874) can0 2C1#08FFA4FF9A00000F
(1485365701.459546) can0 440#4202000007000000
(1485365701.465547) can0 0B2#000000000006
(1485365701.465628) can0 0B0#000000000006
(1485365701.465921) can0 223#0000007FE000008C
(1485365701.466225) can0 224#0000000000000000
(1485365701.466858) can0 2C4#040E00130000A295
(1485365701.475472) can0 260#0800000000000678
(1485365701.475594) can0 0B2#000000000007
(1485365701.475875) can0 0B0#000000000007
(1485365701.476178) can0 0B4#00000000000000BC
(1485365701.485424) can0 0B2#000000000008
(1485365701.485543) can0 0B0#000000000008
(1485365701.486897) can0 2C1#08FFAAFFA000001B
(1485365701.487082) can0 2C4#040D00130000A294
(1485365701.495551) can0 260#0800000000000577
(1485365701.495626) can0 0B2#000000000009
(1485365701.495887) can0 0B0#000000000009
(1485365701.496127) can0 223#0000007FE000008C
(1485365701.496316) can0 0B4#00000000000000BC
(1485365701.496624) can0 224#0000000000000000
(1485365701.497271) can0 3A0#0000000000000013
(1485365701.505451) can0 0B2#00000000000A
(1485365701.505595) can0 0B0#00000000000A
(1485365701.506844) can0 2C4#040C00130000A293
(1485365701.515432) can0 0B2#00000000000B
(1485365701.515643) can0 0B0#00000000000B
(1485365701.515862) can0 260#0800000000000C7E
(1485365701.516098) can0 0B4#00000000000000BC
(1485365701.516796) can0 2C1#08FFADFFAA000028
(1485365701.525411) can0 0B2#00000000000C
(1485365701.525590) can0 0B0#00000000000C
(1485365701.525865) can0 223#0000007FE000008C
(1485365701.526165) can0 224#0000000000000000
(1485365701.527989) can0 2C4#040C00130000A293
(1485365701.535389) can0 0B2#00000000000D
(1485365701.535614) can0 0B0#00000000000D
(1485365701.535840) can0 260#0800010000FFF769
(1485365701.536089) can0 0B4#00000000000000BC
(1485365701.545365) can0 0B2#00000000000E
(1485365701.545565) can0 0B0#00000000000E
(1485365701.546790) can0 2C1#08FFA4FFA4000019
(1485365701.547040) can0 2C4#040E00130000A295
(1485365701.555513) can0 0B2#00000000000F
(1485365701.555713) can0 0B0#00000000000F
(1485365701.555962) can0 223#0000007FE000008C
(1485365701.556214) can0 0B4#00000000000000BC
(1485365701.556489) can0 224#0000000000000000
(1485365701.556690) can0 260#0800000000FFF96A
(1485365701.556939) can0 3B7#0000000000000000
(1485365701.558814) can0 442#4002000003000000
(1485365701.565341) can0 0B2#000000000000
(1485365701.565564) can0 0B0#000000000000
(1485365701.566814) can0 2C4#040E00130000A295
(1485365701.575417) can0 0B2#000000000001
(1485365701.575612) can0 0B0#000000000001
(1485365701.575886) can0 0B4#00000000000000BC
(1485365701.576487) can0 260#0800000000000B7D
(1485365701.576789) can0 2C1#08FFA7FFA400001C
(1485365701.579489) can0 621#1100000000000000
(1485365701.585367) can0 0B2#000000000002
(1485365701.585590) can0 0B0#000000000002
(1485365701.585814) can0 223#0000007FE000008C
(1485365701.586115) can0 224#0000000000000000
(1485365701.586839) can0 2C4#040C00130000A293
(1485365701.589491) can0 622#1200000000000000
(1485365701.595367) can0 0B2#000000000003
(1485365701.595564) can0 0B0#000000000003
(1485365701.595864) can0 0B4#00000000000000BC
(1485365701.596764) can0 260#0800000000000072
(1485365701.597187) can0 3A0#0000000000000014
(1485365701.598039) can0 624#1A0057FFFF400000
(1485365701.605341) can0 0B2#000000000004
(1485365701.605565) can0 0B0#000000000004
(1485365701.606789) can0 2C1#08FFB4FFAA00002F
(1485365701.607040) can0 2C4#040B00130000A292
(1485365701.607290) can0 630#1700000000000000
(1485365701.615493) can0 0B2#000000000005
(1485365701.615688) can0 0B0#000000000005
(1485365701.615937) can0 223#0000007FE000008C
(1485365701.616186) can0 0B4#00000000000000BC
(1485365701.616463) can0 224#0000000000000000
(1485365701.616687) can0 638#1300110000000000
(1485365701.616937) can0 260#0800000000000476
(1485365701.625370) can0 0B2#000000000006
(1485365701.625566) can0 0B0#000000000006
(1485365701.626763) can0 2C4#040A00130000A291
(1485365701.635415) can0 0B2#000000000007
(1485365701.635638) can0 0B0#000000000007
(1485365701.635938) can0 0B4#00000000000000BC
(1485365701.636792) can0 2C1#08FFBAFFB7000042
(1485365701.637167) can0 260#0800000000000A7C
(1485365701.645390) can0 0B2#000000000008
(1485365701.645591) can0 0B0#000000000008
(1485365701.645840) can0 223#0000007FE000008C
(1485365701.646138) can0 224#0000000000000000
(1485365701.646840) can0 2C4#040800130000A28F
(1485365701.654666) can0 440#4202000007000000
(1485365701.655366) can0 0B2#000000000009
(1485365701.655591) can0 0B0#000000000009
(1485365701.655865) can0 0B4#00000000000000BC
(1485365701.657388) can0 260#0800000000000A7C
(1485365701.665292) can0 0B2#00000000000A
(1485365701.665491) can0 0B0#00000000000A
(1485365701.666790) can0 2C1#08FFC0FFBA00004B
(1485365701.667013) can0 2C4#040800130000A28F
(1485365701.675492) can0 0B2#00000000000B
(1485365701.675665) can0 0B0#00000000000B
(1485365701.675915) can0 223#0000007FE000008C
(1485365701.676137) can0 0B4#00000000000000BC
(1485365701.676414) can0 224#0000000000000000
(1485365701.677638) can0 260#0800000000000072
(1485365701.679540) can0 610#2000006400000000
(1485365701.685292) can0 0B2#00000000000C
(1485365701.685490) can0 0B0#00000000000C
(1485365701.686815) can0 2C4#040800130000A28F
(1485365701.689542) can0 611#2100201200021DB5
(1485365701.695366) can0 0B2#00000000000D
(1485365701.695591) can0 0B0#00000000000D
(1485365701.695888) can0 0B4#00000000000000BC
(1485365701.696817) can0 2C1#08FFC4FFBD000052
(1485365701.697190) can0 3A0#0000000000000014
(1485365701.697816) can0 260#0800000000FFF869
(1485365701.699965) can0 640#A8000032020E0000
(1485365701.702543) can0 394#00
(1485365701.705365) can0 0B2#00000000000E
(1485365701.705566) can0 0B0#00000000000E
(1485365701.705815) can0 223#0000007FE000008C
(1485365701.706113) can0 224#0000000000000000
(1485365701.707011) can0 2C4#040800130000A28F
(1485365701.714717) can0 620#1000000030600050
(1485365701.715388) can0 0B2#00000000000F
(1485365701.715590) can0 0B0#00000000000F
(1485365701.715888) can0 0B4#00000000000000BC
(1485365701.717990) can0 260#0800000000000173
(1485365701.720792) can0 3B4#000037B800000000
(1485365701.725292) can0 0B2#000000000000
(1485365701.725490) can0 0B0#000000000000
(1485365701.726791) can0 2C1#08FFCDFFC000005E
(1485365701.726996) can0 2C4#040600130000A28D
(1485365701.735491) can0 0B2#000000000001
(1485365701.735665) can0 0B0#000000000001
(1485365701.735916) can0 223#0000007FE000008C
(1485365701.736137) can0 0B4#00000000000000BC
(1485365701.736414) can0 224#0000000000000000
(1485365701.738240) can0 260#0800010000000578
(1485365701.745291) can0 0B2#000000000002
(1485365701.745514) can0 0B0#000000000002
(1485365701.746816) can0 2C4#040700130000A28E
(1485365701.749543) can0 442#4002000003000000
(1485365701.755365) can0 0B2#000000000003
(1485365701.755567) can0 0B0#000000000003
(1485365701.755866) can0 0B4#00000000000000BC
(1485365701.756793) can0 2C1#08FFC4FFCA00005F
(1485365701.758490) can0 260#0800000000000375
(1485365701.765417) can0 0B2#000000000004
(1485365701.765616) can0 0B0#000000000004
(1485365701.765865) can0 223#0000007FE000008C
(1485365701.766165) can0 224#0000000000000000
(1485365701.766815) can0 2C4#040900130000A290
(1485365701.766967) can0 3B3#040900
(1485365701.773367) can0 4C8#0900010700000000
(1485365701.775365) can0 0B2#000000000005
(1485365701.775592) can0 0B0#000000000005
(1485365701.775889) can0 0B4#00000000000000BC
(1485365701.778616) can0 260#080000000000097B
(1485365701.785318) can0 0B2#000000000006
(1485365701.785513) can0 0B0#000000000006
(1485365701.787965) can0 2C1#08FFC0FFBD00004E
(1485365701.788218) can0 2C4#040A00130000A291
(1485365701.795491) can0 0B2#000000000007
(1485365701.795666) can0 0B0#000000000007
(1485365701.795888) can0 223#0000007FE000008C
(1485365701.796165) can0 0B4#00000000000000BC
(1485365701.796414) can0 224#0000000000000000
(1485365701.797191) can0 3A0#0000000000000014
(1485365701.798867) can0 260#080000000000087A
(1485365701.805293) can0 0B2#000000000008
(1485365701.805513) can0 0B0#000000000008
(1485365701.806791) can0 2C4#040A00130000A291
(1485365701.815491) can0 0B2#000000000009
(1485365701.815692) can0 0B0#000000000009
(1485365701.815991) can0 0B4#00000000000000BC
(1485365701.816793) can0 2C1#08FFC0FFBD00004E
(1485365701.819041) can0 260#0800010000000376
(1485365701.825493) can0 0B2#00000000000A
(1485365701.825666) can0 0B0#00000000000A
(1485365701.825916) can0 223#0000007FE000008C
(1485365701.826216) can0 224#0000000000000000
(1485365701.826491) can0 4C3#0400300500000000
(1485365701.826782) can0 2C4#040B00130000A292
(1485365701.835391) can0 0B2#00000000000B
(1485365701.835592) can0 0B0#00000000000B
(1485365701.835889) can0 0B4#00000000000000BC
(1485365701.839226) can0 260#0800000000000476
(1485365701.845399) can0 0B2#00000000000C
(1485365701.845529) can0 0B0#00000000000C
(1485365701.846850) can0 2C1#08FFBDFFBD00004B
(1485365701.847003) can0 2C4#040C00130000A293
(1485365701.849004) can0 440#4202000007000000
(1485365701.855552) can0 0B2#00000000000D
(1485365701.855665) can0 0B0#00000000000D
(1485365701.855981) can0 223#0000007FE000008C
(1485365701.856154) can0 0B4#00000000000000BC
(1485365701.856425) can0 224#0000000000000000
(1485365701.856756) can0 3B7#0000000000000000
(1485365701.859550) can0 260#0800000000000274
(1485365701.865422) can0 0B2#00000000000E
(1485365701.865581) can0 0B0#00000000000E
(1485365701.866849) can0 2C4#040C00130000A293
(1485365701.875476) can0 0B2#00000000000F
(1485365701.875627) can0 0B0#00000000000F
(1485365701.875966) can0 0B4#00000000000000BC
(1485365701.876826) can0 2C1#08FFBDFFBA000048
(1485365701.879721) can0 260#080000000000087A
(1485365701.885478) can0 0B2#000000000000
(1485365701.885628) can0 0B0#000000000000
(1485365701.885923) can0 223#0000007FE000008C
(1485365701.886245) can0 224#0000000000000000
(1485365701.886835) can0 2C4#040D00130000A294
(1485365701.895551) can0 0B2#000000000001
(1485365701.895635) can0 0B0#000000000001
(1485365701.895964) can0 0B4#00000000000000BC
(1485365701.897229) can0 3A0#0000000000000014
(1485365701.899896) can0 260#0800000000000375
(1485365701.905400) can0 0B2#000000000002
(1485365701.905557) can0 0B0#000000000002
(1485365701.906847) can0 2C1#08FFADFFB4000032
(1485365701.907004) can0 2C4#041000130000A297
(1485365701.915553) can0 0B2#000000000003
(1485365701.915690) can0 0B0#000000000003
(1485365701.915948) can0 223#0000007FE000008C
(1485365701.916195) can0 0B4#00000000000000BC
(1485365701.916529) can0 224#0000000000000000
(1485365701.920146) can0 260#0800000000FFF768
(1485365701.925422) can0 0B2#000000000004
(1485365701.925555) can0 0B0#000000000004
(1485365701.926847) can0 2C4#041000130000A297
(1485365701.935477) can0 0B2#000000000005
(1485365701.935603) can0 0B0#000000000005
(1485365701.935923) can0 0B4#00000000000000BC
(1485365701.936853) can0 2C1#08FFB0FFAA00002B
(1485365701.940258) can0 260#0800010000FFFA6C
(1485365701.945444) can0 0B2#000000000006
(1485365701.945606) can0 0B0#000000000006
(1485365701.945878) can0 223#0000007FE000008C
(1485365701.946169) can0 224#0000000000000000
(1485365701.946855) can0 2C4#040E00130000A295
(1485365701.949254) can0 442#4002000003000000
(1485365701.955430) can0 0B2#000000000007
(1485365701.955580) can0 0B0#000000000007
(1485365701.955944) can0 0B4#00000000000000BC
(1485365701.960554) can0 260#0800000000FFFD6E
(1485365701.965401) can0 0B2#000000000008
(1485365701.965529) can0 0B0#000000000008
(1485365701.967226) can0 2C1#08FFB0FFAD00002E
(1485365701.967525) can0 2C4#040F00130000A296
(1485365701.975552) can0 0B2#000000000009
(1485365701.975693) can0 0B0#000000000009
(1485365701.975957) can0 223#0000007FE000008C
(1485365701.976201) can0 0B4#00000000000000BC
(1485365701.976530) can0 224#0000000000000000
(1485365701.980753) can0 260#0800000000000577
(1485365701.985430) can0 0B2#00000000000A
(1485365701.985578) can0 0B0#00000000000A
(1485365701.986844) can0 2C4#041000130000A297
(1485365701.995553) can0 0B2#00000000000B
(1485365701.995638) can0 0B0#00000000000B
(1485365701.995955) can0 0B4#00000000000000BC
(1485365701.996805) can0 2C1#08FFAAFFAA000025
(1485365701.997200) can0 3A0#0000000000000014
(1485365702.000954) can0 260#0800000000000779
(1485365702.005554) can0 0B2#00000000000C
(1485365702.005641) can0 0B0#00000000000C
(1485365702.005887) can0 223#0000007FE000008C
(1485365702.006031) can0 394#00
(1485365702.006302) can0 224#0000000000000000
(1485365702.006797) can0 2C4#041000130000A297
(1485365702.014402) can0 620#1000000030600050
(1485365702.015551) can0 0B2#00000000000D
(1485365702.015691) can0 0B0#00000000000D
(1485365702.016041) can0 0B4#00000000000000BC
(1485365702.021126) can0 260#0800000000000173
(1485365702.025424) can0 0B2#00000000000E
(1485365702.025581) can0 0B0#00000000000E
(1485365702.027698) can0 2C1#08FFADFFA7000025
(1485365702.027886) can0 2C4#040F00130000A296
(1485365702.031550) can0 3B1#0000022A00000000
(1485365702.035601) can0 0B2#00000000000F
(1485365702.035729) can0 0B0#00000000000F
(1485365702.036029) can0 223#0000007FE000008C
(1485365702.036265) can0 0B4#00000000000000BC
(1485365702.036512) can0 224#0000000000000000
(1485365702.041381) can0 260#08FFFE000000006F
(1485365702.045405) can0 0B2#000000000000
(1485365702.045529) can0 0B0#000000000000
(1485365702.047200) can0 2C4#040F00130000A296
(1485365702.048754) can0 440#4202000007000000
(1485365702.055473) can0 0B2#000000000001
(1485365702.055601) can0 0B0#000000000001
(1485365702.055923) can0 0B4#00000000000000BC
(1485365702.056853) can0 2C1#08FFADFFAA000028
(1485365702.061554) can0 260#08FFFB000000016D
(1485365702.065555) can0 0B2#000000000002
(1485365702.065661) can0 0B0#000000000002
(1485365702.065915) can0 223#0000007FE000008C
(1485365702.066234) can0 224#0000000000000000
(1485365702.066800) can0 2C4#041000130000A297
(1485365702.075551) can0 0B2#000000000003
(1485365702.075643) can0 0B0#000000000003
(1485365702.075958) can0 0B4#00000000000000BC
(1485365702.081629) can0 260#0800000000FFF768
(1485365702.085401) can0 0B2#000000000004
(1485365702.085553) can0 0B0#000000000004
(1485365702.086846) can0 2C1#08FFA0FFA4000015
(1485365702.087034) can0 2C4#041200130000A299
(1485365702.095554) can0 0B2#000000000005
(1485365702.095692) can0 0B0#000000000005
(1485365702.095991) can0 223#0000007FE000008C
(1485365702.096236) can0 0B4#00000000000000BC
(1485365702.096530) can0 224#0000000000000000
(1485365702.097179) can0 3A0#0000000000000014
(1485365702.101930) can0 260#080004000000077D
(1485365702.105380) can0 0B2#000000000006
(1485365702.105530) can0 0B0#000000000006
(1485365702.106824) can0 2C4#041300130000A29A
(1485365702.115357) can0 0B2#000000000007
(1485365702.115546) can0 0B0#000000000007
(1485365702.115817) can0 0B4#00000000000000BC
(1485365702.116734) can0 2C1#08FF9AFF97000002
(1485365702.122059) can0 260#0800020000FFFA6D
(1485365702.125483) can0 0B2#000000000008
(1485365702.125658) can0 0B0#000000000008
(1485365702.125908) can0 223#0000007FE000008C
(1485365702.126183) can0 224#0000000000000000
(1485365702.126783) can0 2C4#041500130000A29C
(1485365702.135482) can0 0B2#000000000009
(1485365702.135631) can0 0B0#000000000009
(1485365702.135931) can0 0B4#00000000000000BC
(1485365702.141985) can0 260#08FFFF0000000878
(1485365702.145484) can0 0B2#00000000000A
(1485365702.145636) can0 0B0#00000000000A
(1485365702.146756) can0 2C1#08FF94FF8D0000F2
(1485365702.147004) can0 2C4#041400130000A29B
(1485365702.148409) can0 442#4002000003000000
(1485365702.155481) can0 0B2#00000000000B
(1485365702.155684) can0 0B0#00000000000B
(1485365702.155934) can0 223#0000007FE000008C
(1485365702.156181) can0 0B4#00000000000000BC
(1485365702.156483) can0 224#0000000000000000
(1485365702.156733) can0 3B7#0000000000000000
(1485365702.162359) can0 260#08FFFE0000000675
(1485365702.165284) can0 0B2#00000000000C
(1485365702.165484) can0 0B0#00000000000C
(1485365702.166757) can0 2C4#041200130000A299
(1485365702.175359) can0 0B2#00000000000D
(1485365702.175560) can0 0B0#00000000000D
(1485365702.175849) can0 0B4#00000000000000BC
(1485365702.176757) can0 2C1#08FF9AFF97000002
(1485365702.179310) can0 610#2000006400000000
(1485365702.182560) can0 260#0800000000FFFC6D
(1485365702.185308) can0 0B2#00000000000E
(1485365702.185559) can0 0B0#00000000000E
(1485365702.185784) can0 223#0000007FE000008C
(1485365702.186108) can0 224#0000000000000000
(1485365702.186783) can0 2C4#041100130000A298
(1485365702.195335) can0 0B2#00000000000F
(1485365702.195559) can0 0B0#00000000000F
(1485365702.195833) can0 0B4#00000000000000BC
(1485365702.197132) can0 3A0#0000000000000014
(1485365702.197982) can0 4ED#5C00000000000000
(1485365702.202757) can0 260#080003000000087D
(1485365702.205233) can0 0B2#000000000000
(1485365702.205481) can0 0B0#000000000000
(1485365702.206757) can0 2C1#08FF97FF970000FF
(1485365702.206981) can0 2C4#041200130000A299
(1485365702.215409) can0 0B2#000000000001
(1485365702.215607) can0 0B0#000000000001
(1485365702.215856) can0 223#0000007FE000008C
(1485365702.216106) can0 0B4#00000000000000BC
(1485365702.216355) can0 224#0000000000000000
(1485365702.222785) can0 260#0800020000FFF86B
(1485365702.225260) can0 0B2#000000000002
(1485365702.225486) can0 0B0#000000000002
(1485365702.226784) can0 2C4#041000130000A297
(1485365702.227034) can0 4C1#0100500500000000
(1485365702.227285) can0 4DC#1D00010900000000
(1485365702.235312) can0 0B2#000000000003
(1485365702.235536) can0 0B0#000000000003
(1485365702.235809) can0 0B4#00000000000000BC
(1485365702.236758) can0 2C1#08FFAAFF9D000018
(1485365702.241507) can0 4DD#1E00000500000000
(1485365702.243184) can0 260#0800000000FFFE6F
(1485365702.245337) can0 0B2#000000000004
(1485365702.245537) can0 0B0#000000000004
(1485365702.245785) can0 223#0000007FE000008C
(1485365702.246084) can0 224#0000000000000000
(1485365702.246786) can0 2C4#040E00130000A295
(1485365702.248410) can0 440#4202000007000000
(1485365702.255320) can0 0B2#000000000005
(1485365702.255545) can0 0B0#000000000005
(1485365702.255845) can0 0B4#00000000000000BC
(1485365702.263196) can0 260#08FFFF0000FFF665
(1485365702.265297) can0 0B2#000000000006
(1485365702.265518) can0 0B0#000000000006
(1485365702.267095) can0 3B0#0000003200
(1485365702.267870) can0 2C1#08FFADFFAA000028
(1485365702.268119) can0 2C4#040D00130000A294
(1485365702.268243) can0 3B3#040D00
(1485365702.275496) can0 0B2#000000000007
(1485365702.275621) can0 0B0#000000000007
(1485365702.275857) can0 223#0000007FE000008C
(1485365702.276138) can0 0B4#00000000000000BC
(1485365702.276387) can0 224#0000000000000000
(1485365702.283595) can0 260#0800010000000275
(1485365702.285319) can0 0B2#000000000008
(1485365702.285545) can0 0B0#000000000008
(1485365702.286768) can0 2C4#040C00130000A293
(1485365702.295394) can0 0B2#000000000009
(1485365702.295595) can0 0B0#000000000009
(1485365702.295893) can0 0B4#00000000000000BC
(1485365702.296747) can0 2C1#08FFB4FFB0000035
(1485365702.297143) can0 3A0#0000000000000014
(1485365702.303622) can0 260#080002000000077B
(1485365702.305371) can0 0B2#00000000000A
(1485365702.305570) can0 0B0#00000000000A
(1485365702.305820) can0 223#0000007FE000008C
(1485365702.306120) can0 224#0000000000000000
(1485365702.306795) can0 2C4#040900130000A290
(1485365702.308921) can0 394#00
(1485365702.313920) can0 620#1000000030600050
(1485365702.315393) can0 0B2#00000000000B
(1485365702.315621) can0 0B0#00000000000B
(1485365702.315893) can0 0B4#00000000000000BC
(1485365702.324056) can0 260#0800010000FFF264
(1485365702.325329) can0 0B2#00000000000C
(1485365702.325483) can0 0B0#00000000000C
(1485365702.326825) can0 2C1#08FFBDFFBA000048
(1485365702.326983) can0 2C4#040900130000A290
(1485365702.327280) can0 380#00A0043000000300
(1485365702.335554) can0 0B2#00000000000D
(1485365702.335651) can0 0B0#00000000000D
(1485365702.335922) can0 223#0000007FE000008C
(1485365702.336155) can0 0B4#00000000000000BC
(1485365702.336389) can0 224#0000000000000000
(1485365702.344082) can0 260#0800000000000779
(1485365702.345353) can0 0B2#00000000000E
(1485365702.345490) can0 0B0#00000000000E
(1485365702.346825) can0 2C4#040A00130000A291
(1485365702.351752) can0 442#4002000003000000
(1485365702.355399) can0 0B2#00000000000F
(1485365702.355567) can0 0B0#00000000000F
(1485365702.355873) can0 0B4#00000000000000BC
(1485365702.356832) can0 2C1#08FFBAFFB7000042
(1485365702.364457) can0 260#0800000000000678
(1485365702.365428) can0 0B2#000000000000
(1485365702.365566) can0 0B0#000000000000
(1485365702.365855) can0 223#0000007FE000008C
(1485365702.366161) can0 224#0000000000000000
(1485365702.366802) can0 2C4#040C00130000A293
(1485365702.375432) can0 0B2#000000000001
(1485365702.375566) can0 0B0#000000000001
(1485365702.375926) can0 0B4#00000000000000BC
(1485365702.384537) can0 260#0800010000FFFC6E
(1485365702.385361) can0 0B2#000000000002
(1485365702.385490) can0 0B0#000000000002
(1485365702.386824) can0 2C1#08FFB4FFB4000039
(1485365702.386996) can0 2C4#040C00130000A293
(1485365702.395557) can0 0B2#000000000003
(1485365702.395649) can0 0B0#000000000003
(1485365702.395929) can0 223#0000007FE000008C
(1485365702.396164) can0 0B4#00000000000000BC
(1485365702.396533) can0 224#0000000000000000
(1485365702.397179) can0 3A0#0000000000000014
(1485365702.404881) can0 260#0800010000FFF86A
(1485365702.405345) can0 0B2#000000000004
(1485365702.405523) can0 0B0#000000000004
(1485365702.406804) can0 2C4#040E00130000A295
(1485365702.415432) can0 0B2#000000000005
(1485365702.415563) can0 0B0#000000000005
(1485365702.415908) can0 0B4#00000000000000BC
(1485365702.416806) can0 2C1#08FFA7FFAA000022
(1485365702.420658) can0 38A#0804000000
(1485365702.424907) can0 260#0800000000FFF667
(1485365702.425417) can0 0B2#000000000006
(1485365702.425592) can0 0B0#000000000006
(1485365702.425882) can0 223#0000007FE000008C
(1485365702.426163) can0 224#0000000000000000
(1485365702.426799) can0 2C4#041000130000A297
(1485365702.435426) can0 0B2#000000000007
(1485365702.435591) can0 0B0#000000000007
(1485365702.435923) can0 0B4#00000000000000BC
(1485365702.445281) can0 260#0800000000FFF667
(1485365702.445500) can0 0B2#000000000008
(1485365702.445676) can0 0B0#000000000008
(1485365702.447208) can0 2C1#08FFA4FFA4000019
(1485365702.447379) can0 2C4#041000130000A297
(1485365702.448208) can0 440#4202000007000000
(1485365702.455555) can0 0B2#000000000009
(1485365702.455640) can0 0B0#000000000009
(1485365702.455929) can0 223#0000007FE000008C
(1485365702.456168) can0 0B4#00000000000000BC
(1485365702.456408) can0 224#0000000000000000
(1485365702.456744) can0 3B7#0000000000000000
(1485365702.465311) can0 260#0800010000000578
(1485365702.465494) can0 0B2#00000000000A
(1485365702.465693) can0 0B0#00000000000A
(1485365702.466827) can0 2C4#041100130000A298
(1485365702.475383) can0 0B2#00000000000B
(1485365702.475542) can0 0B0#00000000000B
(1485365702.475837) can0 0B4#00000000000000BC
(1485365702.476807) can0 2C1#08FF9DFF9D00000B
(1485365702.485419) can0 0B2#00000000000C
(1485365702.485565) can0 0B0#00000000000C
(1485365702.485839) can0 223#0000007FE000008C
(1485365702.486061) can0 260#0800000000000577
(1485365702.486330) can0 224#0000000000000000
(1485365702.486802) can0 2C4#041100130000A298
(1485365702.495403) can0 0B2#00000000000D
(1485365702.495567) can0 0B0#00000000000D
(1485365702.495926) can0 0B4#00000000000000BC
(1485365702.497190) can0 3A0#0000000000000014
(1485365702.505385) can0 0B2#00000000000E
(1485365702.505515) can0 0B0#00000000000E
(1485365702.505881) can0 260#0800010000FFFE70
(1485365702.507701) can0 2C1#08FFA0FF9A00000B
(1485365702.507874) can0 2C4#041000130000A297
(1485365702.515558) can0 0B2#00000000000F
(1485365702.515678) can0 0B0#00000000000F
(1485365702.515982) can0 223#0000007FE000008C
(1485365702.516171) can0 0B4#00000000000000BC
(1485365702.516468) can0 224#0000000000000000
(1485365702.520707) can0 610#208000E400000000
(1485365702.525383) can0 0B2#000000000000
(1485365702.525543) can0 0B0#000000000000
(1485365702.526096) can0 260#080001000000087B
(1485365702.527384) can0 2C4#040E00130000A295
(1485365702.535434) can0 0B2#000000000001
(1485365702.535593) can0 0B0#000000000001
(1485365702.535926) can0 0B4#00000000000000BC
(1485365702.536806) can0 2C1#08FFAAFFA7000022
(1485365702.538980) can0 442#4002000003000000
(1485365702.545458) can0 0B2#000000000002
(1485365702.545619) can0 0B0#000000000002
(1485365702.545908) can0 223#0000007FE000008C
(1485365702.546173) can0 224#0000000000000000
(1485365702.546411) can0 260#0800000000FFFD6E
(1485365702.546802) can0 2C4#040C00130000A293
(1485365702.555455) can0 0B2#000000000003
(1485365702.555594) can0 0B0#000000000003
(1485365702.555895) can0 0B4#00000000000000BC
(1485365702.565288) can0 0B2#000000000004
(1485365702.565508) can0 0B0#000000000004
(1485365702.566630) can0 260#0800010000000679
(1485365702.566791) can0 2C1#08FFB4FFAD000032
(1485365702.567086) can0 2C4#040C00130000A293
(1485365702.575560) can0 0B2#000000000005
(1485365702.575636) can0 0B0#000000000005
(1485365702.575919) can0 223#0000007FE000008C
(1485365702.576166) can0 0B4#00000000000000BC
(1485365702.576402) can0 224#0000000000000000
(1485365702.578277) can0 621#1100000000000000
(1485365702.585383) can0 0B2#000000000006
(1485365702.585526) can0 0B0#000000000006
(1485365702.586827) can0 260#0800010000FFF264
(1485365702.586984) can0 2C4#040A00130000A291
(1485365702.588209) can0 622#1200000000000000
(1485365702.595430) can0 0B2#000000000007
(1485365702.595579) can0 0B0#000000000007
(1485365702.595908) can0 0B4#00000000000000BC
(1485365702.596984) can0 2C1#08FFBAFFB7000042
(1485365702.597144) can0 3A0#0000000000000014
(1485365702.597428) can0 624#1A0057FFFF400000
(1485365702.605460) can0 0B2#000000000008
(1485365702.605576) can0 0B0#000000000008
(1485365702.605885) can0 223#0000007FE000008C
(1485365702.606169) can0 224#0000000000000000
(1485365702.606418) can0 630#1700000000000000
(1485365702.606802) can0 2C4#040900130000A290
(1485365702.607049) can0 260#0800010000FFF365
(1485365702.611829) can0 394#00
(1485365702.615454) can0 638#1300110000000000
(1485365702.615576) can0 0B2#000000000009
(1485365702.615798) can0 0B0#000000000009
(1485365702.616133) can0 0B4#00000000000000BC
(1485365702.624637) can0 620#1000000030600050
(1485365702.625338) can0 0B2#00000000000A
(1485365702.625478) can0 0B0#00000000000A
(1485365702.626806) can0 2C1#08FFBDFFBD00004B
(1485365702.626967) can0 2C4#040A00130000A291
(1485365702.627271) can0 260#0800010000FFFC6E
(1485365702.635456) can0 0B2#00000000000B
(1485365702.635605) can0 0B0#00000000000B
(1485365702.635907) can0 223#0000007FE000008C
(1485365702.636123) can0 0B4#00000000000000BC
(1485365702.636389) can0 224#0000000000000000
(1485365702.638032) can0 440#4202000007000000
(1485365702.645379) can0 0B2#00000000000C
(1485365702.645532) can0 0B0#00000000000C
(1485365702.646803) can0 2C4#040B00130000A292
(1485365702.647440) can0 260#0800010000000174
(1485365702.655432) can0 0B2#00000000000D
(1485365702.655580) can0 0B0#00000000000D
(1485365702.655928) can0 0B4#00000000000000BC
(1485365702.656809) can0 2C1#08FFB0FFB7000038
(1485365702.665459) can0 0B2#00000000000E
(1485365702.665576) can0 0B0#00000000000E
(1485365702.665883) can0 223#0000007FE000008C
(1485365702.666203) can0 224#0000000000000000
(1485365702.666816) can0 2C4#040D00130000A294
(1485365702.667732) can0 260#0800010000FFFC6E
(1485365702.675456) can0 0B2#00000000000F
(1485365702.675578) can0 0B0#00000000000F
(1485365702.675928) can0 0B4#00000000000000BC
(1485365702.685333) can0 0B2#000000000000
(1485365702.685476) can0 0B0#000000000000
(1485365702.686740) can0 2C1#08FFAAFFAD000028
(1485365702.686987) can0 2C4#040F00130000A296
(1485365702.687906) can0 260#0800010000000275
(1485365702.689284) can0 611#2100201200021DB5
(1485365702.695482) can0 0B2#000000000001
(1485365702.695604) can0 0B0#000000000001
(1485365702.695887) can0 223#0000007FE000008C
(1485365702.696094) can0 0B4#00000000000000BC
(1485365702.696412) can0 224#0000000000000000
(1485365702.697153) can0 3A0#0000000000000014
(1485365702.701185) can0 640#A8000032020E0000
(1485365702.705335) can0 0B2#000000000002
(1485365702.705484) can0 0B0#000000000002
(1485365702.707206) can0 2C4#041100130000A298
(1485365702.708078) can0 260#080001000000087B
(1485365702.715309) can0 0B2#000000000003
(1485365702.715522) can0 0B0#000000000003
(1485365702.715798) can0 0B4#00000000000000BC
(1485365702.716727) can0 2C1#08FF97FF9D000005
(1485365702.720676) can0 3B4#000037B800000000
(1485365702.725410) can0 0B2#000000000004
(1485365702.725537) can0 0B0#000000000004
(1485365702.725854) can0 223#0000007FE000008C
(1485365702.726110) can0 224#0000000000000000
(1485365702.726805) can0 2C4#041300130000A29A
(1485365702.728360) can0 260#0800010000FFF769
(1485365702.729112) can0 442#4002000003000000
(1485365702.735384) can0 0B2#000000000005
(1485365702.735542) can0 0B0#000000000005
(1485365702.735840) can0 0B4#00000000000000BC
(1485365702.745311) can0 0B2#000000000006
(1485365702.745493) can0 0B0#000000000006
(1485365702.746807) can0 2C1#08FF9DFF94000002
(1485365702.746978) can0 2C4#041100130000A298
(1485365702.748531) can0 260#0800010000FFF86A
(1485365702.755458) can0 0B2#000000000007
(1485365702.755591) can0 0B0#000000000007
(1485365702.755884) can0 223#0000007FE000008C
(1485365702.756132) can0 0B4#00000000000000BC
(1485365702.756374) can0 224#0000000000000000
(1485365702.756678) can0 3B7#0000000000000000
(1485365702.756958) can0 4C3#0400300500000000
(1485365702.763479) can0 4C8#0900010700000000
(1485365702.765309) can0 0B2#000000000008
(1485365702.765492) can0 0B0#000000000008
(1485365702.767280) can0 2C4#040E00130000A295
(1485365702.767372) can0 3B3#040E00
(1485365702.768711) can0 260#0800010000000376
(1485365702.775384) can0 0B2#000000000009
(1485365702.775511) can0 0B0#000000000009
(1485365702.775831) can0 0B4#00000000000000BC
(1485365702.776810) can0 2C1#08FFA7FFA400001C
(1485365702.785410) can0 0B2#00000000000A
(1485365702.785540) can0 0B0#00000000000A
(1485365702.785851) can0 223#0000007FE000008C
(1485365702.786134) can0 224#0000000000000000
(1485365702.786807) can0 2C4#041000130000A297
(1485365702.788936) can0 260#0800010000FFF163
(1485365702.795385) can0 0B2#00000000000B
(1485365702.795542) can0 0B0#00000000000B
(1485365702.795885) can0 0B4#00000000000000BC
(1485365702.797209) can0 3A0#0000000000000014
(1485365702.805362) can0 0B2#00000000000C
(1485365702.805488) can0 0B0#00000000000C
(1485365702.806808) can0 2C1#08FF9AFF9D000008
(1485365702.806978) can0 2C4#041100130000A298
(1485365702.809134) can0 260#0800010000FFFC6E
(1485365702.815560) can0 0B2#00000000000D
(1485365702.815649) can0 0B0#00000000000D
(1485365702.815904) can0 223#0000007FE000008C
(1485365702.816113) can0 0B4#00000000000000BC
(1485365702.816431) can0 224#0000000000000000
(1485365702.825336) can0 0B2#00000000000E
(1485365702.825485) can0 0B0#00000000000E
(1485365702.826806) can0 2C4#041300130000A29A
(1485365702.827729) can0 440#4202000007000000
(1485365702.829310) can0 260#0800010000000376
(1485365702.835384) can0 0B2#00000000000F
(1485365702.835534) can0 0B0#00000000000F
(1485365702.835885) can0 0B4#00000000000000BC
(1485365702.836811) can0 2C1#08FF94FF900000F5
(1485365702.839759) can0 398#07A0
(1485365702.845412) can0 0B2#000000000000
(1485365702.845559) can0 0B0#000000000000
(1485365702.845804) can0 223#0000007FE000008C
(1485365702.846134) can0 224#0000000000000000
(1485365702.846825) can0 2C4#041300130000A29A
(1485365702.849584) can0 260#0800010000000477
(1485365702.855405) can0 0B2#000000000001
(1485365702.855532) can0 0B0#000000000001
(1485365702.855885) can0 0B4#00000000000000BC
(1485365702.865304) can0 0B2#000000000002
(1485365702.865482) can0 0B0#000000000002
(1485365702.866804) can0 2C1#08FF8DFF8D0000EB
(1485365702.866969) can0 2C4#041400130000A29B
(1485365702.869733) can0 260#0800010000000073
(1485365702.875452) can0 0B2#000000000003
(1485365702.875610) can0 0B0#000000000003
(1485365702.875925) can0 223#0000007FE000008C
(1485365702.876099) can0 0B4#00000000000000BC
(1485365702.876412) can0 224#0000000000000000
(1485365702.885312) can0 0B2#000000000004
(1485365702.885486) can0 0B0#000000000004
(1485365702.886804) can0 2C4#041300130000A29A
(1485365702.889933) can0 260#0800010000000679
(1485365702.895383) can0 0B2#000000000005
(1485365702.895533) can0 0B0#000000000005
(1485365702.895838) can0 0B4#00000000000000BC
(1485365702.896784) can0 2C1#08FF9AFF8D0000F8
(1485365702.897144) can0 3A0#0000000000000014
(1485365702.905400) can0 0B2#000000000006
(1485365702.905560) can0 0B0#000000000006
(1485365702.905876) can0 223#0000007FE000008C
(1485365702.906128) can0 224#0000000000000000
(1485365702.906785) can0 2C4#041000130000A297
(1485365702.910187) can0 260#0800010000FFFC6E
(1485365702.913260) can0 620#1000000030600050
(1485365702.914855) can0 394#00
(1485365702.915458) can0 0B2#000000000007
(1485365702.915611) can0 0B0#000000000007
(1485365702.915929) can0 0B4#00000000000000BC
(1485365702.921230) can0 442#4002000003000000
(1485365702.925336) can0 0B2#000000000008
(1485365702.925485) can0 0B0#000000000008
(1485365702.927009) can0 2C1#08FF9DFF97000005
(1485365702.927163) can0 2C4#040F00130000A296
(1485365702.930380) can0 260#0800010000000376
(1485365702.935485) can0 0B2#000000000009
(1485365702.935632) can0 0B0#000000000009
(1485365702.935928) can0 223#0000007FE000008C
(1485365702.936147) can0 0B4#00000000000000BC
(1485365702.936430) can0 224#0000000000000000
(1485365702.945333) can0 0B2#00000000000A
(1485365702.945483) can0 0B0#00000000000A
(1485365702.946807) can0 2C4#040E00130000A295
(1485365702.950561) can0 260#0800010000000679
(1485365702.955408) can0 0B2#00000000000B
(1485365702.955534) can0 0B0#00000000000B
(1485365702.955877) can0 0B4#00000000000000BC
(1485365702.956790) can0 2C1#08FFB0FFA0000021
(1485365702.965436) can0 0B2#00000000000C
(1485365702.965558) can0 0B0#00000000000C
(1485365702.965839) can0 223#0000007FE000008C
(1485365702.966179) can0 224#0000000000000000
(1485365702.966829) can0 2C4#040B00130000A292
(1485365702.970810) can0 260#0800000000000072
(1485365702.975409) can0 0B2#00000000000D
(1485365702.975560) can0 0B0#00000000000D
(1485365702.975886) can0 0B4#00000000000000BC
(1485365702.985311) can0 0B2#00000000000E
(1485365702.985481) can0 0B0#00000000000E
(1485365702.986806) can0 2C1#08FFC0FFAD00003E
(1485365702.986968) can0 2C4#040700130000A28E
(1485365702.990962) can0 260#0800010000000477
(1485365702.995459) can0 0B2#00000000000F
(1485365702.995584) can0 0B0#00000000000F
(1485365702.995894) can0 223#0000007FE000008C
(1485365702.996075) can0 0B4#00000000000000BC
(1485365702.996363) can0 224#0000000000000000
(1485365702.997134) can0 3A0#0000000000000014
(1485365703.005338) can0 0B2#000000000000
(1485365703.005485) can0 0B0#000000000000
(1485365703.007958) can0 2C4#040700130000A28E
(1485365703.011159) can0 260#0800010000FFF062
(1485365703.015387) can0 0B2#000000000001
(1485365703.015535) can0 0B0#000000000001
(1485365703.015869) can0 0B4#00000000000000BC
(1485365703.016838) can0 2C1#08FFC7FFC400005C
(1485365703.017555) can0 440#4202000007000000
(1485365703.020385) can0 610#200000E400000000
(1485365703.025432) can0 0B2#000000000002
(1485365703.025585) can0 0B0#000000000002
(1485365703.025861) can0 223#0000007FE000008C
(1485365703.026167) can0 224#0000000000000000
(1485365703.026806) can0 2C4#040600130000A28D
(1485365703.031386) can0 260#0800000000000476
(1485365703.035436) can0 0B2#000000000003
(1485365703.035558) can0 0B0#000000000003
(1485365703.035839) can0 3B1#0000022A00000000
(1485365703.036126) can0 0B4#00000000000000BC
(1485365703.045362) can0 0B2#000000000004
(1485365703.045509) can0 0B0#000000000004
(1485365703.046781) can0 2C1#08FFD4FFC700006C
(1485365703.046965) can0 2C4#040400130000A28B
(1485365703.051562) can0 260#0800010000000275
(1485365703.055566) can0 0B2#000000000005
(1485365703.055645) can0 0B0#000000000005
(1485365703.055961) can0 223#0000007FE000008C
(1485365703.056123) can0 0B4#00000000000000BC
(1485365703.056423) can0 224#0000000000000000
(1485365703.056721) can0 3B7#0000000000000000
(1485365703.065362) can0 0B2#000000000006
(1485365703.065483) can0 0B0#000000000006
(1485365703.066782) can0 2C4#040500130000A28C
(1485365703.071659) can0 260#0800010000FFF365
(1485365703.075409) can0 0B2#000000000007
(1485365703.075559) can0 0B0#000000000007
(1485365703.075913) can0 0B4#00000000000000BC
(1485365703.077244) can0 2C1#08FFD4FFD0000075
(1485365703.085388) can0 0B2#000000000008
(1485365703.085536) can0 0B0#000000000008
(1485365703.085806) can0 223#0000007FE000008C
(1485365703.086137) can0 224#0000000000000000
(1485365703.086803) can0 2C4#040700130000A28E
(1485365703.091963) can0 260#0800000000FFF465
(1485365703.095407) can0 0B2#000000000009
(1485365703.095560) can0 0B0#000000000009
(1485365703.095912) can0 0B4#00000000000000BC
(1485365703.097137) can0 3A0#0000000000000014
(1485365703.105338) can0 0B2#00000000000A
(1485365703.105485) can0 0B0#00000000000A
(1485365703.106710) can0 2C1#08FFCAFFCA000065
(1485365703.107012) can0 2C4#040800130000A28F
(1485365703.108609) can0 442#4002000003000000
(1485365703.112155) can0 260#0800010000000073
(1485365703.115558) can0 0B2#00000000000B
(1485365703.115641) can0 0B0#00000000000B
(1485365703.115930) can0 223#0000007FE000008C
(1485365703.116178) can0 0B4#00000000000000BC
(1485365703.116403) can0 224#0000000000000000
(1485365703.125335) can0 0B2#00000000000C
(1485365703.125483) can0 0B0#00000000000C
(1485365703.126782) can0 2C4#040900130000A290
(1485365703.132211) can0 260#0800010000000B7E
(1485365703.135407) can0 0B2#00000000000D
(1485365703.135538) can0 0B0#00000000000D
(1485365703.135892) can0 0B4#00000000000000BC
(1485365703.137657) can0 2C1#08FFBDFFC000004E
(1485365703.137826) can0 4C1#0100500500000000
(1485365703.145386) can0 0B2#00000000000E
(1485365703.145512) can0 0B0#00000000000E
(1485365703.145825) can0 223#0000007FE000008C
(1485365703.146092) can0 224#0000000000000000
(1485365703.146786) can0 2C4#040B00130000A292
(1485365703.152452) can0 260#0800000000000072
(1485365703.155354) can0 0B2#00000000000F
(1485365703.155498) can0 0B0#00000000000F
(1485365703.155854) can0 0B4#00000000000000BC
(1485365703.165360) can0 0B2#000000000000
(1485365703.165499) can0 0B0#000000000000
(1485365703.166781) can0 2C1#08FFB0FFBA00003B
(1485365703.166964) can0 2C4#040E00130000A295
(1485365703.172688) can0 260#0800010000FFFA6C
(1485365703.175559) can0 0B2#000000000001
(1485365703.175654) can0 0B0#000000000001
(1485365703.175935) can0 223#0000007FE000008C
(1485365703.176171) can0 0B4#00000000000000BC
(1485365703.176416) can0 224#0000000000000000
(1485365703.185364) can0 0B2#000000000002
(1485365703.185497) can0 0B0#000000000002
(1485365703.187009) can0 2C4#041000130000A297
(1485365703.192687) can0 260#080001000000087B
(1485365703.195407) can0 0B2#000000000003
(1485365703.195575) can0 0B0#000000000003
(1485365703.195904) can0 0B4#00000000000000BC
(1485365703.196787) can0 2C1#08FFADFFA7000025
(1485365703.197150) can0 3A0#0000000000000014
(1485365703.197720) can0 4ED#5C00000000000000
(1485365703.205384) can0 0B2#000000000004
(1485365703.205548) can0 0B0#000000000004
(1485365703.205806) can0 223#0000007FE000008C
(1485365703.206114) can0 224#0000000000000000
(1485365703.206771) can0 2C4#040F00130000A296
(1485365703.207309) can0 440#4202000007000000
(1485365703.212964) can0 620#1000000030600050
(1485365703.213134) can0 260#0800010000000578
(1485365703.215457) can0 0B2#000000000005
(1485365703.215597) can0 0B0#000000000005
(1485365703.215911) can0 0B4#00000000000000BC
(1485365703.218013) can0 394#00
(1485365703.225313) can0 0B2#000000000006
(1485365703.225485) can0 0B0#000000000006
(1485365703.226782) can0 2C1#08FFAAFFAA000025
(1485365703.226965) can0 2C4#041000130000A297
(1485365703.227240) can0 4DC#1D00010900000000
(1485365703.233261) can0 260#0800010000000073
(1485365703.235435) can0 0B2#000000000007
(1485365703.235581) can0 0B0#000000000007
(1485365703.235843) can0 223#0000007FE000008C
(1485365703.236114) can0 0B4#00000000000000BC
(1485365703.236359) can0 224#0000000000000000
(1485365703.245289) can0 0B2#000000000008
(1485365703.245516) can0 0B0#000000000008
(1485365703.246781) can0 2C4#041000130000A297
(1485365703.253489) can0 260#0800010000FFFF71
(1485365703.255357) can0 0B2#000000000009
(1485365703.255505) can0 0B0#000000000009
(1485365703.255824) can0 4DD#1E00000500000000
(1485365703.255988) can0 0B4#00000000000000BC
(1485365703.256840) can0 2C1#08FFA4FFA0000015
(1485365703.265362) can0 0B2#00000000000A
(1485365703.265506) can0 0B0#00000000000A
(1485365703.265786) can0 223#0000007FE000008C
(1485365703.266060) can0 224#0000000000000000
(1485365703.267085) can0 3B0#0000003200
(1485365703.267634) can0 2C4#041100130000A298
(1485365703.267695) can0 3B3#041100
(1485365703.273563) can0 260#0800010000000073
(1485365703.275333) can0 0B2#00000000000B
(1485365703.275481) can0 0B0#00000000000B
(1485365703.275853) can0 0B4#00000000000000BC
(1485365703.285285) can0 0B2#00000000000C
(1485365703.285510) can0 0B0#00000000000C
(1485365703.286782) can0 2C1#08FFA0FFA0000011
(1485365703.287004) can0 2C4#041100130000A298
(1485365703.293890) can0 260#0800010000000073
(1485365703.295435) can0 0B2#00000000000D
(1485365703.295558) can0 0B0#00000000000D
(1485365703.295841) can0 223#0000007FE000008C
(1485365703.296115) can0 0B4#00000000000000BC
(1485365703.296365) can0 224#0000000000000000
(1485365703.297093) can0 3A0#0000000000000013
(1485365703.298959) can0 442#4002000003000000
(1485365703.305313) can0 0B2#00000000000E
(1485365703.305485) can0 0B0#00000000000E
(1485365703.306784) can0 2C4#041200130000A299
(1485365703.314089) can0 260#0800010000FFEE60
(1485365703.315302) can0 0B2#00000000000F
(1485365703.315515) can0 0B0#00000000000F
(1485365703.315781) can0 0B4#00000000000000BC
(1485365703.316684) can0 2C1#08FF9DFF9A000008
(1485365703.325414) can0 0B2#000000000000
(1485365703.325558) can0 0B0#000000000000
(1485365703.325846) can0 223#0000007FE000008C
(1485365703.326139) can0 224#0000000000000000
(1485365703.326786) can0 2C4#041100130000A298
(1485365703.327103) can0 380#00A0043000000300
(1485365703.334313) can0 260#0800010000000376
(1485365703.335408) can0 0B2#000000000001
(1485365703.335533) can0 0B0#000000000001
(1485365703.335906) can0 0B4#00000000000000BC
(1485365703.345313) can0 0B2#000000000002
(1485365703.345482) can0 0B0#000000000002
(1485365703.346784) can0 2C1#08FFA4FF9A00000F
(1485365703.346944) can0 2C4#041000130000A297
(1485365703.354339) can0 260#0800010000000174
(1485365703.355436) can0 0B2#000000000003
(1485365703.355584) can0 0B0#000000000003
(1485365703.355903) can0 223#0000007FE000008C
(1485365703.356073) can0 0B4#00000000000000BC
(1485365703.356376) can0 224#0000000000000000
(1485365703.356704) can0 3B7#0000000000000000
(1485365703.365314) can0 0B2#000000000004
(1485365703.365484) can0 0B0#000000000004
(1485365703.366783) can0 2C4#040F00130000A296
(1485365703.374665) can0 260#0800000000000577
(1485365703.375311) can0 0B2#000000000005
(1485365703.375536) can0 0B0#000000000005
(1485365703.375807) can0 0B4#00000000000000BC
(1485365703.377987) can0 2C1#08FFA7FFA400001C
(1485365703.385387) can0 0B2#000000000006
(1485365703.385532) can0 0B0#000000000006
(1485365703.385826) can0 223#0000007FE000008C
(1485365703.386126) can0 224#0000000000000000
(1485365703.386792) can0 2C4#040E00130000A295
(1485365703.394916) can0 260#0800000000FFF061
(1485365703.395347) can0 0B2#000000000007
(1485365703.395532) can0 0B0#000000000007
(1485365703.395877) can0 0B4#00000000000000BC
(1485365703.397088) can0 3A0#0000000000000013
(1485365703.397270) can0 440#4202000007000000
(1485365703.405291) can0 0B2#000000000008
(1485365703.405513) can0 0B0#000000000008
(1485365703.406761) can0 2C1#08FFADFFAA000028
(1485365703.406920) can0 2C4#040E00130000A295
(1485365703.415113) can0 260#0800000000000274
(1485365703.415426) can0 0B2#000000000009
(1485365703.415612) can0 0B0#000000000009
(1485365703.415903) can0 223#0000007FE000008C
(1485365703.416122) can0 0B4#00000000000000BC
(1485365703.416372) can0 224#0000000000000000
(1485365703.425311) can0 0B2#00000000000A
(1485365703.425483) can0 0B0#00000000000A
(1485365703.426762) can0 2C4#040F00130000A296
(1485365703.435312) can0 260#0800010000FFF365
(1485365703.435483) can0 0B2#00000000000B
(1485365703.435721) can0 0B0#00000000000B
(1485365703.436018) can0 0B4#00000000000000BC
(1485365703.436776) can0 2C1#08FFA4FFA4000019
(1485365703.445414) can0 0B2#00000000000C
(1485365703.445560) can0 0B0#00000000000C
(1485365703.445845) can0 223#0000007FE000008C
(1485365703.446140) can0 224#0000000000000000
(1485365703.447012) can0 2C4#041000130000A297
(1485365703.455391) can0 0B2#00000000000D
(1485365703.455532) can0 0B0#00000000000D
(1485365703.455853) can0 260#0800010000000A7D
(1485365703.456014) can0 0B4#00000000000000BC
(1485365703.465341) can0 0B2#00000000000E
(1485365703.465481) can0 0B0#00000000000E
(1485365703.466763) can0 2C1#08FFA4FFA0000015
(1485365703.466946) can0 2C4#041000130000A297
(1485365703.475463) can0 0B2#00000000000F
(1485365703.475610) can0 0B0#00000000000F
(1485365703.475881) can0 223#0000007FE000008C
(1485365703.476138) can0 0B4#00000000000000BC
(1485365703.476408) can0 224#0000000000000000
(1485365703.476623) can0 260#080001000000087B
(1485365703.485314) can0 0B2#000000000000
(1485365703.485484) can0 0B0#000000000000
(1485365703.486785) can0 2C4#041000130000A297
(1485365703.489690) can0 442#4002000003000000
(1485365703.495392) can0 0B2#000000000001
(1485365703.495536) can0 0B0#000000000001
(1485365703.495844) can0 0B4#00000000000000BC
(1485365703.496127) can0 260#0800010000FFF062
(1485365703.496778) can0 2C1#08FFA7FFA400001C
(1485365703.497057) can0 3A0#0000000000000014
(1485365703.505391) can0 0B2#000000000002
(1485365703.505503) can0 0B0#000000000002
(1485365703.505829) can0 223#0000007FE000008C
(1485365703.506107) can0 224#0000000000000000
(1485365703.507083) can0 2C4#040E00130000A295
(1485365703.512566) can0 620#1000000030600050
(1485365703.515410) can0 0B2#000000000003
(1485365703.515534) can0 0B0#000000000003
(1485365703.515894) can0 0B4#00000000000000BC
(1485365703.516113) can0 260#0800010000000477
(1485365703.520964) can0 610#200000E400000000
(1485365703.520997) can0 394#00
(1485365703.521326) can0 38A#0804000000
(1485365703.525291) can0 0B2#000000000004
(1485365703.525516) can0 0B0#000000000004
(1485365703.526762) can0 2C1#08FFAAFFA7000022
(1485365703.526920) can0 2C4#040E00130000A295
(1485365703.535441) can0 0B2#000000000005
(1485365703.535586) can0 0B0#000000000005
(1485365703.535876) can0 223#0000007FE000008C
(1485365703.536062) can0 0B4#00000000000000BC
(1485365703.536359) can0 224#0000000000000000
(1485365703.536607) can0 260#0800010000FFFA6C
(1485365703.545337) can0 0B2#000000000006
(1485365703.545484) can0 0B0#000000000006
(1485365703.546785) can0 2C4#040D00130000A294
(1485365703.555413) can0 0B2#000000000007
(1485365703.555535) can0 0B0#000000000007
(1485365703.555891) can0 0B4#00000000000000BC
(1485365703.556662) can0 260#0800010000FFFD6F
(1485365703.557103) can0 2C1#08FFADFFAA000028
(1485365703.565415) can0 0B2#000000000008
(1485365703.565560) can0 0B0#000000000008
(1485365703.565808) can0 223#0000007FE000008C
(1485365703.566139) can0 224#0000000000000000
(1485365703.566784) can0 2C4#040B00130000A292
(1485365703.575413) can0 0B2#000000000009
(1485365703.575531) can0 0B0#000000000009
(1485365703.575882) can0 0B4#00000000000000BC
(1485365703.576877) can0 260#0800010000000578
(1485365703.577048) can0 621#1100000000000000
(1485365703.585339) can0 0B2#00000000000A
(1485365703.585485) can0 0B0#00000000000A
(1485365703.586786) can0 2C1#08FFB7FFB400003C
(1485365703.586946) can0 2C4#040B00130000A292
(1485365703.587227) can0 440#4202000007000000
(1485365703.587542) can0 622#1200000000000000
(1485365703.595487) can0 0B2#00000000000B
(1485365703.595609) can0 0B0#00000000000B
(1485365703.595915) can0 223#0000007FE000008C
(1485365703.596174) can0 0B4#00000000000000BC
(1485365703.596431) can0 224#0000000000000000
(1485365703.596652) can0 624#1A0057FFFF400000
(1485365703.597059) can0 3A0#0000000000000014
(1485365703.597302) can0 260#0800010000000174
(1485365703.605212) can0 630#1700000000000000
(1485365703.605339) can0 0B2#00000000000C
(1485365703.605598) can0 0B0#00000000000C
(1485365703.606763) can0 2C4#040C00130000A293
(1485365703.614392) can0 638#1300110000000000
(1485365703.615360) can0 0B2#00000000000D
(1485365703.615509) can0 0B0#00000000000D
(1485365703.615879) can0 0B4#00000000000000BC
(1485365703.617316) can0 260#080001000000087B
(1485365703.617615) can0 2C1#08FFB4FFB0000035
(1485365703.625416) can0 0B2#00000000000E
(1485365703.625535) can0 0B0#00000000000E
(1485365703.625810) can0 223#0000007FE000008C
(1485365703.626141) can0 224#0000000000000000
(1485365703.626749) can0 2C4#040B00130000A292
(1485365703.635409) can0 0B2#00000000000F
(1485365703.635537) can0 0B0#00000000000F
(1485365703.635908) can0 0B4#00000000000000BC
(1485365703.637565) can0 260#0800010000FFF567
(1485365703.645338) can0 0B2#000000000000
(1485365703.645486) can0 0B0#000000000000
(1485365703.646763) can0 2C1#08FFBDFFB4000042
(1485365703.646925) can0 2C4#040A00130000A291
(1485365703.655460) can0 0B2#000000000001
(1485365703.655611) can0 0B0#000000000001
(1485365703.655909) can0 223#0000007FE000008C
(1485365703.656127) can0 0B4#00000000000000BC
(1485365703.656417) can0 224#0000000000000000
(1485365703.656671) can0 3B7#0000000000000000
(1485365703.657759) can0 260#0800010000FFF86A
(1485365703.665267) can0 0B2#000000000002
(1485365703.665399) can0 0B0#000000000002
(1485365703.666763) can0 2C4#040A00130000A291
(1485365703.675339) can0 0B2#000000000003
(1485365703.675486) can0 0B0#000000000003
(1485365703.675808) can0 0B4#00000000000000BC
(1485365703.676766) can0 2C1#08FFBDFFBA000048
(1485365703.677941) can0 260#0800010000FFFB6D
(1485365703.678992) can0 442#4002000003000000
(1485365703.685413) can0 0B2#000000000004
(1485365703.685562) can0 0B0#000000000004
(1485365703.685809) can0 223#0000007FE000008C
(1485365703.686142) can0 224#0000000000000000
(1485365703.686426) can0 4C3#0400300500000000
(1485365703.686759) can0 2C4#040A00130000A291
(1485365703.689563) can0 611#2100201200021DB5
(1485365703.695414) can0 0B2#000000000005
(1485365703.695535) can0 0B0#000000000005
(1485365703.695894) can0 0B4#00000000000000BC
(1485365703.697069) can0 3A0#0000000000000014
(1485365703.698114) can0 260#0800010000FFF86A
(1485365703.700267) can0 640#A8000032020E0000
(1485365703.705339) can0 0B2#000000000006
(1485365703.705488) can0 0B0#000000000006
(1485365703.706989) can0 2C1#08FFC4FFBA00004F
(1485365703.707149) can0 2C4#040900130000A290
(1485365703.715489) can0 0B2#000000000007
(1485365703.715610) can0 0B0#000000000007
(1485365703.715917) can0 223#0000007FE000008C
(1485365703.716176) can0 0B4#00000000000000BC
(1485365703.716384) can0 224#0000000000000000
(1485365703.718362) can0 260#0800010000FFFB6D
(1485365703.720667) can0 3B4#000037B800000000
(1485365703.725292) can0 0B2#000000000008
(1485365703.725517) can0 0B0#000000000008
(1485365703.726764) can0 2C4#040800130000A28F
(1485365703.735338) can0 0B2#000000000009
(1485365703.735488) can0 0B0#000000000009
(1485365703.735856) can0 0B4#00000000000000BC
(1485365703.736763) can0 2C1#08FFD0FFC7000068
(1485365703.738561) can0 260#0800010000FFF769
(1485365703.745361) can0 0B2#00000000000A
(1485365703.745488) can0 0B0#00000000000A
(1485365703.745792) can0 223#0000007FE000008C
(1485365703.746049) can0 224#0000000000000000
(1485365703.746775) can0 2C4#040700130000A28E
(1485365703.753493) can0 4C8#0900010700000000
(1485365703.755335) can0 0B2#00000000000B
(1485365703.755489) can0 0B0#00000000000B
(1485365703.755856) can0 0B4#00000000000000BC
(1485365703.758738) can0 260#0800010000000174
(1485365703.765263) can0 0B2#00000000000C
(1485365703.765398) can0 0B0#00000000000C
(1485365703.767114) can0 2C1#08FFDDFFD7000085
(1485365703.767267) can0 2C4#040400130000A28B
(1485365703.767541) can0 3B3#040400
(1485365703.775415) can0 0B2#00000000000D
(1485365703.775563) can0 0B0#00000000000D
(1485365703.775809) can0 223#0000007FE000008C
(1485365703.776103) can0 0B4#00000000000000BC
(1485365703.776345) can0 224#0000000000000000
(1485365703.776684) can0 440#4202000007000000
(1485365703.778989) can0 260#0800010000000A7D
(1485365703.785314) can0 0B2#00000000000E
(1485365703.785494) can0 0B0#00000000000E
(1485365703.786764) can0 2C4#040300130000A28A
(1485365703.795314) can0 0B2#00000000000F
(1485365703.795482) can0 0B0#00000000000F
(1485365703.795791) can0 0B4#00000000000000BC
(1485365703.796794) can0 2C1#08FFE4FFE0000095
(1485365703.797024) can0 3A0#0000000000000014
(1485365703.799163) can0 260#0800010000000B7E
(1485365703.805342) can0 0B2#000000000000
(1485365703.805486) can0 0B0#000000000000
(1485365703.805766) can0 223#0000007FE000008C
(1485365703.806062) can0 224#0000000000000000
(1485365703.806782) can0 2C4#040500130000A28C
(1485365703.812217) can0 620#1000000030600050
(1485365703.815389) can0 0B2#000000000001
(1485365703.815539) can0 0B0#000000000001
(1485365703.815845) can0 0B4#00000000000000BC
(1485365703.819342) can0 260#0800000000000375
(1485365703.824093) can0 394#00
(1485365703.825263) can0 0B2#000000000002
(1485365703.825398) can0 0B0#000000000002
(1485365703.826765) can0 2C1#08FFD0FFDD00007E
(1485365703.826927) can0 2C4#040800130000A28F
(1485365703.835446) can0 0B2#000000000003
(1485365703.835589) can0 0B0#000000000003
(1485365703.835881) can0 223#0000007FE000008C
(1485365703.836126) can0 0B4#00000000000000BC
(1485365703.836379) can0 224#0000000000000000
(1485365703.839612) can0 260#0800010000000477
(1485365703.845255) can0 0B2#000000000004
(1485365703.845550) can0 0B0#000000000004
(1485365703.846762) can0 2C4#040900130000A290
(1485365703.855364) can0 0B2#000000000005
(1485365703.855514) can0 0B0#000000000005
(1485365703.855847) can0 0B4#00000000000000BC
(1485365703.856794) can0 2C1#08FFCDFFCA000068
(1485365703.859788) can0 260#0800010000000B7E
(1485365703.865367) can0 0B2#000000000006
(1485365703.865484) can0 0B0#000000000006
(1485365703.865793) can0 223#0000007FE000008C
(1485365703.866116) can0 224#0000000000000000
(1485365703.866773) can0 2C4#040900130000A290
(1485365703.870468) can0 442#4002000003000000
(1485365703.875339) can0 0B2#000000000007
(1485365703.875490) can0 0B0#000000000007
(1485365703.875811) can0 0B4#00000000000000BC
(1485365703.879943) can0 260#0800010000FFF668
(1485365703.885293) can0 0B2#000000000008
(1485365703.885516) can0 0B0#000000000008
(1485365703.886726) can0 2C1#08FFCDFFCA000068
(1485365703.886944) can0 2C4#040A00130000A291
(1485365703.895434) can0 0B2#000000000009
(1485365703.895564) can0 0B0#000000000009
(1485365703.895880) can0 223#0000007FE000008C
(1485365703.896062) can0 0B4#00000000000000BC
(1485365703.896292) can0 224#0000000000000000
(1485365703.897064) can0 3A0#0000000000000014
(1485365703.900217) can0 260#080001000000077A
(1485365703.905290) can0 0B2#00000000000A
(1485365703.905512) can0 0B0#00000000000A
(1485365703.906738) can0 2C4#040A00130000A291
(1485365703.915341) can0 0B2#00000000000B
(1485365703.915496) can0 0B0#00000000000B
(1485365703.915783) can0 0B4#00000000000000BC
(1485365703.916687) can0 2C1#08FFD7FFCA000072
(1485365703.920330) can0 260#0800010000FFFC6E
(1485365703.925310) can0 0B2#00000000000C
(1485365703.925530) can0 0B0#00000000000C
(1485365703.925756) can0 223#0000007FE000008C
(1485365703.926055) can0 224#0000000000000000
(1485365703.926707) can0 2C4#040700130000A28E
(1485365703.935322) can0 0B2#00000000000D
(1485365703.935520) can0 0B0#00000000000D
(1485365703.935820) can0 0B4#00000000000000BC
(1485365703.940543) can0 260#080001000000087B
(1485365703.945231) can0 0B2#00000000000E
(1485365703.945520) can0 0B0#00000000000E
(1485365703.946720) can0 2C1#08FFF4FFD4000099
(1485365703.946946) can0 2C4#040200130000A289
(1485365703.955417) can0 0B2#00000000000F
(1485365703.955630) can0 0B0#00000000000F
(1485365703.955851) can0 223#0000007FE000008C
(1485365703.956100) can0 0B4#00000000000000BC
(1485365703.956350) can0 224#0000000000000000
(1485365703.956621) can0 3B7#0000000000000000
(1485365703.960772) can0 260#0800010000FFFE70
(1485365703.965246) can0 0B2#000000000000
(1485365703.965520) can0 0B0#000000000000
(1485365703.966370) can0 440#4202000007000000
(1485365703.966944) can0 2C4#03FF00130000A285
(1485365703.975322) can0 0B2#000000000001
(1485365703.975542) can0 0B0#000000000001
(1485365703.975818) can0 0B4#00000000000000BC
(1485365703.976747) can0 2C1#08001000030000E6
(1485365703.980972) can0 260#080001000000087B
(1485365703.985345) can0 0B2#000000000002
(1485365703.985570) can0 0B0#000000000002
(1485365703.985793) can0 223#0000007FE000008C
(1485365703.986094) can0 224#0000000000000000
(1485365703.986745) can0 2C4#03FD00130000A283
(1485365703.995323) can0 0B2#000000000003
(1485365703.995543) can0 0B0#000000000003
(1485365703.995823) can0 0B4#00000000000000BC
(1485365703.996995) can0 3A0#0000000000000014
(1485365704.001146) can0 260#080001000000087B
(1485365704.005247) can0 0B2#000000000004
(1485365704.005447) can0 0B0#000000000004
(1485365704.006696) can0 2C1#080016000C0000F5
(1485365704.006945) can0 2C4#03FC00130000A282
(1485365704.015395) can0 0B2#000000000005
(1485365704.015621) can0 0B0#000000000005
(1485365704.015847) can0 223#0000007FE000008C
(1485365704.016097) can0 0B4#00000000000000BC
(1485365704.016347) can0 224#0000000000000000
(1485365704.020596) can0 610#200000E400000000
(1485365704.021371) can0 260#0800010000000477
(1485365704.025222) can0 0B2#000000000006
(1485365704.025421) can0 0B0#000000000006
(1485365704.026696) can0 2C4#03FC00130000A282
(1485365704.035270) can0 0B2#000000000007
(1485365704.035521) can0 0B0#000000000007
(1485365704.035771) can0 0B4#00000000000000BC
(1485365704.036018) can0 3B1#0000022A00000000
(1485365704.036722) can0 2C1#0800190016000002
(1485365704.041523) can0 260#0800000000000577
(1485365704.045323) can0 0B2#000000000008
(1485365704.045521) can0 0B0#000000000008
(1485365704.045729) can0 223#0000007FE000008C
(1485365704.046071) can0 224#0000000000000000
(1485365704.047771) can0 2C4#040000130000A287
(1485365704.048022) can0 4C1#0100500500000000
(1485365704.055296) can0 0B2#000000000009
(1485365704.055522) can0 0B0#000000000009
(1485365704.055795) can0 0B4#00000000000000BC
(1485365704.059273) can0 442#4002000003000000
(1485365704.061624) can0 260#0800000000FFFA6B
(1485365704.065274) can0 0B2#00000000000A
(1485365704.065521) can0 0B0#00000000000A
(1485365704.066697) can0 2C1#080010000C0000EF
(1485365704.066947) can0 2C4#040000130000A287
(1485365704.075421) can0 0B2#00000000000B
(1485365704.075647) can0 0B0#00000000000B
(1485365704.075872) can0 223#0000007FE000008C
(1485365704.076122) can0 0B4#00000000000000BC
(1485365704.076372) can0 224#0000000000000000
(1485365704.081801) can0 260#0800000000000274
(1485365704.085274) can0 0B2#00000000000C
(1485365704.085522) can0 0B0#00000000000C
(1485365704.086722) can0 2C4#040100130000A288
(1485365704.095347) can0 0B2#00000000000D
(1485365704.095548) can0 0B0#00000000000D
(1485365704.095844) can0 0B4#00000000000000BC
(1485365704.096699) can0 2C1#080010000C0000EF
(1485365704.097022) can0 3A0#0000000000000014
(1485365704.102044) can0 260#0800000000FFF465
(1485365704.105349) can0 0B2#00000000000E
(1485365704.105572) can0 0B0#00000000000E
(1485365704.105822) can0 223#0000007FE000008C
(1485365704.106122) can0 224#0000000000000000
(1485365704.106721) can0 2C4#040500130000A28C
(1485365704.111749) can0 620#1000000030600050
(1485365704.115399) can0 0B2#00000000000F
(1485365704.115622) can0 0B0#00000000000F
(1485365704.115919) can0 0B4#00000000000000BC
(1485365704.122047) can0 260#08FFFF0000000777
(1485365704.125224) can0 0B2#000000000000
(1485365704.125446) can0 0B0#000000000000
(1485365704.126697) can0 2C1#08FFEA00000000BC
(1485365704.126948) can0 2C4#040B00130000A292
(1485365704.127198) can0 380#00A0040000000300
(1485365704.127271) can0 394#00
(1485365704.135359) can0 0B2#000000000001
(1485365704.135584) can0 0B0#000000000001
(1485365704.135814) can0 223#0000007FE000008C
(1485365704.136051) can0 0B4#00000000000000BC
(1485365704.136333) can0 224#0000000000000000
(1485365704.142433) can0 260#0800000000000A7C
(1485365704.145261) can0 0B2#000000000002
(1485365704.145509) can0 0B0#000000000002
(1485365704.146683) can0 2C4#040C00130000A293
(1485365704.155323) can0 0B2#000000000003
(1485365704.155545) can0 0B0#000000000003
(1485365704.155846) can0 0B4#00000000000000BC
(1485365704.156146) can0 440#4202000007000000
(1485365704.156697) can0 2C1#08FFE4FFE0000095
(1485365704.162524) can0 260#0800010000FFF96B
(1485365704.165350) can0 0B2#000000000004
(1485365704.165549) can0 0B0#000000000004
(1485365704.165793) can0 223#0000007FE000008C
(1485365704.166094) can0 224#0000000000000000
(1485365704.166722) can0 2C4#040B00130000A292
(1485365704.175347) can0 0B2#000000000005
(1485365704.175547) can0 0B0#000000000005
(1485365704.175846) can0 0B4#00000000000000BC
(1485365704.182850) can0 260#0800030000FFF86C
(1485365704.185199) can0 0B2#000000000006
(1485365704.185401) can0 0B0#000000000006
(1485365704.186698) can0 2C1#08FFEAFFE70000A2
(1485365704.186947) can0 2C4#040B00130000A292
(1485365704.195347) can0 0B2#000000000007
(1485365704.195572) can0 0B0#000000000007
(1485365704.195795) can0 223#0000007FE000008C
(1485365704.196043) can0 0B4#00000000000000BC
(1485365704.196291) can0 224#0000000000000000
(1485365704.197023) can0 3A0#0000000000000014
(1485365704.197523) can0 4ED#5C00000000000000
(1485365704.202898) can0 260#0800020000FFFB6E
(1485365704.205272) can0 0B2#000000000008
(1485365704.205522) can0 0B0#000000000008
(1485365704.206697) can0 2C4#040A00130000A291
(1485365704.215350) can0 0B2#000000000009
(1485365704.215552) can0 0B0#000000000009
(1485365704.215845) can0 0B4#00000000000000BC
(1485365704.216750) can0 2C1#08FFF4FFEA0000AF
(1485365704.223275) can0 260#0800010000000174
(1485365704.225350) can0 0B2#00000000000A
(1485365704.225572) can0 0B0#00000000000A
(1485365704.225795) can0 223#0000007FE000008C
(1485365704.226096) can0 224#0000000000000000
(1485365704.226920) can0 2C4#040900130000A290
(1485365704.227168) can0 4DC#1D00010900000000
(1485365704.235350) can0 0B2#00000000000B
(1485365704.235552) can0 0B0#00000000000B
(1485365704.235846) can0 0B4#00000000000000BC
(1485365704.243297) can0 260#0800020000FFFA6D
(1485365704.245244) can0 0B2#00000000000C
(1485365704.245551) can0 0B0#00000000000C
(1485365704.246701) can0 2C1#08FFFAFFF00000BB
(1485365704.246959) can0 2C4#040700130000A28E
(1485365704.249056) can0 442#4002000003000000
(1485365704.255430) can0 0B2#00000000000D
(1485365704.255544) can0 0B0#00000000000D
(1485365704.255869) can0 223#0000007FE000008C
(1485365704.256050) can0 0B4#00000000000000BC
(1485365704.256333) can0 224#0000000000000000
(1485365704.256656) can0 3B7#0000000000000000
(1485365704.263728) can0 260#0800050000FFFA70
(1485365704.265275) can0 0B2#00000000000E
(1485365704.265384) can0 0B0#00000000000E
(1485365704.266777) can0 2C4#040800130000A28F
(1485365704.266961) can0 4DD#1E00000500000000
(1485365704.267168) can0 3B0#0000003200
(1485365704.267285) can0 3B3#040800
(1485365704.275331) can0 0B2#00000000000F
(1485365704.275497) can0 0B0#00000000000F
(1485365704.275822) can0 0B4#00000000000000BC
(1485365704.276753) can0 2C1#08FFF4FFFA0000BF
(1485365704.283749) can0 260#080005000000037A
(1485365704.285330) can0 0B2#000000000000
(1485365704.285498) can0 0B0#000000000000
(1485365704.285746) can0 223#0000007FE000008C
(1485365704.286060) can0 224#0000000000000000
(1485365704.286744) can0 2C4#040A00130000A291
(1485365704.295331) can0 0B2#000000000001
(1485365704.295498) can0 0B0#000000000001
(1485365704.295806) can0 0B4#00000000000000BC
(1485365704.297027) can0 3A0#0000000000000014
(1485365704.304127) can0 260#0800020000FFFE71
(1485365704.305156) can0 0B2#000000000002
(1485365704.305397) can0 0B0#000000000002
(1485365704.307903) can0 2C1#08FFF7FFF40000BC
(1485365704.308061) can0 2C4#040A00130000A291
(1485365704.315406) can0 0B2#000000000003
(1485365704.315517) can0 0B0#000000000003
(1485365704.315823) can0 223#0000007FE000008C
(1485365704.316049) can0 0B4#00000000000000BC
(1485365704.316297) can0 224#0000000000000000
(1485365704.324331) can0 260#0800000000000476
(1485365704.325047) can0 398#07D6
(1485365704.325181) can0 0B2#000000000004
(1485365704.325449) can0 0B0#000000000004
(1485365704.326750) can0 2C4#040800130000A28F
(1485365704.327009) can0 380#00A0040000000300
(1485365704.335303) can0 0B2#000000000005
(1485365704.335497) can0 0B0#000000000005
(1485365704.335805) can0 0B4#00000000000000BC
(1485365704.336753) can0 2C1#08FFFDFFFA0000C8
(1485365704.344581) can0 260#0800020000000579
(1485365704.345340) can0 0B2#000000000006
(1485365704.345499) can0 0B0#000000000006
(1485365704.345763) can0 223#0000007FE000008C
(1485365704.345950) can0 440#4202000007000000
(1485365704.346264) can0 224#0000000000000000
(1485365704.346703) can0 2C4#040900130000A290
(1485365704.355354) can0 0B2#000000000007
(1485365704.355498) can0 0B0#000000000007
(1485365704.355826) can0 0B4#00000000000000BC
(1485365704.364580) can0 260#0800040000000177
(1485365704.365281) can0 0B2#000000000008
(1485365704.365420) can0 0B0#000000000008
(1485365704.366751) can0 2C1#08FFFAFFF70000C2
(1485365704.366895) can0 2C4#040900130000A290
(1485365704.375456) can0 0B2#000000000009
(1485365704.375569) can0 0B0#000000000009
(1485365704.375856) can0 223#0000007FE000008C
(1485365704.376115) can0 0B4#00000000000000BC
(1485365704.376360) can0 224#0000000000000000
(1485365704.384957) can0 260#0800030000000479
(1485365704.385207) can0 0B2#00000000000A
(1485365704.385456) can0 0B0#00000000000A
(1485365704.386751) can0 2C4#040800130000A28F
(1485365704.395330) can0 0B2#00000000000B
(1485365704.395501) can0 0B0#00000000000B
(1485365704.395807) can0 0B4#00000000000000BC
(1485365704.396731) can0 2C1#08FFFDFFFA0000C8
(1485365704.396993) can0 3A0#0000000000000014
(1485365704.405157) can0 260#0800000000000173
(1485365704.405283) can0 0B2#00000000000C
(1485365704.405548) can0 0B0#00000000000C
(1485365704.405773) can0 223#0000007FE000008C
(1485365704.406072) can0 224#0000000000000000
(1485365704.406736) can0 2C4#040900130000A290
(1485365704.411454) can0 620#1000000030600050
(1485365704.415349) can0 0B2#00000000000D
(1485365704.415497) can0 0B0#00000000000D
(1485365704.415825) can0 0B4#00000000000000BC
(1485365704.425282) can0 0B2#00000000000E
(1485365704.425410) can0 0B0#00000000000E
(1485365704.425703) can0 260#0800010000FFFF71
(1485365704.426726) can0 2C1#08FFF0FFFA0000BB
(1485365704.426905) can0 2C4#040C00130000A293
(1485365704.430476) can0 394#00
(1485365704.435404) can0 0B2#00000000000F
(1485365704.435548) can0 0B0#00000000000F
(1485365704.435825) can0 223#0000007FE000008C
(1485365704.436081) can0 0B4#00000000000000BC
(1485365704.436331) can0 224#0000000000000000
(1485365704.439228) can0 442#4002000003000000
(1485365704.445282) can0 0B2#000000000000
(1485365704.445408) can0 0B0#000000000000
(1485365704.445700) can0 260#0800020000000579
(1485365704.446725) can0 2C4#040B00130000A292
(1485365704.455331) can0 0B2#000000000001
(1485365704.455499) can0 0B0#000000000001
(1485365704.455818) can0 0B4#00000000000000BC
(1485365704.456754) can0 2C1#08FFFAFFF00000BB
(1485365704.465379) can0 0B2#000000000002
(1485365704.465495) can0 0B0#000000000002
(1485365704.465809) can0 223#0000007FE000008C
(1485365704.465977) can0 260#0800020000FFF164
(1485365704.466304) can0 224#0000000000000000
(1485365704.466702) can0 2C4#040A00130000A291
(1485365704.475354) can0 0B2#000000000003
(1485365704.475499) can0 0B0#000000000003
(1485365704.475825) can0 0B4#00000000000000BC
(1485365704.485282) can0 0B2#000000000004
(1485365704.485410) can0 0B0#000000000004
(1485365704.485800) can0 260#0800010000000A7D
(1485365704.486954) can0 2C1#08FFF7FFF70000BF
(1485365704.487111) can0 2C4#040B00130000A292
(1485365704.495458) can0 0B2#000000000005
(1485365704.495581) can0 0B0#000000000005
(1485365704.495829) can0 223#0000007FE000008C
(1485365704.496071) can0 0B4#00000000000000BC
(1485365704.496381) can0 224#0000000000000000
(1485365704.496991) can0 3A0#0000000000000013
(1485365704.505307) can0 0B2#000000000006
(1485365704.505415) can0 0B0#000000000006
(1485365704.506202) can0 260#0800000000FFFB6C
(1485365704.506704) can0 2C4#040D00130000A294
(1485365704.515355) can0 0B2#000000000007
(1485365704.515499) can0 0B0#000000000007
(1485365704.515826) can0 0B4#00000000000000BC
(1485365704.516654) can0 2C1#08FFF0FFEA0000AB
(1485365704.520374) can0 610#200000E400000000
(1485365704.525354) can0 0B2#000000000008
(1485365704.525490) can0 0B0#000000000008
(1485365704.525821) can0 223#0000007FE000008C
(1485365704.526065) can0 224#0000000000000000
(1485365704.526375) can0 260#0800000000FFF566
(1485365704.526740) can0 2C4#040C00130000A293
(1485365704.535353) can0 0B2#000000000009
(1485365704.535493) can0 0B0#000000000009
(1485365704.535784) can0 440#4202000007000000
(1485365704.536032) can0 0B4#00000000000000BC
(1485365704.545255) can0 0B2#00000000000A
(1485365704.545364) can0 0B0#00000000000A
(1485365704.546703) can0 260#0800010000000275
(1485365704.546870) can0 2C1#08FFFAFFED0000B8
(1485365704.547170) can0 2C4#040A00130000A291
(1485365704.555408) can0 0B2#00000000000B
(1485365704.555512) can0 0B0#00000000000B
(1485365704.555845) can0 223#0000007FE000008C
(1485365704.556031) can0 0B4#00000000000000BC
(1485365704.556339) can0 224#0000000000000000
(1485365704.556628) can0 3B7#0000000000000000
(1485365704.565283) can0 0B2#00000000000C
(1485365704.565389) can0 0B0#00000000000C
(1485365704.566904) can0 260#0800020000000579
(1485365704.567801) can0 2C4#040E00130000A295
(1485365704.575335) can0 0B2#00000000000D
(1485365704.575494) can0 0B0#00000000000D
(1485365704.575796) can0 621#1100000000000000
(1485365704.576001) can0 0B4#00000000000000BC
(1485365704.576733) can0 2C1#08FFEDFFEA0000A8
(1485365704.585408) can0 0B2#00000000000E
(1485365704.585512) can0 0B0#00000000000E
(1485365704.585845) can0 223#0000007FE000008C
(1485365704.586031) can0 622#1200000000000000
(1485365704.586325) can0 224#0000000000000000
(1485365704.586776) can0 2C4#040F00130000A296
(1485365704.587116) can0 260#0800010000000174
(1485365704.594955) can0 624#1A0057FFFF400000
(1485365704.595359) can0 0B2#00000000000F
(1485365704.595490) can0 0B0#00000000000F
(1485365704.595874) can0 0B4#00000000000000BC
(1485365704.597034) can0 3A0#0000000000000013
(1485365704.604155) can0 630#1700000000000000
(1485365704.605305) can0 0B2#000000000000
(1485365704.605516) can0 0B0#000000000000
(1485365704.606752) can0 2C1#08FFE0FFE4000095
(1485365704.606887) can0 2C4#041000130000A297
(1485365704.607279) can0 260#0800000000FFF768
(1485365704.613355) can0 638#1300110000000000
(1485365704.615455) can0 0B2#000000000001
(1485365704.615564) can0 0B0#000000000001
(1485365704.615897) can0 223#0000007FE000008C
(1485365704.616109) can0 0B4#00000000000000BC
(1485365704.616360) can0 224#0000000000000000
(1485365704.616683) can0 4C3#0400300500000000
(1485365704.620567) can0 38A#0804000000
(1485365704.625309) can0 0B2#000000000002
(1485365704.625520) can0 0B0#000000000002
(1485365704.626726) can0 2C4#041100130000A298
(1485365704.627578) can0 260#0800000000000678
(1485365704.628989) can0 442#4002000003000000
(1485365704.635354) can0 0B2#000000000003
(1485365704.635492) can0 0B0#000000000003
(1485365704.635827) can0 0B4#00000000000000BC
(1485365704.636933) can0 2C1#08FFDAFFD7000082
(1485365704.645360) can0 0B2#000000000004
(1485365704.645491) can0 0B0#000000000004
(1485365704.645801) can0 223#0000007FE000008C
(1485365704.646047) can0 224#0000000000000000
(1485365704.646752) can0 2C4#041300130000A29A
(1485365704.647802) can0 260#080001000000097C
(1485365704.655352) can0 0B2#000000000005
(1485365704.655493) can0 0B0#000000000005
(1485365704.655848) can0 0B4#00000000000000BC
(1485365704.665284) can0 0B2#000000000006
(1485365704.665534) can0 0B0#000000000006
(1485365704.666728) can0 2C1#08FFD7FFD0000078
(1485365704.666894) can0 2C4#041100130000A298
(1485365704.667980) can0 260#0800010000FFF86A
(1485365704.675456) can0 0B2#000000000007
(1485365704.675565) can0 0B0#000000000007
(1485365704.675865) can0 223#0000007FE000008C
(1485365704.676110) can0 0B4#00000000000000BC
(1485365704.676362) can0 224#0000000000000000
(1485365704.685285) can0 0B2#000000000008
(1485365704.685404) can0 0B0#000000000008
(1485365704.686726) can0 2C4#040F00130000A296
(1485365704.688155) can0 260#0800010000000477
(1485365704.690129) can0 611#2100201200021DB5
(1485365704.695360) can0 0B2#000000000009
(1485365704.695491) can0 0B0#000000000009
(1485365704.695849) can0 0B4#00000000000000BC
(1485365704.696733) can0 2C1#08FFE4FFE0000095
(1485365704.696976) can0 3A0#0000000000000014
(1485365704.702356) can0 640#A8000032020E0000
(1485365704.705306) can0 0B2#00000000000A
(1485365704.705516) can0 0B0#00000000000A
(1485365704.705676) can0 223#0000007FE000008C
(1485365704.706023) can0 224#0000000000000000
(1485365704.706738) can0 2C4#040E00130000A295
(1485365704.708434) can0 260#0800000000FFF667
(1485365704.711031) can0 620#1000000030600050
(1485365704.715263) can0 0B2#00000000000B
(1485365704.715567) can0 0B0#00000000000B
(1485365704.715760) can0 0B4#00000000000000BC
(1485365704.720705) can0 3B4#000037B800000000
(1485365704.725305) can0 0B2#00000000000C
(1485365704.725519) can0 0B0#00000000000C
(1485365704.725696) can0 440#4202000007000000
(1485365704.726728) can0 2C1#08FFE0FFE0000091
(1485365704.726874) can0 2C4#040F00130000A296
(1485365704.728608) can0 260#0800010000000174
(1485365704.733309) can0 394#00
(1485365704.735453) can0 0B2#00000000000D
(1485365704.735567) can0 0B0#00000000000D
(1485365704.735862) can0 223#0000007FE000008C
(1485365704.736111) can0 0B4#00000000000000BC
(1485365704.736387) can0 224#0000000000000000
(1485365704.743584) can0 4C8#0900010700000000
(1485365704.745310) can0 0B2#00000000000E
(1485365704.745522) can0 0B0#00000000000E
(1485365704.747081) can0 2C4#040F00130000A296
(1485365704.748690) can0 260#0800010000FFF567
(1485365704.755343) can0 0B2#00000000000F
(1485365704.755495) can0 0B0#00000000000F
(1485365704.755865) can0 0B4#00000000000000BC
(1485365704.756723) can0 2C1#08FFDAFFDD000088
(1485365704.765325) can0 0B2#000000000000
(1485365704.765495) can0 0B0#000000000000
(1485365704.765735) can0 223#0000007FE000008C
(1485365704.766034) can0 224#0000000000000000
(1485365704.766744) can0 2C4#041000130000A297
(1485365704.766833) can0 3B3#041000
(1485365704.769025) can0 260#0800010000000679
(1485365704.775324) can0 0B2#000000000001
(1485365704.775496) can0 0B0#000000000001
(1485365704.775791) can0 0B4#00000000000000BC
(1485365704.785232) can0 0B2#000000000002
(1485365704.785356) can0 0B0#000000000002
(1485365704.786728) can0 2C1#08FFD7FFD700007F
(1485365704.786910) can0 2C4#041100130000A298
(1485365704.789235) can0 260#0800010000000679
(1485365704.795379) can0 0B2#000000000003
(1485365704.795517) can0 0B0#000000000003
(1485365704.795828) can0 223#0000007FE000008C
(1485365704.796032) can0 0B4#00000000000000BC
(1485365704.796297) can0 224#0000000000000000
(1485365704.796954) can0 3A0#0000000000000014
(1485365704.805234) can0 0B2#000000000004
(1485365704.805361) can0 0B0#000000000004
(1485365704.806932) can0 2C4#041300130000A29A
(1485365704.809407) can0 260#0800010000000174
(1485365704.815334) can0 0B2#000000000005
(1485365704.815502) can0 0B0#000000000005
(1485365704.815787) can0 0B4#00000000000000BC
(1485365704.816708) can0 2C1#08FFCAFFC7000062
(1485365704.820409) can0 442#4002000003000000
(1485365704.825308) can0 0B2#000000000006
(1485365704.825504) can0 0B0#000000000006
(1485365704.825712) can0 223#0000007FE000008C
(1485365704.826036) can0 224#0000000000000000
(1485365704.826705) can0 2C4#041200130000A299
(1485365704.829658) can0 260#0800010000000174
(1485365704.835307) can0 0B2#000000000007
(1485365704.835504) can0 0B0#000000000007
(1485365704.835801) can0 0B4#00000000000000BC
(1485365704.845234) can0 0B2#000000000008
(1485365704.845356) can0 0B0#000000000008
(1485365704.846732) can0 2C1#08FFD7FFCA000072
(1485365704.846875) can0 2C4#041000130000A297
(1485365704.849824) can0 260#0800010000FFF062
(1485365704.855381) can0 0B2#000000000009
(1485365704.855497) can0 0B0#000000000009
(1485365704.855812) can0 223#0000007FE000008C
(1485365704.856039) can0 0B4#00000000000000BC
(1485365704.856289) can0 224#0000000000000000
(1485365704.856627) can0 3B7#0000000000000000
(1485365704.865260) can0 0B2#00000000000A
(1485365704.865387) can0 0B0#00000000000A
(1485365704.866708) can0 2C4#040C00130000A293
(1485365704.870008) can0 260#0800010000FFFC6E
(1485365704.875306) can0 0B2#00000000000B
(1485365704.875506) can0 0B0#00000000000B
(1485365704.875787) can0 0B4#00000000000000BC
(1485365704.876709) can0 2C1#08FFE7FFE400009C
(1485365704.885360) can0 0B2#00000000000C
(1485365704.885501) can0 0B0#00000000000C
(1485365704.885787) can0 223#0000007FE000008C
(1485365704.886076) can0 224#0000000000000000
(1485365704.886706) can0 2C4#040A00130000A291
(1485365704.890257) can0 260#080001000000077A
(1485365704.895357) can0 0B2#00000000000D
(1485365704.895502) can0 0B0#00000000000D
(1485365704.895834) can0 0B4#00000000000000BC
(1485365704.897909) can0 3A0#0000000000000014
(1485365704.905228) can0 0B2#00000000000E
(1485365704.905381) can0 0B0#00000000000E
(1485365704.906728) can0 2C1#08FFF0FFEA0000AB
(1485365704.906880) can0 2C4#040A00130000A291
(1485365704.910430) can0 260#0800010000000477
(1485365704.915407) can0 0B2#00000000000F
(1485365704.915522) can0 0B0#00000000000F
(1485365704.915827) can0 223#0000007FE000008C
(1485365704.916027) can0 0B4#00000000000000BC
(1485365704.916292) can0 224#0000000000000000
(1485365704.920197) can0 440#4202000007000000
(1485365704.925252) can0 0B2#000000000000
(1485365704.925385) can0 0B0#000000000000
(1485365704.926698) can0 2C4#040A00130000A291
(1485365704.930604) can0 260#080001000000087B
(1485365704.935333) can0 0B2#000000000001
(1485365704.935504) can0 0B0#000000000001
(1485365704.935813) can0 0B4#00000000000000BC
(1485365704.937235) can0 2C1#08FFF0FFF00000B1
(1485365704.945332) can0 0B2#000000000002
(1485365704.945503) can0 0B0#000000000002
(1485365704.945752) can0 223#0000007FE000008C
(1485365704.946054) can0 224#0000000000000000
(1485365704.946707) can0 2C4#040A00130000A291
(1485365704.950880) can0 260#0800010000FFFD6F
(1485365704.955308) can0 0B2#000000000003
(1485365704.955539) can0 0B0#000000000003
(1485365704.955786) can0 0B4#00000000000000BC
(1485365704.956757) can0 4C1#0100500500000000
(1485365704.965258) can0 0B2#000000000004
(1485365704.965379) can0 0B0#000000000004
(1485365704.966708) can0 2C1#08FFFAFFED0000B8
(1485365704.966882) can0 2C4#040800130000A28F
(1485365704.971058) can0 260#0800010000FFFF71
(1485365704.975407) can0 0B2#000000000005
(1485365704.975523) can0 0B0#000000000005
(1485365704.975827) can0 223#0000007FE000008C
(1485365704.976074) can0 0B4#00000000000000BC
(1485365704.976302) can0 224#0000000000000000
(1485365704.985284) can0 0B2#000000000006
(1485365704.985408) can0 0B0#000000000006
(1485365704.986730) can0 2C4#040600130000A28D
(1485365704.991209) can0 260#0800010000FFFC6E
(1485365704.995336) can0 0B2#000000000007
(1485365704.995499) can0 0B0#000000000007
(1485365704.995810) can0 0B4#00000000000000BC
(1485365704.996664) can0 2C1#08000300000000D6
(1485365704.996934) can0 3A0#0000000000000014
(1485365705.005347) can0 0B2#000000000008
(1485365705.005503) can0 0B0#000000000008
(1485365705.005776) can0 223#0000007FE000008C
(1485365705.006071) can0 224#0000000000000000
(1485365705.006880) can0 2C4#040700130000A28E
(1485365705.010672) can0 620#1000000030600050
(1485365705.011444) can0 260#0800010000FFFC6E
(1485365705.015343) can0 0B2#000000000009
(1485365705.015504) can0 0B0#000000000009
(1485365705.015820) can0 0B4#00000000000000BC
(1485365705.020726) can0 442#4002000003000000
(1485365705.021448) can0 610#200000E400000000
(1485365705.025248) can0 0B2#00000000000A
(1485365705.025399) can0 0B0#00000000000A
(1485365705.026696) can0 2C1#08FFFD00000000CF
(1485365705.026872) can0 2C4#040800130000A28F
(1485365705.031622) can0 260#0800010000FFF96B
(1485365705.035402) can0 0B2#00000000000B
(1485365705.035559) can0 0B0#00000000000B
(1485365705.035819) can0 223#0000007FE000008C
(1485365705.036087) can0 0B4#00000000000000BC
(1485365705.036268) can0 224#0000000000000000
(1485365705.036399) can0 394#00
(1485365705.038952) can0 3B1#0000022A00000000
(1485365705.045251) can0 0B2#00000000000C
(1485365705.045399) can0 0B0#00000000000C
(1485365705.047843) can0 2C4#040A00130000A291
(1485365705.051720) can0 260#0800010000FFF264
(1485365705.055326) can0 0B2#00000000000D
(1485365705.055514) can0 0B0#00000000000D
(1485365705.055802) can0 0B4#00000000000000BC
(1485365705.056699) can0 2C1#08FFF0FFED0000AE
(1485365705.065302) can0 0B2#00000000000E
(1485365705.065508) can0 0B0#00000000000E
(1485365705.065709) can0 223#0000007FE000008C
(1485365705.066028) can0 224#0000000000000000
(1485365705.066720) can0 2C4#040E00130000A295
(1485365705.071928) can0 260#0800010000FFEF61
(1485365705.075301) can0 0B2#00000000000F
(1485365705.075520) can0 0B0#00000000000F
(1485365705.075756) can0 0B4#00000000000000BC
(1485365705.085251) can0 0B2#000000000000
(1485365705.085373) can0 0B0#000000000000
(1485365705.086721) can0 2C1#08FFE4FFE700009C
(1485365705.086893) can0 2C4#040F00130000A296
(1485365705.092227) can0 260#0800010000FFF769
(1485365705.095372) can0 0B2#000000000001
(1485365705.095536) can0 0B0#000000000001
(1485365705.095834) can0 223#0000007FE000008C
(1485365705.096017) can0 0B4#00000000000000BC
(1485365705.096351) can0 224#0000000000000000
(1485365705.096948) can0 3A0#0000000000000014
(1485365705.105305) can0 0B2#000000000002
(1485365705.105513) can0 0B0#000000000002
(1485365705.106698) can0 2C4#040F00130000A296
(1485365705.112326) can0 260#0800010000FFFF71
(1485365705.115282) can0 0B2#000000000003
(1485365705.115498) can0 0B0#000000000003
(1485365705.115818) can0 0B4#00000000000000BC
(1485365705.117102) can0 2C1#08FFE4FFE0000095
(1485365705.119956) can0 440#4202000007000000
(1485365705.125282) can0 0B2#000000000004
(1485365705.125505) can0 0B0#000000000004
(1485365705.125731) can0 223#0000007FE000008C
(1485365705.126029) can0 224#0000000000000000
(1485365705.126654) can0 2C4#040D00130000A294
(1485365705.132281) can0 260#0800010000000073
(1485365705.135279) can0 0B2#000000000005
(1485365705.135505) can0 0B0#000000000005
(1485365705.135778) can0 0B4#00000000000000BC
(1485365705.145206) can0 0B2#000000000006
(1485365705.145431) can0 0B0#000000000006
(1485365705.146631) can0 2C1#08FFE0FFE7000098
(1485365705.146878) can0 2C4#041000130000A297
(1485365705.152653) can0 260#0800010000000477
(1485365705.155356) can0 0B2#000000000007
(1485365705.155581) can0 0B0#000000000007
(1485365705.155806) can0 223#0000007FE000008C
(1485365705.156056) can0 0B4#00000000000000BC
(1485365705.156307) can0 224#0000000000000000
(1485365705.156606) can0 3B7#0000000000000000
(1485365705.165154) can0 0B2#000000000008
(1485365705.165376) can0 0B0#000000000008
(1485365705.166628) can0 2C4#041500130000A29C
(1485365705.172681) can0 260#0800010000000679
(1485365705.175231) can0 0B2#000000000009
(1485365705.175504) can0 0B0#000000000009
(1485365705.175731) can0 0B4#00000000000000BC
(1485365705.177155) can0 2C1#08FFCAFFC7000062
(1485365705.185307) can0 0B2#00000000000A
(1485365705.185530) can0 0B0#00000000000A
(1485365705.185751) can0 223#0000007FE000008C
(1485365705.186054) can0 224#0000000000000000
(1485365705.186654) can0 2C4#041400130000A29B
(1485365705.193057) can0 260#0800010000FFFF71
(1485365705.195279) can0 0B2#00000000000B
(1485365705.195505) can0 0B0#00000000000B
(1485365705.195779) can0 0B4#00000000000000BC
(1485365705.196882) can0 3A0#0000000000000014
(1485365705.197256) can0 4ED#5C00000000000000
(1485365705.205180) can0 0B2#00000000000C
(1485365705.205378) can0 0B0#00000000000C
(1485365705.206628) can0 2C1#08FFD7FFC700006F
(1485365705.206878) can0 2C4#041100130000A298
(1485365705.213082) can0 260#0800010000000578
(1485365705.215356) can0 0B2#00000000000D
(1485365705.215556) can0 0B0#00000000000D
(1485365705.215806) can0 223#0000007FE000008C
(1485365705.216055) can0 0B4#00000000000000BC
(1485365705.216307) can0 224#0000000000000000
(1485365705.220253) can0 442#4002000003000000
(1485365705.225131) can0 0B2#00000000000E
(1485365705.225356) can0 0B0#00000000000E
(1485365705.226855) can0 4DC#1D00010900000000
(1485365705.227106) can0 2C4#040E00130000A295
(1485365705.233508) can0 260#0800010000000578
(1485365705.235208) can0 0B2#00000000000F
(1485365705.235406) can0 0B0#00000000000F
(1485365705.235708) can0 0B4#00000000000000BC
(1485365705.236633) can0 2C1#08FFF7FFE00000A8
(1485365705.245281) can0 0B2#000000000000
(1485365705.245505) can0 0B0#000000000000
(1485365705.245733) can0 223#0000007FE000008C
(1485365705.246058) can0 224#0000000000000000
(1485365705.246656) can0 2C4#040900130000A290
(1485365705.253684) can0 260#0800010000000679
(1485365705.255281) can0 0B2#000000000001
(1485365705.255508) can0 0B0#000000000001
(1485365705.255779) can0 0B4#00000000000000BC
(1485365705.265217) can0 0B2#000000000002
(1485365705.265414) can0 0B0#000000000002
(1485365705.266665) can0 2C1#080013FFF40000D9
(1485365705.266890) can0 2C4#040300130000A28A
(1485365705.267090) can0 3B0#0000003200
(1485365705.267215) can0 3B3#040300
(1485365705.273894) can0 260#0800010000FFF466
(1485365705.275365) can0 0B2#000000000003
(1485365705.275567) can0 0B0#000000000003
(1485365705.275818) can0 223#0000007FE000008C
(1485365705.276068) can0 0B4#00000000000000BC
(1485365705.276318) can0 224#0000000000000000
(1485365705.278958) can0 4DD#1E00000500000000
(1485365705.285167) can0 0B2#000000000004
(1485365705.285367) can0 0B0#000000000004
(1485365705.286642) can0 2C4#03FB00130000A281
(1485365705.294093) can0 260#0800010000FFF769
(1485365705.295242) can0 0B2#000000000005
(1485365705.295443) can0 0B0#000000000005
(1485365705.295742) can0 0B4#00000000000000BC
(1485365705.296653) can0 2C1#08004C0049000068
(1485365705.296892) can0 3A0#0000000000000013
(1485365705.305242) can0 0B2#000000000006
(1485365705.305442) can0 0B0#000000000006
(1485365705.305693) can0 223#0000007FE000008C
(1485365705.305992) can0 224#0000000000000000
(1485365705.306665) can0 2C4#03F700130000A27D
(1485365705.310292) can0 620#1000000030600050
(1485365705.314318) can0 260#0800010000000174
(1485365705.315243) can0 0B2#000000000007
(1485365705.315442) can0 0B0#000000000007
(1485365705.315742) can0 0B4#00000000000000BC
(1485365705.319643) can0 440#4202000007000000
(1485365705.325144) can0 0B2#000000000008
(1485365705.325342) can0 0B0#000000000008
(1485365705.326892) can0 380#00A0040000000300
(1485365705.327317) can0 2C1#0800690056000092
(1485365705.327540) can0 2C4#03F300130000A279
(1485365705.334331) can0 260#0800010000000679
(1485365705.335264) can0 0B2#000000000009
(1485365705.335504) can0 0B0#000000000009
(1485365705.335714) can0 223#0000007FE000008C
(1485365705.335966) can0 0B4#00000000000000BC
(1485365705.336215) can0 224#0000000000000000
(1485365705.339643) can0 394#00
(1485365705.345145) can0 0B2#00000000000A
(1485365705.345342) can0 0B0#00000000000A
(1485365705.346968) can0 2C4#03F000130000A276
(1485365705.354720) can0 260#0800010000000679
(1485365705.355193) can0 0B2#00000000000B
(1485365705.355415) can0 0B0#00000000000B
(1485365705.355718) can0 0B4#00000000000000BC
(1485365705.356644) can0 2C1#08007900760000C2
(1485365705.365218) can0 0B2#00000000000C
(1485365705.365443) can0 0B0#00000000000C
(1485365705.365665) can0 223#0000007FE000008C
(1485365705.365991) can0 224#0000000000000000
(1485365705.366666) can0 2C4#03F000130000A276
(1485365705.374801) can0 260#0800010000000376
(1485365705.375241) can0 0B2#00000000000D
(1485365705.375450) can0 0B0#00000000000D
(1485365705.375780) can0 0B4#00000000000000BC
(1485365705.385200) can0 0B2#00000000000E
(1485365705.385356) can0 0B0#00000000000E
(1485365705.386701) can0 2C1#08008600800000D9
(1485365705.386859) can0 2C4#03F000130000A276
(1485365705.395181) can0 260#0800010000000174
(1485365705.395331) can0 0B2#00000000000F
(1485365705.395592) can0 0B0#00000000000F
(1485365705.395785) can0 223#0000007FE000008C
(1485365705.396087) can0 0B4#00000000000000BC
(1485365705.396285) can0 224#0000000000000000
(1485365705.396931) can0 3A0#0000000000000014
(1485365705.405254) can0 0B2#000000000000
(1485365705.405385) can0 0B0#000000000000
(1485365705.406670) can0 2C4#03F100130000A277
(1485365705.409156) can0 442#4002000003000000
