(1571844935.630211) can0 09F10D01#FFFFFF7F35F1FFFF
(1571844935.680127) can0 09F10D01#FFFFFF7F39F1FFFF
(1571844935.692629) can0 09FD0202#A0000040EEFAFFFF
(1571844935.730145) can0 09F10D01#FFFFFF7F35F1FFFF
(1571844935.780171) can0 09F10D01#FFFFFF7F35F1FFFF
(1571844935.792591) can0 09FD0202#A100003EEEFAFFFF
(1571844935.830125) can0 09F10D01#FFFFFF7F35F1FFFF
(1571844935.880145) can0 09F10D01#FFFFFF7F35F1FFFF
(1571844935.892599) can0 09FD0202#A2000040EEFAFFFF
(1571844935.930126) can0 09F10D01#FFFFFF7F35F1FFFF
(1571844935.980127) can0 09F10D01#FFFFFF7F39F1FFFF
(1571844936.017188) can0 09FD0202#A3000042EEFAFFFF
(1571844936.030122) can0 09F10D01#FFFFFF7F35F1FFFF
(1571844936.080151) can0 09F10D01#FFFFFF7F35F1FFFF
(1571844936.117188) can0 09FD0202#A4000042EEFAFFFF
(1571844936.130126) can0 09F10D01#FFFFFF7F35F1FFFF
(1571844936.180073) can0 09F10D01#FFFFFF7F39F1FFFF
(1571844936.217185) can0 09FD0202#A5000040EEFAFFFF
(1571844936.230074) can0 09F10D01#FFFFFF7F39F1FFFF
(1571844936.280075) can0 09F10D01#FFFFFF7F35F1FFFF
(1571844936.317165) can0 09FD0202#A600003EEEFAFFFF
(1571844936.330075) can0 09F10D01#FFFFFF7F35F1FFFF
(1571844936.380076) can0 09F10D01#FFFFFF7F35F1FFFF
(1571844936.417140) can0 09FD0202#A700003EEEFAFFFF
(1571844936.430076) can0 09F10D01#FFFFFF7F35F1FFFF
(1571844936.480076) can0 09F10D01#FFFFFF7F35F1FFFF
(1571844936.517146) can0 09FD0202#A8000040EEFAFFFF
(1571844936.530076) can0 09F10D01#FFFFFF7F35F1FFFF
(1571844936.580077) can0 09F10D01#FFFFFF7F35F1FFFF
(1571844936.617161) can0 09FD0202#A9000042EEFAFFFF
(1571844936.630137) can0 09F10D01#FFFFFF7F39F1FFFF
(1571844936.680136) can0 09F10D01#FFFFFF7F35F1FFFF
(1571844936.717728) can0 09FD0202#AA000040EEFAFFFF
(1571844936.730704) can0 09F10D01#FFFFFF7F35F1FFFF
(1571844936.780704) can0 09F10D01#FFFFFF7F39F1FFFF
(1571844936.830540) can0 09F10D01#FFFFFF7F35F1FFFF
(1571844936.842746) can0 09FD0202#AB00003EEEFAFFFF
(1571844936.880699) can0 09F10D01#FFFFFF7F35F1FFFF
(1571844936.930706) can0 09F10D01#FFFFFF7F35F1FFFF
(1571844936.942756) can0 09FD0202#AC00003CEEFAFFFF
(1571844936.980709) can0 09F10D01#FFFFFF7F35F1FFFF
(1571844937.030512) can0 09F10D01#FFFFFF7F35F1FFFF
(1571844937.042736) can0 09FD0202#AD00003CEEFAFFFF
(1571844937.080714) can0 09F10D01#FFFFFF7F39F1FFFF
(1571844937.130669) can0 09F10D01#FFFFFF7F39F1FFFF
(1571844937.142548) can0 09FD0202#AE00003EEEFAFFFF
(1571844937.180619) can0 09F10D01#FFFFFF7F35F1FFFF
(1571844937.230712) can0 09F10D01#FFFFFF7F35F1FFFF
(1571844937.242733) can0 09FD0202#AF000040EEFAFFFF
(1571844937.280709) can0 09F10D01#FFFFFF7F39F1FFFF
(1571844937.330709) can0 09F10D01#FFFFFF7F35F1FFFF
(1571844937.342729) can0 09FD0202#B000003EEEFAFFFF
(1571844937.380711) can0 09F10D01#FFFFFF7F35F1FFFF
(1571844937.430490) can0 09F10D01#FFFFFF7F35F1FFFF
(1571844937.442711) can0 09FD0202#B100003EEEFAFFFF
(1571844937.480711) can0 09F10D01#FFFFFF7F35F1FFFF
(1571844937.530713) can0 09F10D01#FFFFFF7F35F1FFFF
(1571844937.542597) can0 09FD0202#B200003EEEFAFFFF
(1571844937.580584) can0 09F10D01#FFFFFF7F35F1FFFF
(1571844937.630139) can0 09F10D01#FFFFFF7F35F1FFFF
(1571844937.667097) can0 09FD0202#B300003CEEFAFFFF
(1571844937.680090) can0 09F10D01#FFFFFF7F35F1FFFF
(1571844937.730066) can0 09F10D01#FFFFFF7F35F1FFFF
(1571844937.767118) can0 09FD0202#B400003EEEFAFFFF
(1571844937.780086) can0 09F10D01#FFFFFF7F35F1FFFF
(1571844937.830078) can0 09F10D01#FFFFFF7F35F1FFFF
(1571844937.867443) can0 09FD0202#B500003EEEFAFFFF
(1571844937.880087) can0 09F10D01#FFFFFF7F39F1FFFF
(1571844937.930090) can0 09F10D01#FFFFFF7F35F1FFFF
(1571844937.967120) can0 09FD0202#B6000040EEFAFFFF
(1571844937.980088) can0 09F10D01#FFFFFF7F35F1FFFF
(1571844938.030067) can0 09F10D01#FFFFFF7F35F1FFFF
(1571844938.067120) can0 09FD0202#B7000040EEFAFFFF
(1571844938.080145) can0 09F10D01#FFFFFF7F39F1FFFF
(1571844938.130073) can0 09F10D01#FFFFFF7F39F1FFFF
(1571844938.167322) can0 09FD0202#B8000040EEFAFFFF
(1571844938.180132) can0 09F10D01#FFFFFF7F35F1FFFF
(1571844938.230124) can0 09F10D01#FFFFFF7F35F1FFFF
(1571844938.267298) can0 09FD0202#B9000040EEFAFFFF
(1571844938.280149) can0 09F10D01#FFFFFF7F35F1FFFF
(1571844938.330107) can0 09F10D01#FFFFFF7F35F1FFFF
(1571844938.367322) can0 09FD0202#BA000040EEFAFFFF
(1571844938.380133) can0 09F10D01#FFFFFF7F35F1FFFF
(1571844938.430130) can0 09F10D01#FFFFFF7F35F1FFFF
(1571844938.480129) can0 09F10D01#FFFFFF7F39F1FFFF
(1571844938.492108) can0 09FD0202#BB000040EEFAFFFF
(1571844938.530184) can0 09F10D01#FFFFFF7F35F1FFFF
(1571844938.580109) can0 09F10D01#FFFFFF7F35F1FFFF
(1571844938.592101) can0 09FD0202#BC000042EEFAFFFF
(1571844938.630125) can0 09F10D01#FFFFFF7F39F1FFFF
(1571844938.680613) can0 09F10D01#FFFFFF7F35F1FFFF
(1571844938.692573) can0 09FD0202#BD000042EEFAFFFF
(1571844938.730697) can0 09F10D01#FFFFFF7F35F1FFFF
(1571844938.780697) can0 09F10D01#FFFFFF7F39F1FFFF
(1571844938.792672) can0 09FD0202#BE000040EEFAFFFF
(1571844938.830699) can0 09F10D01#FFFFFF7F39F1FFFF
(1571844938.880698) can0 09F10D01#FFFFFF7F35F1FFFF
(1571844938.892673) can0 09FD0202#BF000040EEFAFFFF
(1571844938.930700) can0 09F10D01#FFFFFF7F35F1FFFF
(1571844938.980624) can0 09F10D01#FFFFFF7F35F1FFFF
(1571844938.992039) can0 09FD0202#C0000040EEFAFFFF
(1571844939.030702) can0 09F10D01#FFFFFF7F35F1FFFF
(1571844939.080614) can0 09F10D01#FFFFFF7F35F1FFFF
(1571844939.092727) can0 09FD0202#C1000040EEFAFFFF
(1571844939.130701) can0 09F10D01#FFFFFF7F39F1FFFF
(1571844939.180622) can0 09F10D01#FFFFFF7F35F1FFFF
(1571844939.192084) can0 09FD0202#C2000042EEFAFFFF
(1571844939.230510) can0 09F10D01#FFFFFF7F39F1FFFF
(1571844939.280704) can0 09F10D01#FFFFFF7F35F1FFFF
(1571844939.317653) can0 09FD0202#C3000042EEFAFFFF
(1571844939.330704) can0 09F10D01#FFFFFF7F35F1FFFF
(1571844939.380704) can0 09F10D01#FFFFFF7F35F1FFFF
(1571844939.417631) can0 09FD0202#C4000042EEFAFFFF
(1571844939.430706) can0 09F10D01#FFFFFF7F35F1FFFF
(1571844939.480648) can0 09F10D01#FFFFFF7F35F1FFFF
(1571844939.517655) can0 09FD0202#C5000040EEFAFFFF
(1571844939.530705) can0 09F10D01#FFFFFF7F35F1FFFF
(1571844939.580704) can0 09F10D01#FFFFFF7F35F1FFFF
(1571844939.617660) can0 09FD0202#C6000040EEFAFFFF
(1571844939.630705) can0 09F10D01#FFFFFF7F35F1FFFF
(1571844939.680565) can0 09F10D01#FFFFFF7F39F1FFFF
(1571844939.717651) can0 09FD0202#C700003EEEFAFFFF
(1571844939.730686) can0 09F10D01#FFFFFF7F35F1FFFF
(1571844939.780639) can0 09F10D01#FFFFFF7F35F1FFFF
(1571844939.817501) can0 09FD0202#C8000040EEFAFFFF
(1571844939.830499) can0 09F10D01#FFFFFF7F35F1FFFF
(1571844939.880483) can0 09F10D01#FFFFFF7F35F1FFFF
(1571844939.917073) can0 09FD0202#C9000040EEFAFFFF
(1571844939.930710) can0 09F10D01#FFFFFF7F35F1FFFF
(1571844939.980153) can0 09F10D01#FFFFFF7F35F1FFFF
(1571844940.030710) can0 09F10D01#FFFFFF7F35F1FFFF
(1571844940.042612) can0 09FD0202#CA000040EEFAFFFF
(1571844940.080415) can0 09F10D01#FFFFFF7F35F1FFFF
(1571844940.130708) can0 09F10D01#FFFFFF7F35F1FFFF
(1571844940.142055) can0 09FD0202#CB00003EEEFAFFFF
(1571844940.180622) can0 09F10D01#FFFFFF7F35F1FFFF
(1571844940.230686) can0 09F10D01#FFFFFF7F35F1FFFF
(1571844940.242637) can0 09FD0202#CC00003EEEFAFFFF
(1571844940.280887) can0 09F10D01#FFFFFF7F35F1FFFF
(1571844940.330686) can0 09F10D01#FFFFFF7F39F1FFFF
(1571844940.342634) can0 09FD0202#CD00003CEEFAFFFF
(1571844940.380719) can0 09F10D01#FFFFFF7F35F1FFFF
(1571844940.430514) can0 09F10D01#FFFFFF7F35F1FFFF
(1571844940.442639) can0 09FD0202#CE00003EEEFAFFFF
(1571844940.480516) can0 09F10D01#FFFFFF7F39F1FFFF
(1571844940.530691) can0 09F10D01#FFFFFF7F35F1FFFF
(1571844940.542613) can0 09FD0202#CF000040EEFAFFFF
(1571844940.580691) can0 09F10D01#FFFFFF7F39F1FFFF
(1571844940.630690) can0 09F10D01#FFFFFF7F35F1FFFF
(1571844940.642633) can0 09FD0202#D0000040EEFAFFFF
(1571844940.680643) can0 09F10D01#FFFFFF7F35F1FFFF
(1571844940.730694) can0 09F10D01#FFFFFF7F35F1FFFF
(1571844940.742596) can0 09FD0202#D1000040EEFAFFFF
(1571844940.780691) can0 09F10D01#FFFFFF7F35F1FFFF
(1571844940.830692) can0 09F10D01#FFFFFF7F35F1FFFF
(1571844940.867004) can0 09FD0202#D2000040EEFAFFFF
(1571844940.880523) can0 09F10D01#FFFFFF7F35F1FFFF
(1571844940.930393) can0 09F10D01#FFFFFF7F35F1FFFF
(1571844940.967441) can0 09FD0202#D3000040EEFAFFFF
(1571844940.980156) can0 09F10D01#FFFFFF7F35F1FFFF
(1571844941.030508) can0 09F10D01#FFFFFF7F35F1FFFF
(1571844941.067013) can0 09FD0202#D4000040EEFAFFFF
(1571844941.080516) can0 09F10D01#FFFFFF7F39F1FFFF
(1571844941.130205) can0 09F10D01#FFFFFF7F39F1FFFF
(1571844941.167406) can0 09FD0202#D5000042EEFAFFFF
(1571844941.180394) can0 09F10D01#FFFFFF7F39F1FFFF
(1571844941.230508) can0 09F10D01#FFFFFF7F35F1FFFF
(1571844941.267394) can0 09FD0202#D6000042EEFAFFFF
(1571844941.280522) can0 09F10D01#FFFFFF7F35F1FFFF
(1571844941.330209) can0 09F10D01#FFFFFF7F39F1FFFF
(1571844941.367026) can0 09FD0202#D7000042EEFAFFFF
(1571844941.380435) can0 09F10D01#FFFFFF7F39F1FFFF
(1571844941.430569) can0 09F10D01#FFFFFF7F35F1FFFF
(1571844941.467586) can0 09FD0202#D8000040EEFAFFFF
(1571844941.480463) can0 09F10D01#FFFFFF7F39F1FFFF
(1571844941.530674) can0 09F10D01#FFFFFF7F39F1FFFF
(1571844941.567605) can0 09FD0202#D9000040EEFAFFFF
(1571844941.580704) can0 09F10D01#FFFFFF7F39F1FFFF
(1571844941.630543) can0 09F10D01#FFFFFF7F35F1FFFF
(1571844941.680615) can0 09F10D01#FFFFFF7F35F1FFFF
(1571844941.692459) can0 09FD0202#DA000040EEFAFFFF
(1571844941.730701) can0 09F10D01#FFFFFF7F39F1FFFF
(1571844941.780699) can0 09F10D01#FFFFFF7F39F1FFFF
(1571844941.792062) can0 09FD0202#DB000042EEFAFFFF
(1571844941.830700) can0 09F10D01#FFFFFF7F35F1FFFF
(1571844941.880700) can0 09F10D01#FFFFFF7F39F1FFFF
(1571844941.891982) can0 09FD0202#DC000042EEFAFFFF
(1571844941.930679) can0 09F10D01#FFFFFF7F39F1FFFF
(1571844941.980700) can0 09F10D01#FFFFFF7F35F1FFFF
(1571844941.992603) can0 09FD0202#DD000040EEFAFFFF
(1571844942.030676) can0 09F10D01#FFFFFF7F39F1FFFF
(1571844942.080703) can0 09F10D01#FFFFFF7F35F1FFFF
(1571844942.092551) can0 09FD0202#DE000040EEFAFFFF
(1571844942.130707) can0 09F10D01#FFFFFF7F35F1FFFF
(1571844942.180621) can0 09F10D01#FFFFFF7F35F1FFFF
(1571844942.192463) can0 09FD0202#DF00003EEEFAFFFF
(1571844942.230680) can0 09F10D01#FFFFFF7F39F1FFFF
(1571844942.280705) can0 09F10D01#FFFFFF7F39F1FFFF
(1571844942.292580) can0 09FD0202#E0000043EEFAFFFF
(1571844942.330682) can0 09F10D01#FFFFFF7F35F1FFFF
(1571844942.380705) can0 09F10D01#FFFFFF7F35F1FFFF
(1571844942.392554) can0 09FD0202#E1000049EEFAFFFF
(1571844942.430680) can0 09F10D01#FFFFFF7F39F1FFFF
(1571844942.480705) can0 09F10D01#FFFFFF7F35F1FFFF
(1571844942.517530) can0 09FD0202#E2000070EDFAFFFF
(1571844942.530685) can0 09F10D01#FFFFFF7F35F1FFFF
(1571844942.580709) can0 09F10D01#FFFFFF7F35F1FFFF
(1571844942.617531) can0 09FD0202#E30000E6EBFAFFFF
(1571844942.630681) can0 09F10D01#FFFFFF7F35F1FFFF
(1571844942.680859) can0 09F10D01#FFFFFF7F35F1FFFF
(1571844942.717539) can0 09FD0202#E40000C9E9FAFFFF
(1571844942.730684) can0 09F10D01#FFFFFF7F35F1FFFF
(1571844942.780714) can0 09F10D01#FFFFFF7F35F1FFFF
(1571844942.817530) can0 09FD0202#E51F0071E6FAFFFF
(1571844942.830524) can0 09F10D01#FFFFFF7F35F1FFFF
(1571844942.880683) can0 09F10D01#FFFFFF7F39F1FFFF
(1571844942.917534) can0 09FD0202#E64000B0E2FAFFFF
(1571844942.930688) can0 09F10D01#FFFFFF7F35F1FFFF
(1571844942.980592) can0 09F10D01#FFFFFF7F35F1FFFF
(1571844943.016976) can0 09FD0202#E76000E9DEFAFFFF
(1571844943.030687) can0 09F10D01#FFFFFF7F39F1FFFF
(1571844943.080687) can0 09F10D01#FFFFFF7F35F1FFFF
(1571844943.117511) can0 09FD0202#E881007BDBFAFFFF
(1571844943.130689) can0 09F10D01#FFFFFF7F39F1FFFF
(1571844943.180484) can0 09F10D01#FFFFFF7F35F1FFFF
(1571844943.217392) can0 09FD0202#E9A1007DD8FAFFFF
(1571844943.230686) can0 09F10D01#FFFFFF7F39F1FFFF
(1571844943.280688) can0 09F10D01#FFFFFF7F35F1FFFF
(1571844943.330691) can0 09F10D01#FFFFFF7F35F1FFFF
(1571844943.342092) can0 09FD0202#EAC100FED5FAFFFF
(1571844943.380609) can0 09F10D01#FFFFFF7F35F1FFFF
(1571844943.430679) can0 09F10D01#FFFFFF7F35F1FFFF
(1571844943.442351) can0 09FD0202#EBE100D5D3FAFFFF
(1571844943.480599) can0 09F10D01#FFFFFF7F35F1FFFF
(1571844943.530691) can0 09F10D01#FFFFFF7F35F1FFFF
(1571844943.542485) can0 09FD0202#EC020132D2FAFFFF
(1571844943.580691) can0 09F10D01#FFFFFF7F35F1FFFF
(1571844943.630692) can0 09F10D01#FFFFFF7F39F1FFFF
(1571844943.642441) can0 09FD0202#ED0201AED0FAFFFF
(1571844943.680650) can0 09F10D01#FFFFFF7F35F1FFFF
(1571844943.730695) can0 09F10D01#FFFFFF7F35F1FFFF
(1571844943.742485) can0 09FD0202#EE02011DCFFAFFFF
(1571844943.780592) can0 09F10D01#FFFFFF7F35F1FFFF
(1571844943.830693) can0 09F10D01#FFFFFF7F35F1FFFF
(1571844943.842493) can0 09FD0202#EF020155CDFAFFFF
(1571844943.880695) can0 09F10D01#FFFFFF7F35F1FFFF
(1571844943.930693) can0 09F10D01#FFFFFF7F35F1FFFF
(1571844943.942387) can0 09FD0202#F002012CCBFAFFFF
(1571844943.980693) can0 09F10D01#FFFFFF7F35F1FFFF
(1571844944.030695) can0 09F10D01#FFFFFF7F35F1FFFF
(1571844944.042346) can0 09FD0202#F102019EC8FAFFFF
(1571844944.080695) can0 09F10D01#FFFFFF7F35F1FFFF
(1571844944.130742) can0 09F10D01#FFFFFF7F35F1FFFF
(1571844944.167477) can0 09FD0202#F20201BAC5FAFFFF
(1571844944.180584) can0 09F10D01#FFFFFF7F39F1FFFF
(1571844944.230695) can0 09F10D01#FFFFFF7F35F1FFFF
(1571844944.267496) can0 09FD0202#F302016FC2FAFFFF
(1571844944.280697) can0 09F10D01#FFFFFF7F35F1FFFF
(1571844944.330671) can0 09F10D01#FFFFFF7F35F1FFFF
(1571844944.367490) can0 09FD0202#F40201EABEFAFFFF
(1571844944.380696) can0 09F10D01#FFFFFF7F35F1FFFF
(1571844944.430338) can0 09F10D01#FFFFFF7F35F1FFFF
(1571844944.467497) can0 09FD0202#F5020136BBFAFFFF
(1571844944.480699) can0 09F10D01#FFFFFF7F35F1FFFF
(1571844944.530674) can0 09F10D01#FFFFFF7F35F1FFFF
(1571844944.567473) can0 09FD0202#F602015EB7FAFFFF
(1571844944.580595) can0 09F10D01#FFFFFF7F35F1FFFF
(1571844944.630726) can0 09F10D01#FFFFFF7F35F1FFFF
(1571844944.666946) can0 09FD0202#F7020184B3FAFFFF
(1571844944.680136) can0 09F10D01#FFFFFF7F35F1FFFF
(1571844944.730675) can0 09F10D01#FFFFFF7F39F1FFFF
(1571844944.767475) can0 09FD0202#F8EA00C9AFFAFFFF
(1571844944.780676) can0 09F10D01#FFFFFF7F39F1FFFF
(1571844944.830676) can0 09F10D01#FFFFFF7F39F1FFFF
(1571844944.880701) can0 09F10D01#FFFFFF7F35F1FFFF
(1571844944.892477) can0 09FD0202#F9D2008AABFAFFFF
(1571844944.930552) can0 09F10D01#FFFFFF7F35F1FFFF
(1571844944.980702) can0 09F10D01#FFFFFF7F35F1FFFF
(1571844944.992452) can0 09FD0202#FABA00C1A6FAFFFF
(1571844945.030679) can0 09F10D01#FFFFFF7F35F1FFFF
(1571844945.080707) can0 09F10D01#FFFFFF7F35F1FFFF
(1571844945.092455) can0 09FD0202#00A200CCA1FAFFFF
(1571844945.130678) can0 09F10D01#FFFFFF7F35F1FFFF
(1571844945.180704) can0 09F10D01#FFFFFF7F35F1FFFF
(1571844945.192317) can0 09FD0202#018A00BD9CFAFFFF
(1571844945.230681) can0 09F10D01#FFFFFF7F35F1FFFF
(1571844945.280685) can0 09F10D01#FFFFFF7F39F1FFFF
(1571844945.292483) can0 09FD0202#027200D297FAFFFF
(1571844945.330681) can0 09F10D01#FFFFFF7F35F1FFFF
(1571844945.380581) can0 09F10D01#FFFFFF7F35F1FFFF
(1571844945.392481) can0 09FD0202#035A00EF93FAFFFF
(1571844945.430124) can0 09F10D01#FFFFFF7F35F1FFFF
(1571844945.480686) can0 09F10D01#FFFFFF7F39F1FFFF
(1571844945.492463) can0 09FD0202#044200BF91FAFFFF
(1571844945.530683) can0 09F10D01#FFFFFF7F39F1FFFF
(1571844945.580684) can0 09F10D01#FFFFFF7F35F1FFFF
(1571844945.592434) can0 09FD0202#054200F390FAFFFF
(1571844945.630077) can0 09F10D01#FFFFFF7F39F1FFFF
(1571844945.680683) can0 09F10D01#FFFFFF7F35F1FFFF
(1571844945.717433) can0 09FD0202#0642000191FAFFFF
(1571844945.730685) can0 09F10D01#FFFFFF7F35F1FFFF
(1571844945.780683) can0 09F10D01#FFFFFF7F35F1FFFF
(1571844945.817465) can0 09FD0202#074200AC91FAFFFF
(1571844945.830557) can0 09F10D01#FFFFFF7F39F1FFFF
(1571844945.880686) can0 09F10D01#FFFFFF7F35F1FFFF
(1571844945.917434) can0 09FD0202#0842005792FAFFFF
(1571844945.930685) can0 09F10D01#FFFFFF7F35F1FFFF
(1571844945.980598) can0 09F10D01#FFFFFF7F35F1FFFF
(1571844946.017435) can0 09FD0202#094200CC92FAFFFF
(1571844946.030686) can0 09F10D01#FFFFFF7F39F1FFFF
(1571844946.080687) can0 09F10D01#FFFFFF7F35F1FFFF
(1571844946.117411) can0 09FD0202#0A42005893FAFFFF
(1571844946.130687) can0 09F10D01#FFFFFF7F35F1FFFF
(1571844946.180687) can0 09F10D01#FFFFFF7FE7F0FFFF
(1571844946.217414) can0 09FD0202#0B42000D94FAFFFF
(1571844946.230688) can0 09F10D01#FFFFFF7F2DF0FFFF
(1571844946.280689) can0 09F10D01#FFFFFF7F76EFFFFF
(1571844946.317413) can0 09FD0202#0C4200CB94FAFFFF
(1571844946.330665) can0 09F10D01#FFFFFF7FAFEEFFFF
(1571844946.380691) can0 09F10D01#FFFFFF7FF8EDFFFF
(1571844946.417167) can0 09FD0202#0D42009995FAFFFF
(1571844946.430666) can0 09F10D01#FFFFFF7FCBEDFFFF
(1571844946.480514) can0 09F10D01#FFFFFF7FC7EDFFFF
(1571844946.530517) can0 09F10D01#FFFFFF7FC7EDFFFF
(1571844946.541855) can0 09FD0202#0E47006996FAFFFF
(1571844946.580561) can0 09F10D01#FFFFFF7F9AEDFFFF
(1571844946.630546) can0 09F10D01#FFFFFF7FF1ECFFFF
(1571844946.642283) can0 09FD0202#0F4C00F196FAFFFF
(1571844946.680589) can0 09F10D01#FFFFFF7FF6EBFFFF
(1571844946.730669) can0 09F10D01#FFFFFF7FF3EAFFFF
(1571844946.742391) can0 09FD0202#10B3002597FAFFFF
(1571844946.780670) can0 09F10D01#FFFFFF7FE2E9FFFF
(1571844946.830119) can0 09F10D01#FFFFFF7FA6E8FFFF
(1571844946.842412) can0 09FD0202#111A010497FAFFFF
(1571844946.880562) can0 09F10D01#FFFFFF7F19E7FFFF
(1571844946.930669) can0 09F10D01#FFFFFF7F80E5FFFF
(1571844946.942414) can0 09FD0202#126D018096FAFFFF
(1571844946.980561) can0 09F10D01#FFFFFF7FADE3FFFF
(1571844947.030673) can0 09F10D01#FFFFFF7FC0E1FFFF
(1571844947.041807) can0 09FD0202#13BF01A595FAFFFF
(1571844947.080670) can0 09F10D01#FFFFFF7FEFDFFFFF
(1571844947.130591) can0 09F10D01#FFFFFF7F1ADEFFFF
(1571844947.142395) can0 09FD0202#1401029394FAFFFF
(1571844947.180671) can0 09F10D01#FFFFFF7FF7DBFFFF
(1571844947.230421) can0 09F10D01#FFFFFF7F78DAFFFF
(1571844947.242396) can0 09FD0202#1542029192FAFFFF
(1571844947.280672) can0 09F10D01#FFFFFF7FDAD8FFFF
(1571844947.330124) can0 09F10D01#FFFFFF7F67D7FFFF
(1571844947.367278) can0 09FD0202#1675027790FAFFFF
(1571844947.380556) can0 09F10D01#FFFFFF7FF4D5FFFF
(1571844947.430704) can0 09F10D01#FFFFFF7F6ED4FFFF
(1571844947.467374) can0 09FD0202#17A9025D8EFAFFFF
(1571844947.480674) can0 09F10D01#FFFFFF7FFBD2FFFF
(1571844947.530675) can0 09F10D01#FFFFFF7F8ED1FFFF
(1571844947.567377) can0 09FD0202#187902478CFAFFFF
(1571844947.580673) can0 09F10D01#FFFFFF7F0AD0FFFF
(1571844947.630675) can0 09F10D01#FFFFFF7F9CCEFFFF
(1571844947.667400) can0 09FD0202#1942023C8AFAFFFF
(1571844947.680683) can0 09F10D01#FFFFFF7F25CDFFFF
(1571844947.730681) can0 09F10D01#FFFFFF7FB7CBFFFF
(1571844947.767399) can0 09FD0202#1A1E023588FAFFFF
(1571844947.780573) can0 09F10D01#FFFFFF7F97CAFFFF
(1571844947.830679) can0 09F10D01#FFFFFF7F44CAFFFF
(1571844947.867376) can0 09FD0202#1BF401EC86FAFFFF
(1571844947.880651) can0 09F10D01#FFFFFF7FA2CAFFFF
(1571844947.930653) can0 09F10D01#FFFFFF7F23CBFFFF
(1571844947.967354) can0 09FD0202#1CDA018985FAFFFF
(1571844947.980588) can0 09F10D01#FFFFFF7F20CBFFFF
(1571844948.030678) can0 09F10D01#FFFFFF7F20CBFFFF
(1571844948.067356) can0 09FD0202#1DC1011B84FAFFFF
(1571844948.080116) can0 09F10D01#FFFFFF7F20CBFFFF
(1571844948.130680) can0 09F10D01#FFFFFF7F23CBFFFF
(1571844948.180679) can0 09F10D01#FFFFFF7F20CBFFFF
(1571844948.192284) can0 09FD0202#1EB101AC82FAFFFF
(1571844948.230661) can0 09F10D01#FFFFFF7F23CBFFFF
(1571844948.280657) can0 09F10D01#FFFFFF7F23CBFFFF
(1571844948.292178) can0 09FD0202#1F9A014881FAFFFF
(1571844948.330661) can0 09F10D01#FFFFFF7F23CBFFFF
(1571844948.380658) can0 09F10D01#FFFFFF7F23CBFFFF
(1571844948.392357) can0 09FD0202#2084010080FAFFFF
(1571844948.430658) can0 09F10D01#FFFFFF7F23CBFFFF
(1571844948.480527) can0 09F10D01#FFFFFF7F23CBFFFF
(1571844948.492298) can0 09FD0202#217601EB7EFAFFFF
(1571844948.530688) can0 09F10D01#FFFFFF7F20CBFFFF
(1571844948.580209) can0 09F10D01#FFFFFF7F23CBFFFF
(1571844948.592045) can0 09FD0202#226801147EFAFFFF
(1571844948.630567) can0 09F10D01#FFFFFF7F23CBFFFF
(1571844948.680433) can0 09F10D01#FFFFFF7F23CBFFFF
(1571844948.691796) can0 09FD0202#235C01657DFAFFFF
(1571844948.730564) can0 09F10D01#FFFFFF7F23CBFFFF
(1571844948.780414) can0 09F10D01#FFFFFF7F23CBFFFF
(1571844948.792059) can0 09FD0202#245001D17CFAFFFF
(1571844948.830541) can0 09F10D01#FFFFFF7F20CBFFFF
(1571844948.880545) can0 09F10D01#FFFFFF7F23CBFFFF
(1571844948.892242) can0 09FD0202#2544015A7CFAFFFF
(1571844948.930542) can0 09F10D01#FFFFFF7F23CBFFFF
(1571844948.980543) can0 09F10D01#FFFFFF7F23CBFFFF
(1571844949.016766) can0 09FD0202#263801FC7BFAFFFF
(1571844949.030533) can0 09F10D01#FFFFFF7F23CBFFFF
(1571844949.080535) can0 09F10D01#FFFFFF7F23CBFFFF
(1571844949.117211) can0 09FD0202#272F01D07BFAFFFF
(1571844949.130534) can0 09F10D01#FFFFFF7F23CBFFFF
(1571844949.180545) can0 09F10D01#FFFFFF7F23CBFFFF
(1571844949.217193) can0 09FD0202#282501EB7BFAFFFF
(1571844949.230545) can0 09F10D01#FFFFFF7F23CBFFFF
(1571844949.280548) can0 09F10D01#FFFFFF7F23CBFFFF
(1571844949.317189) can0 09FD0202#291B01267CFAFFFF
(1571844949.330545) can0 09F10D01#FFFFFF7F23CBFFFF
(1571844949.380547) can0 09F10D01#FFFFFF7F23CBFFFF
(1571844949.417221) can0 09FD0202#2A1201827CFAFFFF
(1571844949.430544) can0 09F10D01#FFFFFF7F23CBFFFF
(1571844949.480425) can0 09F10D01#FFFFFF7F23CBFFFF
(1571844949.517224) can0 09FD0202#2B0E01027DFAFFFF
(1571844949.530552) can0 09F10D01#FFFFFF7F23CBFFFF
(1571844949.580547) can0 09F10D01#FFFFFF7F23CBFFFF
(1571844949.617198) can0 09FD0202#2C0901A27DFAFFFF
(1571844949.630093) can0 09F10D01#FFFFFF7F23CBFFFF
(1571844949.680553) can0 09F10D01#FFFFFF7F23CBFFFF
(1571844949.730548) can0 09F10D01#FFFFFF7F23CBFFFF
(1571844949.742218) can0 09FD0202#2D0101567EFAFFFF
(1571844949.780431) can0 09F10D01#FFFFFF7F23CBFFFF
(1571844949.830554) can0 09F10D01#FFFFFF7F23CBFFFF
(1571844949.842224) can0 09FD0202#2EF800137FFAFFFF
(1571844949.880555) can0 09F10D01#FFFFFF7F23CBFFFF
(1571844949.930555) can0 09F10D01#FFFFFF7F23CBFFFF
(1571844949.942203) can0 09FD0202#2FF400DA7FFAFFFF
(1571844949.980552) can0 09F10D01#FFFFFF7F02CCFFFF
(1571844950.030559) can0 09F10D01#FFFFFF7FDDCEFFFF
(1571844950.042176) can0 09FD0202#30EF007080FAFFFF
(1571844950.080430) can0 09F10D01#FFFFFF7F87D0FFFF
(1571844950.130672) can0 09F10D01#FFFFFF7F30D3FFFF
(1571844950.142322) can0 09FD0202#31EB00B07FFAFFFF
(1571844950.180671) can0 09F10D01#FFFFFF7FCDD6FFFF
(1571844950.230676) can0 09F10D01#FFFFFF7F03DBFFFF
(1571844950.242323) can0 09FD0202#32E600E97CFAFFFF
(1571844950.280673) can0 09F10D01#FFFFFF7F70E0FFFF
(1571844950.330675) can0 09F10D01#FFFFFF7F4AE5FFFF
(1571844950.342298) can0 09FD0202#33DE00AF78FAFFFF
(1571844950.380674) can0 09F10D01#FFFFFF7F5BE8FFFF
(1571844950.430676) can0 09F10D01#FFFFFF7FC9EBFFFF
(1571844950.442200) can0 09FD0202#34D6001577FAFFFF
(1571844950.480681) can0 09F10D01#FFFFFF7F4BEEFFFF
(1571844950.530675) can0 09F10D01#FFFFFF7F7EF1FFFF
(1571844950.567152) can0 09FD0202#35D200F275FAFFFF
(1571844950.580675) can0 09F10D01#FFFFFF7F5CF5FFFF
(1571844950.630678) can0 09F10D01#FFFFFF7F75F8FFFF
(1571844950.666947) can0 09FD0202#36CF007B75FAFFFF
(1571844950.680602) can0 09F10D01#FFFFFF7FE0FBFFFF
(1571844950.730635) can0 09F10D01#FFFFFF7F92FEFFFF
(1571844950.766772) can0 09FD0202#37CB00BF75FAFFFF
(1571844950.780885) can0 09F10D01#FFFFFF7F0F01FFFF
(1571844950.830651) can0 09F10D01#FFFFFF7F8802FFFF
(1571844950.867302) can0 09FD0202#38C800DC76FAFFFF
(1571844950.880836) can0 09F10D01#FFFFFF7F3903FFFF
(1571844950.930678) can0 09F10D01#FFFFFF7FE403FFFF
(1571844950.966944) can0 09FD0202#39C400C077FAFFFF
(1571844950.980789) can0 09F10D01#FFFFFF7F1E05FFFF
(1571844951.030655) can0 09F10D01#FFFFFF7F6406FFFF
(1571844951.067253) can0 09FD0202#3AC0008777FAFFFF
(1571844951.080853) can0 09F10D01#FFFFFF7F9C07FFFF
(1571844951.130686) can0 09F10D01#FFFFFF7FD108FFFF
(1571844951.166647) can0 09FD0202#3BBD009E76FAFFFF
(1571844951.180258) can0 09F10D01#FFFFFF7F7B09FFFF
(1571844951.230723) can0 09F10D01#FFFFFF7F8709FFFF
(1571844951.267275) can0 09FD0202#3CBA004075FAFFFF
(1571844951.280872) can0 09F10D01#FFFFFF7F7209FFFF
(1571844951.330648) can0 09F10D01#FFFFFF7F3109FFFF
(1571844951.380848) can0 09F10D01#FFFFFF7F1209FFFF
(1571844951.392247) can0 09FD0202#3DB7009B73FAFFFF
(1571844951.430647) can0 09F10D01#FFFFFF7FFE08FFFF
(1571844951.480857) can0 09F10D01#FFFFFF7FF108FFFF
(1571844951.492247) can0 09FD0202#3EB400E171FAFFFF
(1571844951.530170) can0 09F10D01#FFFFFF7FF808FFFF
(1571844951.580808) can0 09F10D01#FFFFFF7FF408FFFF
(1571844951.592077) can0 09FD0202#3FB0003270FAFFFF
(1571844951.630370) can0 09F10D01#FFFFFF7FF108FFFF
(1571844951.680706) can0 09F10D01#FFFFFF7FF408FFFF
(1571844951.692260) can0 09FD0202#40AD00A86EFAFFFF
(1571844951.730646) can0 09F10D01#FFFFFF7FF108FFFF
(1571844951.780601) can0 09F10D01#FFFFFF7FEE08FFFF
(1571844951.792260) can0 09FD0202#41AA00B56CFAFFFF
(1571844951.830651) can0 09F10D01#FFFFFF7FA809FFFF
(1571844951.880686) can0 09F10D01#FFFFFF7F060BFFFF
(1571844951.892240) can0 09FD0202#42A6001669FAFFFF
(1571844951.930597) can0 09F10D01#FFFFFF7F590BFFFF
(1571844951.980799) can0 09F10D01#FFFFFF7F8A0DFFFF
(1571844951.992051) can0 09FD0202#43A6006564FAFFFF
(1571844952.030529) can0 09F10D01#FFFFFF7F4F11FFFF
(1571844952.080865) can0 09F10D01#FFFFFF7F8F15FFFF
(1571844952.092237) can0 09FD0202#44A6000D5FFAFFFF
(1571844952.130494) can0 09F10D01#FFFFFF7FDF18FFFF
(1571844952.180863) can0 09F10D01#FFFFFF7FD11BFFFF
(1571844952.217235) can0 09FD0202#45A300525AFAFFFF
(1571844952.230507) can0 09F10D01#FFFFFF7FA61EFFFF
(1571844952.280868) can0 09F10D01#FFFFFF7FB31FFFFF
(1571844952.317241) can0 09FD0202#469F006D56FAFFFF
(1571844952.330663) can0 09F10D01#FFFFFF7FBB1FFFFF
(1571844952.380864) can0 09F10D01#FFFFFF7FC51FFFFF
(1571844952.417216) can0 09FD0202#479C00A352FAFFFF
(1571844952.430665) can0 09F10D01#FFFFFF7FB920FFFF
(1571844952.480865) can0 09F10D01#FFFFFF7F0023FFFF
(1571844952.517216) can0 09FD0202#489800EF4EFAFFFF
(1571844952.530666) can0 09F10D01#FFFFFF7FFD25FFFF
(1571844952.580866) can0 09F10D01#FFFFFF7FDA28FFFF
(1571844952.617217) can0 09FD0202#4995006A4BFAFFFF
(1571844952.630667) can0 09F10D01#FFFFFF7F3E2CFFFF
(1571844952.680322) can0 09F10D01#FFFFFF7F792FFFFF
(1571844952.717206) can0 09FD0202#4A92002A48FAFFFF
(1571844952.730667) can0 09F10D01#FFFFFF7F5933FFFF
(1571844952.780725) can0 09F10D01#FFFFFF7F9236FFFF
(1571844952.817227) can0 09FD0202#4B8E005045FAFFFF
(1571844952.830669) can0 09F10D01#FFFFFF7FD839FFFF
(1571844952.880844) can0 09F10D01#FFFFFF7FCE3DFFFF
(1571844952.917224) can0 09FD0202#4C8A00F642FAFFFF
(1571844952.930869) can0 09F10D01#FFFFFF7FAC41FFFF
(1571844952.980820) can0 09F10D01#FFFFFF7F9145FFFF
(1571844953.030847) can0 09F10D01#FFFFFF7F4849FFFF
(1571844953.042228) can0 09FD0202#4D8A00ED41FAFFFF
(1571844953.080846) can0 09F10D01#FFFFFF7F8E4CFFFF
(1571844953.130873) can0 09F10D01#FFFFFF7F284FFFFF
(1571844953.142171) can0 09FD0202#4E8A009142FAFFFF
(1571844953.180871) can0 09F10D01#FFFFFF7FEB51FFFF
(1571844953.230850) can0 09F10D01#FFFFFF7F0355FFFF
(1571844953.242201) can0 09FD0202#4F8A00B544FAFFFF
(1571844953.280848) can0 09F10D01#FFFFFF7FFE58FFFF
(1571844953.330675) can0 09F10D01#FFFFFF7F105FFFFF
(1571844953.342221) can0 09FD0202#508A005948FAFFFF
(1571844953.380849) can0 09F10D01#FFFFFF7F4666FFFF
(1571844953.430648) can0 09F10D01#FFFFFF7FAD6DFFFF
(1571844953.442175) can0 09FD0202#518A00554DFAFFFF
(1571844953.480850) can0 09F10D01#FFFFFF7F0071FFFF
(1571844953.530674) can0 09F10D01#FFFFFF7F312CFFFF
(1571844953.542169) can0 09FD0202#528A008E53FAFFFF
(1571844953.580853) can0 09F10D01#FFFFFF7F0071FFFF
(1571844953.630650) can0 09F10D01#FFFFFF7FFC70FFFF
(1571844953.642202) can0 09FD0202#538800C85AFAFFFF
(1571844953.679917) can0 09F10D01#FFFFFF7F448EFFFF
(1571844953.730335) can0 09F10D01#FFFFFF7FF790FFFF
(1571844953.767201) can0 09FD0202#548500DB62FAFFFF
(1571844953.780431) can0 09F10D01#FFFFFF7F5694FFFF
(1571844953.829887) can0 09F10D01#FFFFFF7F6898FFFF
(1571844953.867006) can0 09FD0202#5583008C6BFAFFFF
(1571844953.880316) can0 09F10D01#FFFFFF7F669CFFFF
(1571844953.930447) can0 09F10D01#FFFFFF7F2AA0FFFF
(1571844953.966952) can0 09FD0202#56D400AB74FAFFFF
(1571844953.980297) can0 09F10D01#FFFFFF7F7CA3FFFF
(1571844954.030455) can0 09F10D01#FFFFFF7FBFA6FFFF
(1571844954.067153) can0 09FD0202#572501097EFAFFFF
(1571844954.080653) can0 09F10D01#FFFFFF7FB7A9FFFF
(1571844954.130450) can0 09F10D01#FFFFFF7F55ACFFFF
(1571844954.167179) can0 09FD0202#586A017E87FAFFFF
(1571844954.180093) can0 09F10D01#FFFFFF7F48AEFFFF
(1571844954.230453) can0 09F10D01#FFFFFF7F81B0FFFF
(1571844954.267183) can0 09FD0202#59AE01D590FAFFFF
(1571844954.280655) can0 09F10D01#FFFFFF7F9BB2FFFF
(1571844954.330455) can0 09F10D01#FFFFFF7FCBB4FFFF
(1571844954.367158) can0 09FD0202#5AE301EE99FAFFFF
(1571844954.380525) can0 09F10D01#FFFFFF7FCEB6FFFF
(1571844954.430656) can0 09F10D01#FFFFFF7F53B9FFFF
(1571844954.466946) can0 09FD0202#5B1B0290A7FAFFFF
(1571844954.480522) can0 09F10D01#FFFFFF7FC0BBFFFF
(1571844954.530659) can0 09F10D01#FFFFFF7F38BEFFFF
(1571844954.580109) can0 09F10D01#FFFFFF7F97C0FFFF
(1571844954.591986) can0 09FD0202#5C530227B3FAFFFF
(1571844954.630106) can0 09F10D01#FFFFFF7FB6C2FFFF
(1571844954.680040) can0 09F10D01#FFFFFF7F60C4FFFF
(1571844954.691979) can0 09FD0202#5D81021BBDFAFFFF
(1571844954.730480) can0 09F10D01#FFFFFF7F94C5FFFF
(1571844954.780356) can0 09F10D01#FFFFFF7FD6C6FFFF
(1571844954.791958) can0 09FD0202#5E5C02AAC5FAFFFF
(1571844954.830530) can0 09F10D01#FFFFFF7F28C8FFFF
(1571844954.880515) can0 09F10D01#FFFFFF7FA9C9FFFF
(1571844954.891809) can0 09FD0202#5F2E02FCCCFAFFFF
(1571844954.930667) can0 09F10D01#FFFFFF7FF3CAFFFF
(1571844954.980528) can0 09F10D01#FFFFFF7F4CCCFFFF
(1571844954.992164) can0 09FD0202#600D0221D3FAFFFF
(1571844955.030660) can0 09F10D01#FFFFFF7FB8CDFFFF
(1571844955.080637) can0 09F10D01#FFFFFF7F1BCFFFFF
(1571844955.092138) can0 09FD0202#61ED0165D6FAFFFF
(1571844955.130636) can0 09F10D01#FFFFFF7F66D0FFFF
(1571844955.180668) can0 09F10D01#FFFFFF7FBDD1FFFF
(1571844955.192114) can0 09FD0202#62D50157D9FAFFFF
(1571844955.230664) can0 09F10D01#FFFFFF7F18D3FFFF
(1571844955.280669) can0 09F10D01#FFFFFF7F53D4FFFF
(1571844955.292126) can0 09FD0202#63BC01A8DBFAFFFF
(1571844955.330647) can0 09F10D01#FFFFFF7F64D5FFFF
(1571844955.380646) can0 09F10D01#FFFFFF7FB9D6FFFF
(1571844955.417127) can0 09FD0202#64A4012FDDFAFFFF
(1571844955.430645) can0 09F10D01#FFFFFF7FD0D7FFFF
(1571844955.480533) can0 09F10D01#FFFFFF7F87D8FFFF
(1571844955.517150) can0 09FD0202#65950194E0FAFFFF
(1571844955.530651) can0 09F10D01#FFFFFF7F9BD8FFFF
(1571844955.580647) can0 09F10D01#FFFFFF7F9FD8FFFF
(1571844955.617004) can0 09FD0202#667F017EE6FAFFFF
(1571844955.630529) can0 09F10D01#FFFFFF7F30D8FFFF
(1571844955.680031) can0 09F10D01#FFFFFF7F52D6FFFF
(1571844955.717085) can0 09FD0202#67720141F0FAFFFF
(1571844955.730646) can0 09F10D01#FFFFFF7F95D3FFFF
(1571844955.780538) can0 09F10D01#FFFFFF7F4AD0FFFF
(1571844955.817094) can0 09FD0202#686501BA0CFAFFFF
(1571844955.830645) can0 09F10D01#FFFFFF7FC2CCFFFF
(1571844955.880644) can0 09F10D01#FFFFFF7F31C9FFFF
(1571844955.917123) can0 09FD0202#69580134EEFAFFFF
(1571844955.930643) can0 09F10D01#FFFFFF7F77C5FFFF
(1571844955.980549) can0 09F10D01#FFFFFF7F60C1FFFF
(1571844956.017120) can0 09FD0202#6A4C014DE7FAFFFF
(1571844956.030645) can0 09F10D01#FFFFFF7F20BDFFFF
(1571844956.080649) can0 09F10D01#FFFFFF7F3FB9FFFF
(1571844956.117123) can0 09FD0202#6B4101DEEAFAFFFF
(1571844956.130648) can0 09F10D01#FFFFFF7F9BB5FFFF
(1571844956.180646) can0 09F10D01#FFFFFF7F4BB2FFFF
(1571844956.230467) can0 09F10D01#FFFFFF7F14AFFFFF
(1571844956.242117) can0 09FD0202#6C35017001FAFFFF
(1571844956.280647) can0 09F10D01#FFFFFF7F73ABFFFF
(1571844956.330650) can0 09F10D01#FFFFFF7F18A7FFFF
(1571844956.342093) can0 09FD0202#6D29014D14FAFFFF
(1571844956.380451) can0 09F10D01#FFFFFF7FDDA2FFFF
(1571844956.430450) can0 09F10D01#FFFFFF7F3E9FFFFF
(1571844956.442102) can0 09FD0202#6E24012200FAFFFF
(1571844956.480313) can0 09F10D01#FFFFFF7F9F9BFFFF
(1571844956.530449) can0 09F10D01#FFFFFF7FB797FFFF
(1571844956.542102) can0 09FD0202#6F1901AFEDFAFFFF
(1571844956.580451) can0 09F10D01#FFFFFF7F8F93FFFF
(1571844956.630455) can0 09F10D01#FFFFFF7FB58FFFFF
(1571844956.642078) can0 09FD0202#70100199EFFAFFFF
(1571844956.680340) can0 09F10D01#FFFFFF7FFC70FFFF
(1571844956.730447) can0 09F10D01#FFFFFF7F298DFFFF
(1571844956.742100) can0 09FD0202#7105015503FAFFFF
(1571844956.780450) can0 09F10D01#FFFFFF7F3B8DFFFF
(1571844956.830654) can0 09F10D01#FFFFFF7FE7FFFFFF
(1571844956.842084) can0 09FD0202#720101D20CFAFFFF
(1571844956.880852) can0 09F10D01#FFFFFF7F0071FFFF
(1571844956.930655) can0 09F10D01#FFFFFF7F636FFFFF
(1571844956.942077) can0 09FD0202#73FC004D13FAFFFF
(1571844956.980797) can0 09F10D01#FFFFFF7F416BFFFF
(1571844957.030660) can0 09F10D01#FFFFFF7F6867FFFF
(1571844957.066955) can0 09FD0202#74F7007017FAFFFF
(1571844957.080854) can0 09F10D01#FFFFFF7FA563FFFF
(1571844957.130658) can0 09F10D01#FFFFFF7F625FFFFF
(1571844957.167085) can0 09FD0202#75EF00E819FAFFFF
(1571844957.180834) can0 09F10D01#FFFFFF7F8F5AFFFF
(1571844957.230631) can0 09F10D01#FFFFFF7FD255FFFF
(1571844957.267080) can0 09FD0202#76E6002C1BFAFFFF
(1571844957.280860) can0 09F10D01#FFFFFF7F0952FFFF
(1571844957.330854) can0 09F10D01#FFFFFF7F834EFFFF
(1571844957.366831) can0 09FD0202#77E300841BFAFFFF
(1571844957.380771) can0 09F10D01#FFFFFF7F584BFFFF
(1571844957.430836) can0 09F10D01#FFFFFF7F3148FFFF
(1571844957.467082) can0 09FD0202#78DF003E1BFAFFFF
(1571844957.480768) can0 09F10D01#FFFFFF7F4A45FFFF
(1571844957.530834) can0 09F10D01#FFFFFF7FEA42FFFF
(1571844957.567034) can0 09FD0202#79DB00871AFAFFFF
(1571844957.580858) can0 09F10D01#FFFFFF7F9740FFFF
(1571844957.630858) can0 09F10D01#FFFFFF7F383EFFFF
(1571844957.666950) can0 09FD0202#7AD7008412FAFFFF
(1571844957.680716) can0 09F10D01#FFFFFF7F893BFFFF
(1571844957.730663) can0 09F10D01#FFFFFF7FE338FFFF
(1571844957.780838) can0 09F10D01#FFFFFF7F8E36FFFF
(1571844957.792060) can0 09FD0202#7BD300DB25FAFFFF
(1571844957.830663) can0 09F10D01#FFFFFF7F1D34FFFF
(1571844957.880835) can0 09F10D01#FFFFFF7F1532FFFF
(1571844957.892035) can0 09FD0202#7CCC001224FAFFFF
(1571844957.930542) can0 09F10D01#FFFFFF7FA030FFFF
(1571844957.980746) can0 09F10D01#FFFFFF7F1F2FFFFF
(1571844957.992069) can0 09FD0202#7DC800E011FAFFFF
(1571844958.030637) can0 09F10D01#FFFFFF7FE72DFFFF
(1571844958.080837) can0 09F10D01#FFFFFF7F312CFFFF
(1571844958.092037) can0 09FD0202#7EC4004E1FFAFFFF
(1571844958.130637) can0 09F10D01#FFFFFF7FE329FFFF
(1571844958.180843) can0 09F10D01#FFFFFF7F9C27FFFF
(1571844958.192068) can0 09FD0202#7FC000981AFAFFFF
(1571844958.230647) can0 09F10D01#FFFFFF7F0625FFFF
(1571844958.280844) can0 09F10D01#FFFFFF7F4B22FFFF
(1571844958.292074) can0 09FD0202#80BC00F807FAFFFF
(1571844958.330603) can0 09F10D01#FFFFFF7F9F1FFFFF
(1571844958.380845) can0 09F10D01#FFFFFF7FA41CFFFF
(1571844958.392039) can0 09FD0202#81B800D316FAFFFF
(1571844958.430644) can0 09F10D01#FFFFFF7F6E19FFFF
(1571844958.480780) can0 09F10D01#FFFFFF7FC815FFFF
(1571844958.492049) can0 09FD0202#82B500FD14FAFFFF
(1571844958.530641) can0 09F10D01#FFFFFF7F4412FFFF
(1571844958.580841) can0 09F10D01#FFFFFF7F450EFFFF
(1571844958.617049) can0 09FD0202#83B0004C06FAFFFF
(1571844958.630642) can0 09F10D01#FFFFFF7F710AFFFF
(1571844958.680783) can0 09F10D01#FFFFFF7FD406FFFF
(1571844958.717043) can0 09FD0202#84B000B019FAFFFF
(1571844958.730643) can0 09F10D01#FFFFFF7F3503FFFF
(1571844958.780842) can0 09F10D01#FFFFFF7F47FFFFFF
(1571844958.816931) can0 09FD0202#85AD001A1DFAFFFF
(1571844958.830083) can0 09F10D01#FFFFFF7F09FBFFFF
(1571844958.880550) can0 09F10D01#FFFFFF7FADF6FFFF
(1571844958.917043) can0 09FD0202#86A900BC13FAFFFF
(1571844958.930662) can0 09F10D01#FFFFFF7FDAF1FFFF
(1571844958.980550) can0 09F10D01#FFFFFF7F3EECFFFF
(1571844959.017044) can0 09FD0202#87A6006D00FAFFFF
(1571844959.030645) can0 09F10D01#FFFFFF7F0AE6FFFF
(1571844959.080646) can0 09F10D01#FFFFFF7FA8DFFFFF
(1571844959.117084) can0 09FD0202#8801010510FAFFFF
(1571844959.130657) can0 09F10D01#FFFFFF7F95D9FFFF
(1571844959.180549) can0 09F10D01#FFFFFF7F6ED4FFFF
(1571844959.216927) can0 09FD0202#8957014B10FAFFFF
(1571844959.230665) can0 09F10D01#FFFFFF7F78CFFFFF
(1571844959.280649) can0 09F10D01#FFFFFF7FAACAFFFF
(1571844959.317048) can0 09FD0202#8AAC01D705FAFFFF
(1571844959.330622) can0 09F10D01#FFFFFF7F08C6FFFF
(1571844959.380647) can0 09F10D01#FFFFFF7FB3C1FFFF
(1571844959.430649) can0 09F10D01#FFFFFF7F5FBDFFFF
(1571844959.441973) can0 09FD0202#8BF30189E8FAFFFF
(1571844959.480565) can0 09F10D01#FFFFFF7F79B9FFFF
(1571844959.530649) can0 09F10D01#FFFFFF7FAFB5FFFF
(1571844959.542065) can0 09FD0202#8C2C028011FAFFFF
(1571844959.580625) can0 09F10D01#FFFFFF7F0EB2FFFF
(1571844959.630451) can0 09F10D01#FFFFFF7F86AEFFFF
(1571844959.642052) can0 09FD0202#8D69025F18FAFFFF
(1571844959.680065) can0 09F10D01#FFFFFF7FA0AAFFFF
(1571844959.730446) can0 09F10D01#FFFFFF7F96A6FFFF
(1571844959.742044) can0 09FD0202#8E9D02640EFAFFFF
(1571844959.780312) can0 09F10D01#FFFFFF7FF3A2FFFF
(1571844959.830252) can0 09F10D01#FFFFFF7F699FFFFF
(1571844959.841881) can0 09FD0202#8FD1025FEEFAFFFF
(1571844959.880275) can0 09F10D01#FFFFFF7F179CFFFF
(1571844959.930254) can0 09F10D01#FFFFFF7F3499FFFF
(1571844959.941815) can0 09FD0202#909D029FD0FAFFFF
(1571844959.980152) can0 09F10D01#FFFFFF7F8B96FFFF
(1571844960.030300) can0 09F10D01#FFFFFF7FA694FFFF
(1571844960.041920) can0 09FD0202#917002F9F2FAFFFF
(1571844960.080316) can0 09F10D01#FFFFFF7F0394FFFF
(1571844960.130430) can0 09F10D01#FFFFFF7F1194FFFF
(1571844960.141958) can0 09FD0202#924202C907FAFFFF
(1571844960.180454) can0 09F10D01#FFFFFF7F0095FFFF
(1571844960.230424) can0 09F10D01#FFFFFF7FDA96FFFF
(1571844960.266983) can0 09FD0202#931D026500FAFFFF
(1571844960.280454) can0 09F10D01#FFFFFF7F9999FFFF
(1571844960.330430) can0 09F10D01#FFFFFF7FED9CFFFF
(1571844960.366955) can0 09FD0202#940502D5E0FAFFFF
(1571844960.380459) can0 09F10D01#FFFFFF7FAFA0FFFF
(1571844960.430432) can0 09F10D01#FFFFFF7FE2A4FFFF
(1571844960.466957) can0 09FD0202#95EA01C9CDFAFFFF
(1571844960.480530) can0 09F10D01#FFFFFF7FB7A9FFFF
(1571844960.530433) can0 09F10D01#FFFFFF7F96AEFFFF
(1571844960.566982) can0 09FD0202#96D80147E2FAFFFF
(1571844960.580634) can0 09F10D01#FFFFFF7F45B3FFFF
(1571844960.630634) can0 09F10D01#FFFFFF7FECB7FFFF
(1571844960.666955) can0 09FD0202#97C601ADEAFAFFFF
(1571844960.680429) can0 09F10D01#FFFFFF7FD0BCFFFF
(1571844960.730517) can0 09F10D01#FFFFFF7F25C2FFFF
(1571844960.766959) can0 09FD0202#98BD01A6E9FAFFFF
(1571844960.780635) can0 09F10D01#FFFFFF7F97C7FFFF
(1571844960.830363) can0 09F10D01#FFFFFF7F21CDFFFF
(1571844960.866937) can0 09FD0202#99AA01A6E1FAFFFF
(1571844960.880403) can0 09F10D01#FFFFFF7F5AD0FFFF
(1571844960.930656) can0 09F10D01#FFFFFF7FE4CFFFFF
(1571844960.980612) can0 09F10D01#FFFFFF7F29CCFFFF
(1571844960.991724) can0 09FD0202#9A9801F8D3FAFFFF
(1571844961.030019) can0 09F10D01#FFFFFF7FC3C5FFFF
(1571844961.080637) can0 09F10D01#FFFFFF7F4ABEFFFF
(1571844961.091961) can0 09FD0202#9B8C01D7C1FAFFFF
(1571844961.130638) can0 09F10D01#FFFFFF7FFAB6FFFF
(1571844961.180636) can0 09F10D01#FFFFFF7FC2B0FFFF
(1571844961.191913) can0 09FD0202#9C7A0164ACFAFFFF
(1571844961.230242) can0 09F10D01#FFFFFF7F55ACFFFF
(1571844961.280638) can0 09F10D01#FFFFFF7F7DA8FFFF
(1571844961.291913) can0 09FD0202#9D6A0102C1FAFFFF
(1571844961.330435) can0 09F10D01#FFFFFF7F4AA5FFFF
(1571844961.380293) can0 09F10D01#FFFFFF7F2CA2FFFF
(1571844961.391967) can0 09FD0202#9E5B0194CCFAFFFF
(1571844961.430434) can0 09F10D01#FFFFFF7F019FFFFF
(1571844961.479883) can0 09F10D01#FFFFFF7FEB9BFFFF
(1571844961.491660) can0 09FD0202#9F4B0135D1FAFFFF
(1571844961.530427) can0 09F10D01#FFFFFF7FAB99FFFF
(1571844961.580459) can0 09F10D01#FFFFFF7FE898FFFF
(1571844961.591917) can0 09FD0202#A03B0139D0FAFFFF
(1571844961.630281) can0 09F10D01#FFFFFF7F9B98FFFF
(1571844961.680441) can0 09F10D01#FFFFFF7F7599FFFF
(1571844961.691916) can0 09FD0202#A12D0134CAFAFFFF
(1571844961.729869) can0 09F10D01#FFFFFF7F829BFFFF
(1571844961.780444) can0 09F10D01#FFFFFF7FD59EFFFF
(1571844961.816943) can0 09FD0202#A21F0184BFFAFFFF
(1571844961.830239) can0 09F10D01#FFFFFF7F72A3FFFF
(1571844961.880621) can0 09F10D01#FFFFFF7FE5A8FFFF
(1571844961.916720) can0 09FD0202#A31101D1B0FAFFFF
(1571844961.930443) can0 09F10D01#FFFFFF7F89AEFFFF
(1571844961.980622) can0 09F10D01#FFFFFF7F24B4FFFF
(1571844962.016894) can0 09FD0202#A40901F49EFAFFFF
(1571844962.030648) can0 09F10D01#FFFFFF7FFDB9FFFF
(1571844962.080644) can0 09F10D01#FFFFFF7FFDBFFFFF
(1571844962.116485) can0 09FD0202#A50201838AFAFFFF
(1571844962.130516) can0 09F10D01#FFFFFF7FEBC5FFFF
(1571844962.180362) can0 09F10D01#FFFFFF7F85CBFFFF
(1571844962.216790) can0 09FD0202#A6FA001EA0FAFFFF
(1571844962.230646) can0 09F10D01#FFFFFF7FBFD0FFFF
(1571844962.280622) can0 09F10D01#FFFFFF7FD0D5FFFF
(1571844962.316922) can0 09FD0202#A7F200B5ABFAFFFF
(1571844962.330658) can0 09F10D01#FFFFFF7FC1DAFFFF
(1571844962.380622) can0 09F10D01#FFFFFF7FA4DFFFFF
(1571844962.416897) can0 09FD0202#A8EB00B9AFFAFFFF
(1571844962.430632) can0 09F10D01#FFFFFF7FAEE4FFFF
(1571844962.480623) can0 09F10D01#FFFFFF7F46EAFFFF
(1571844962.516882) can0 09FD0202#A9EB0059AEFAFFFF
(1571844962.530626) can0 09F10D01#FFFFFF7F7FF0FFFF
(1571844962.580649) can0 09F10D01#FFFFFF7FDBF6FFFF
(1571844962.630626) can0 09F10D01#FFFFFF7FD5FCFFFF
(1571844962.641899) can0 09FD0202#AAEA004DA9FAFFFF
(1571844962.680767) can0 09F10D01#FFFFFF7FDF02FFFF
(1571844962.730625) can0 09F10D01#FFFFFF7FDD07FFFF
(1571844962.741869) can0 09FD0202#ABEA0049A1FAFFFF
(1571844962.780755) can0 09F10D01#FFFFFF7F750CFFFF
(1571844962.830625) can0 09F10D01#FFFFFF7F3F11FFFF
(1571844962.841877) can0 09FD0202#ACEA00B796FAFFFF
(1571844962.880851) can0 09F10D01#FFFFFF7FD415FFFF
(1571844962.930627) can0 09F10D01#FFFFFF7FFC19FFFF
(1571844962.941879) can0 09FD0202#ADE200148AFAFFFF
(1571844962.980794) can0 09F10D01#FFFFFF7F541EFFFF
(1571844963.030626) can0 09F10D01#FFFFFF7FB122FFFF
(1571844963.041729) can0 09FD0202#AEDB00F57BFAFFFF
(1571844963.080709) can0 09F10D01#FFFFFF7FC927FFFF
(1571844963.130048) can0 09F10D01#FFFFFF7F172DFFFF
(1571844963.141862) can0 09FD0202#AFD400D46CFAFFFF
(1571844963.180896) can0 09F10D01#FFFFFF7F7932FFFF
(1571844963.230029) can0 09F10D01#FFFFFF7FF436FFFF
(1571844963.241517) can0 09FD0202#B0CD00FE5CFAFFFF
(1571844963.280890) can0 09F10D01#FFFFFF7F363BFFFF
(1571844963.330818) can0 09F10D01#FFFFFF7FA73FFFFF
(1571844963.341865) can0 09FD0202#B1C600CE4CFAFFFF
(1571844963.380235) can0 09F10D01#FFFFFF7F4044FFFF
(1571844963.430818) can0 09F10D01#FFFFFF7FBE48FFFF
(1571844963.466871) can0 09FD0202#B2BE00753CFAFFFF
(1571844963.480827) can0 09F10D01#FFFFFF7F024DFFFF
(1571844963.530821) can0 09F10D01#FFFFFF7FD851FFFF
(1571844963.566296) can0 09FD0202#B3B800092CFAFFFF
(1571844963.580254) can0 09F10D01#FFFFFF7FF856FFFF
(1571844963.630038) can0 09F10D01#FFFFFF7FF45CFFFF
(1571844963.666992) can0 09FD0202#B4B000551BFAFFFF
(1571844963.680971) can0 09F10D01#FFFFFF7FC462FFFF
(1571844963.730677) can0 09F10D01#FFFFFF7F9067FFFF
(1571844963.766466) can0 09FD0202#B5B000EE09FAFFFF
(1571844963.780249) can0 09F10D01#FFFFFF7FBC6BFFFF
(1571844963.830627) can0 09F10D01#FFFFFF7F0071FFFF
(1571844963.866825) can0 09FD0202#B6AE003DEDFAFFFF
(1571844963.880826) can0 09F10D01#FFFFFF7FFE58FFFF
(1571844963.930458) can0 09F10D01#FFFFFF7F000EFFFF
(1571844963.966741) can0 09FD0202#B7AC007EDAFAFFFF
(1571844963.980515) can0 09F10D01#FFFFFF7F74E3FFFF
(1571844964.030639) can0 09F10D01#FFFFFF7FE6C4FFFF
(1571844964.066864) can0 09FD0202#B8AA0044C7FAFFFF
(1571844964.080611) can0 09F10D01#FFFFFF7F74B0FFFF
(1571844964.130635) can0 09F10D01#FFFFFF7FFC70FFFF
(1571844964.166314) can0 09FD0202#B9A800BFB3FAFFFF
(1571844964.180811) can0 09F10D01#FFFFFF7F2A6DFFFF
(1571844964.230612) can0 09F10D01#FFFFFF7F6265FFFF
(1571844964.280839) can0 09F10D01#FFFFFF7F895DFFFF
(1571844964.291838) can0 09FD0202#BAA50020A0FAFFFF
(1571844964.330614) can0 09F10D01#FFFFFF7F4255FFFF
(1571844964.380799) can0 09F10D01#FFFFFF7F7E4DFFFF
(1571844964.391321) can0 09FD0202#BBA300A78CFAFFFF
(1571844964.430831) can0 09F10D01#FFFFFF7F3746FFFF
(1571844964.480773) can0 09F10D01#FFFFFF7FA33FFFFF
(1571844964.491331) can0 09FD0202#BCA1008479FAFFFF
(1571844964.530639) can0 09F10D01#FFFFFF7FE738FFFF
(1571844964.580816) can0 09F10D01#FFFFFF7FF132FFFF
(1571844964.591840) can0 09FD0202#BD9F00EB66FAFFFF
(1571844964.630617) can0 09F10D01#FFFFFF7F322DFFFF
(1571844964.680738) can0 09F10D01#FFFFFF7FC127FFFF
(1571844964.691380) can0 09FD0202#BE9F00ED54FAFFFF
(1571844964.730616) can0 09F10D01#FFFFFF7F4422FFFF
(1571844964.780816) can0 09F10D01#FFFFFF7FA61CFFFF
(1571844964.791818) can0 09FD0202#BF9D003143FAFFFF
(1571844964.830616) can0 09F10D01#FFFFFF7FA816FFFF
(1571844964.880818) can0 09F10D01#FFFFFF7F6110FFFF
(1571844964.891817) can0 09FD0202#C09A007532FAFFFF
(1571844964.930617) can0 09F10D01#FFFFFF7F4C09FFFF
(1571844964.980818) can0 09F10D01#FFFFFF7F4703FFFF
(1571844965.016796) can0 09FD0202#C19800DD25FAFFFF
(1571844965.030619) can0 09F10D01#FFFFFF7FDFFCFFFF
(1571844965.080643) can0 09F10D01#FFFFFF7FD5F6FFFF
(1571844965.116819) can0 09FD0202#C296005E1CFAFFFF
(1571844965.130620) can0 09F10D01#FFFFFF7F02F1FFFF
(1571844965.180620) can0 09F10D01#FFFFFF7FDCEBFFFF
(1571844965.216593) can0 09FD0202#C39400E014FAFFFF
(1571844965.230623) can0 09F10D01#FFFFFF7F99E6FFFF
(1571844965.280622) can0 09F10D01#FFFFFF7F9BE1FFFF
(1571844965.316729) can0 09FD0202#C49200B60EFAFFFF
(1571844965.330622) can0 09F10D01#FFFFFF7F77DCFFFF
(1571844965.380518) can0 09F10D01#FFFFFF7FC9D6FFFF
(1571844965.416619) can0 09FD0202#C590006A09FAFFFF
(1571844965.430441) can0 09F10D01#FFFFFF7F6AD0FFFF
(1571844965.480437) can0 09F10D01#FFFFFF7F97CAFFFF
(1571844965.516450) can0 09FD0202#C68E004105FAFFFF
(1571844965.530443) can0 09F10D01#FFFFFF7F8BC4FFFF
(1571844965.580450) can0 09F10D01#FFFFFF7FE4BEFFFF
(1571844965.616668) can0 09FD0202#C78E00CD02FAFFFF
(1571844965.630493) can0 09F10D01#FFFFFF7FB2B9FFFF
(1571844965.680495) can0 09F10D01#FFFFFF7F4DB4FFFF
(1571844965.716774) can0 09FD0202#C88E00B802FAFFFF
(1571844965.730423) can0 09F10D01#FFFFFF7F14AFFFFF
(1571844965.780628) can0 09F10D01#FFFFFF7FB7A9FFFF
(1571844965.830301) can0 09F10D01#FFFFFF7F9BA4FFFF
(1571844965.841683) can0 09FD0202#C98E008C04FAFFFF
(1571844965.880425) can0 09F10D01#FFFFFF7F6EA0FFFF
(1571844965.930426) can0 09F10D01#FFFFFF7FEF9CFFFF
(1571844965.941775) can0 09FD0202#CA8E00DC0AFAFFFF
(1571844965.980426) can0 09F10D01#FFFFFF7F639AFFFF
(1571844966.030397) can0 09F10D01#FFFFFF7F1799FFFF
(1571844966.041804) can0 09FD0202#CB8E002A16FAFFFF
(1571844966.080430) can0 09F10D01#FFFFFF7FE898FFFF
(1571844966.130426) can0 09F10D01#FFFFFF7F2199FFFF
(1571844966.141776) can0 09FD0202#CC8B00BB21FAFFFF
(1571844966.180428) can0 09F10D01#FFFFFF7F189AFFFF
(1571844966.230383) can0 09F10D01#FFFFFF7F779BFFFF
(1571844966.241754) can0 09FD0202#CD8800872BFAFFFF
(1571844966.280429) can0 09F10D01#FFFFFF7F149DFFFF
(1571844966.330429) can0 09F10D01#FFFFFF7F879FFFFF
(1571844966.341753) can0 09FD0202#CE8500B134FAFFFF
(1571844966.380430) can0 09F10D01#FFFFFF7FB9A2FFFF
(1571844966.430227) can0 09F10D01#FFFFFF7F65A6FFFF
(1571844966.441678) can0 09FD0202#CF82009E3DFAFFFF
(1571844966.480605) can0 09F10D01#FFFFFF7F41ABFFFF
(1571844966.530431) can0 09F10D01#FFFFFF7F5AB0FFFF
(1571844966.541780) can0 09FD0202#D07F006446FAFFFF
(1571844966.580608) can0 09F10D01#FFFFFF7F9BB5FFFF
(1571844966.630048) can0 09F10D01#FFFFFF7FEABAFFFF
(1571844966.666734) can0 09FD0202#D17D000E4FFAFFFF
(1571844966.680528) can0 09F10D01#FFFFFF7F76C0FFFF
(1571844966.730607) can0 09F10D01#FFFFFF7F53C6FFFF
(1571844966.766772) can0 09FD0202#D27900A557FAFFFF
(1571844966.780500) can0 09F10D01#FFFFFF7FFACBFFFF
(1571844966.830579) can0 09F10D01#FFFFFF7F10D1FFFF
(1571844966.866758) can0 09FD0202#D377002160FAFFFF
(1571844966.880608) can0 09F10D01#FFFFFF7FBCD5FFFF
(1571844966.930609) can0 09F10D01#FFFFFF7F7BD9FFFF
(1571844966.966738) can0 09FD0202#D477008268FAFFFF
(1571844966.980613) can0 09F10D01#FFFFFF7F48DBFFFF
(1571844967.030632) can0 09F10D01#FFFFFF7F17DBFFFF
(1571844967.066608) can0 09FD0202#D57700C770FAFFFF
(1571844967.080610) can0 09F10D01#FFFFFF7F0FDBFFFF
(1571844967.130612) can0 09F10D01#FFFFFF7F0FDBFFFF
(1571844967.166172) can0 09FD0202#D677002479FAFFFF
(1571844967.180612) can0 09F10D01#FFFFFF7F0FDBFFFF
(1571844967.230611) can0 09F10D01#FFFFFF7F0FDBFFFF
(1571844967.266373) can0 09FD0202#D777008981FAFFFF
(1571844967.280611) can0 09F10D01#FFFFFF7F0FDBFFFF
(1571844967.330618) can0 09F10D01#FFFFFF7F0FDBFFFF
(1571844967.366712) can0 09FD0202#D889008889FAFFFF
(1571844967.380617) can0 09F10D01#FFFFFF7F0FDBFFFF
(1571844967.430617) can0 09F10D01#FFFFFF7F0FDBFFFF
(1571844967.480615) can0 09F10D01#FFFFFF7F0FDBFFFF
(1571844967.491178) can0 09FD0202#D99B00DC90FAFFFF
(1571844967.530614) can0 09F10D01#FFFFFF7F0FDBFFFF
(1571844967.580616) can0 09F10D01#FFFFFF7F0FDBFFFF
(1571844967.591718) can0 09FD0202#DAAD006197FAFFFF
(1571844967.630613) can0 09F10D01#FFFFFF7F0FDBFFFF
(1571844967.680616) can0 09F10D01#FFFFFF7F0FDBFFFF
(1571844967.691122) can0 09FD0202#DBBF00519DFAFFFF
(1571844967.730619) can0 09F10D01#FFFFFF7F0FDBFFFF
(1571844967.780501) can0 09F10D01#FFFFFF7F0FDBFFFF
(1571844967.791718) can0 09FD0202#DCD200A9A2FAFFFF
(1571844967.816739) can0 1DF01102#60EAFCFFFFFFFFFF
(1571844967.830616) can0 09F10D01#FFFFFF7F0FDBFFFF
(1571844967.880616) can0 09F10D01#FFFFFF7F0FDBFFFF
(1571844967.891716) can0 09FD0202#DDE40049A7FAFFFF
(1571844967.930617) can0 09F10D01#FFFFFF7F0FDBFFFF
(1571844967.980510) can0 09F10D01#FFFFFF7F0FDBFFFF
(1571844967.991716) can0 09FD0202#DEF600F2AAFAFFFF
(1571844968.030620) can0 09F10D01#FFFFFF7F0FDBFFFF
(1571844968.080618) can0 09F10D01#FFFFFF7F0FDBFFFF
(1571844968.091717) can0 09FD0202#DF0801B1ADFAFFFF
(1571844968.130623) can0 09F10D01#FFFFFF7F0FDBFFFF
(1571844968.180500) can0 09F10D01#FFFFFF7F0FDBFFFF
(1571844968.191574) can0 09FD0202#E00801BFAFFAFFFF
(1571844968.230619) can0 09F10D01#FFFFFF7F0FDBFFFF
(1571844968.280620) can0 09F10D01#FFFFFF7F0FDBFFFF
(1571844968.316694) can0 09FD0202#E10801E2B0FAFFFF
(1571844968.330620) can0 09F10D01#FFFFFF7F0FDBFFFF
(1571844968.380622) can0 09F10D01#FFFFFF7F0FDBFFFF
(1571844968.416722) can0 09FD0202#E208013FB1FAFFFF
(1571844968.430620) can0 09F10D01#FFFFFF7F0FDBFFFF
(1571844968.480635) can0 09F10D01#FFFFFF7F0FDBFFFF
(1571844968.516138) can0 09FD0202#E30801E4B0FAFFFF
(1571844968.530620) can0 09F10D01#FFFFFF7F0FDBFFFF
(1571844968.580621) can0 09F10D01#FFFFFF7F0FDBFFFF
(1571844968.616699) can0 09FD0202#E40801CBAFFAFFFF
(1571844968.630622) can0 09F10D01#FFFFFF7F0FDBFFFF
(1571844968.680538) can0 09F10D01#FFFFFF7F0FDBFFFF
(1571844968.716672) can0 09FD0202#E508012DAEFAFFFF
(1571844968.730598) can0 09F10D01#FFFFFF7F0FDBFFFF
(1571844968.780606) can0 09F10D01#FFFFFF7F0FDBFFFF
(1571844968.816698) can0 09FD0202#E6080117ACFAFFFF
(1571844968.830599) can0 09F10D01#FFFFFF7F0FDBFFFF
(1571844968.880575) can0 09F10D01#FFFFFF7F0FDBFFFF
(1571844968.916700) can0 09FD0202#E708018AA9FAFFFF
(1571844968.930628) can0 09F10D01#FFFFFF7F0FDBFFFF
(1571844968.980434) can0 09F10D01#FFFFFF7F0FDBFFFF
(1571844969.030600) can0 09F10D01#FFFFFF7F0FDBFFFF
(1571844969.041458) can0 09FD0202#E8080182A6FAFFFF
(1571844969.080042) can0 09F10D01#FFFFFF7F0FDBFFFF
(1571844969.130068) can0 09F10D01#FFFFFF7F0FDBFFFF
(1571844969.141697) can0 09FD0202#E9E70004A3FAFFFF
(1571844969.180432) can0 09F10D01#FFFFFF7F0FDBFFFF
(1571844969.230601) can0 09F10D01#FFFFFF7F0FDBFFFF
(1571844969.241432) can0 09FD0202#EAC6001E9FFAFFFF
(1571844969.280603) can0 09F10D01#FFFFFF7F0FDBFFFF
(1571844969.330508) can0 09F10D01#FFFFFF7F0FDBFFFF
(1571844969.341647) can0 09FD0202#EBA500DD9AFAFFFF
(1571844969.379998) can0 09F10D01#FFFFFF7F0FDBFFFF
(1571844969.430610) can0 09F10D01#FFFFFF7F0FDBFFFF
(1571844969.441095) can0 09FD0202#EC84006096FAFFFF
(1571844969.480496) can0 09F10D01#FFFFFF7F0FDBFFFF
(1571844969.530604) can0 09F10D01#FFFFFF7F0FDBFFFF
(1571844969.541647) can0 09FD0202#ED6300C191FAFFFF
(1571844969.580606) can0 09F10D01#FFFFFF7F0FDBFFFF
(1571844969.630484) can0 09F10D01#FFFFFF7F0FDBFFFF
(1571844969.641549) can0 09FD0202#EE47000B8DFAFFFF
(1571844969.680495) can0 09F10D01#FFFFFF7F0FDBFFFF
(1571844969.730627) can0 09F10D01#FFFFFF7F0FDBFFFF
(1571844969.741650) can0 09FD0202#EF2B004288FAFFFF
(1571844969.780499) can0 09F10D01#FFFFFF7F0FDBFFFF
(1571844969.830607) can0 09F10D01#FFFFFF7F0FDBFFFF
(1571844969.866632) can0 09FD0202#F010007A83FAFFFF
(1571844969.880609) can0 09F10D01#FFFFFF7F0FDBFFFF
(1571844969.930610) can0 09F10D01#FFFFFF7F0FDBFFFF
(1571844969.966633) can0 09FD0202#F11500807EFAFFFF
(1571844969.980608) can0 09F10D01#FFFFFF7F0FDBFFFF
(1571844970.030609) can0 09F10D01#FFFFFF7F0FDBFFFF
(1571844970.066634) can0 09FD0202#F21B005079FAFFFF
(1571844970.080609) can0 09F10D01#FFFFFF7F0FDBFFFF
(1571844970.130608) can0 09F10D01#FFFFFF7F0FDBFFFF
(1571844970.166634) can0 09FD0202#F383003D74FAFFFF
(1571844970.180400) can0 09F10D01#FFFFFF7F25DBFFFF
(1571844970.230612) can0 09F10D01#FFFFFF7F21DBFFFF
(1571844970.266662) can0 09FD0202#F4EC00C86FFAFFFF
(1571844970.280503) can0 09F10D01#FFFFFF7F25DBFFFF
(1571844970.330612) can0 09F10D01#FFFFFF7F66DBFFFF
(1571844970.366635) can0 09FD0202#F53E01D96BFAFFFF
(1571844970.380506) can0 09F10D01#FFFFFF7F1DDCFFFF
(1571844970.430616) can0 09F10D01#FFFFFF7FADDDFFFF
(1571844970.466636) can0 09FD0202#F68C017568FAFFFF
(1571844970.480612) can0 09F10D01#FFFFFF7FE8DFFFFF
(1571844970.530612) can0 09F10D01#FFFFFF7F4EE2FFFF
(1571844970.566637) can0 09FD0202#F7D001B165FAFFFF
(1571844970.580612) can0 09F10D01#FFFFFF7F09E5FFFF
(1571844970.630615) can0 09F10D01#FFFFFF7F4BE8FFFF
(1571844970.680514) can0 09F10D01#FFFFFF7F7CEBFFFF
(1571844970.691075) can0 09FD0202#F814023E62FAFFFF
(1571844970.730618) can0 09F10D01#FFFFFF7FB9EFFFFF
(1571844970.780505) can0 09F10D01#FFFFFF7FB3F3FFFF
(1571844970.791467) can0 09FD0202#F94E021460FAFFFF
(1571844970.830438) can0 09F10D01#FFFFFF7F3BF7FFFF
(1571844970.880449) can0 09F10D01#FFFFFF7F09FBFFFF
(1571844970.891443) can0 09FD0202#FA8702FF5EFAFFFF
(1571844970.930487) can0 09F10D01#FFFFFF7F17FEFFFF
(1571844970.980661) can0 09F10D01#FFFFFF7F4C01FFFF
(1571844970.991488) can0 09FD0202#005602C95EFAFFFF
(1571844971.030616) can0 09F10D01#FFFFFF7F8304FFFF
(1571844971.080793) can0 09F10D01#FFFFFF7F2608FFFF
(1571844971.091054) can0 09FD0202#0125025D5FFAFFFF
(1571844971.130616) can0 09F10D01#FFFFFF7FF20CFFFF
(1571844971.180791) can0 09F10D01#FFFFFF7F3210FFFF
(1571844971.191617) can0 09FD0202#0209029E60FAFFFF
(1571844971.230595) can0 09F10D01#FFFFFF7F8213FFFF
(1571844971.280818) can0 09F10D01#FFFFFF7F5C17FFFF
(1571844971.291617) can0 09FD0202#03E601CE61FAFFFF
(1571844971.330594) can0 09F10D01#FFFFFF7F381BFFFF
(1571844971.380794) can0 09F10D01#FFFFFF7F7B1EFFFF
(1571844971.391593) can0 09FD0202#04CC017663FAFFFF
(1571844971.430593) can0 09F10D01#FFFFFF7FD421FFFF
(1571844971.480484) can0 09F10D01#FFFFFF7F9425FFFF
(1571844971.516347) can0 09FD0202#05B3018965FAFFFF
(1571844971.530596) can0 09F10D01#FFFFFF7F5429FFFF
(1571844971.580794) can0 09F10D01#FFFFFF7F482DFFFF
(1571844971.616597) can0 09FD0202#069D01FA67FAFFFF
(1571844971.630621) can0 09F10D01#FFFFFF7FEC31FFFF
(1571844971.680795) can0 09F10D01#FFFFFF7F6A36FFFF
(1571844971.716589) can0 09FD0202#078801B76AFAFFFF
(1571844971.730582) can0 09F10D01#FFFFFF7F5F3BFFFF
(1571844971.780719) can0 09F10D01#FFFFFF7F0341FFFF
(1571844971.816600) can0 09FD0202#087A018B6DFAFFFF
(1571844971.830796) can0 09F10D01#FFFFFF7FF046FFFF
(1571844971.880798) can0 09F10D01#FFFFFF7FDD4CFFFF
(1571844971.916597) can0 09FD0202#096D014D70FAFFFF
(1571844971.930797) can0 09F10D01#FFFFFF7F3853FFFF
(1571844971.980799) can0 09F10D01#FFFFFF7F6659FFFF
(1571844972.016467) can0 09FD0202#0A5C013273FAFFFF
(1571844972.030606) can0 09F10D01#FFFFFF7F495FFFFF
(1571844972.080799) can0 09F10D01#FFFFFF7F4666FFFF
(1571844972.116549) can0 09FD0202#0B53016C76FAFFFF
(1571844972.130601) can0 09F10D01#FFFFFF7F306CFFFF
(1571844972.180800) can0 09F10D01#FFFFFF7FC06EFFFF
(1571844972.216575) can0 09FD0202#0C49011E7AFAFFFF
(1571844972.230600) can0 09F10D01#FFFFFF7FFC70FFFF
(1571844972.280728) can0 09F10D01#FFFFFF7F0071FFFF
(1571844972.330806) can0 09F10D01#FFFFFF7F9142FFFF
(1571844972.341577) can0 09FD0202#0D4001127EFAFFFF
(1571844972.380233) can0 09F10D01#FFFFFF7F978EFFFF
(1571844972.430225) can0 09F10D01#FFFFFF7FC58DFFFF
(1571844972.441375) can0 09FD0202#0E3D01E081FAFFFF
(1571844972.479848) can0 09F10D01#FFFFFF7FF594FFFF
(1571844972.530270) can0 09F10D01#FFFFFF7F379CFFFF
(1571844972.541428) can0 09FD0202#0F34015F85FAFFFF
(1571844972.580417) can0 09F10D01#FFFFFF7F30A3FFFF
(1571844972.630399) can0 09F10D01#FFFFFF7F58AAFFFF
(1571844972.641572) can0 09FD0202#102B010E89FAFFFF
(1571844972.680499) can0 09F10D01#FFFFFF7F19B0FFFF
(1571844972.730401) can0 09F10D01#FFFFFF7F9DB4FFFF
(1571844972.741574) can0 09FD0202#1123013F8DFAFFFF
(1571844972.780470) can0 09F10D01#FFFFFF7F97B8FFFF
(1571844972.830580) can0 09F10D01#FFFFFF7FD3BCFFFF
(1571844972.841554) can0 09FD0202#121D019C91FAFFFF
(1571844972.880606) can0 09F10D01#FFFFFF7F52C1FFFF
(1571844972.930620) can0 09F10D01#FFFFFF7F52C5FFFF
(1571844972.941557) can0 09FD0202#1317010596FAFFFF
(1571844972.980508) can0 09F10D01#FFFFFF7FB3C9FFFF
(1571844973.030607) can0 09F10D01#FFFFFF7F4ECEFFFF
(1571844973.066559) can0 09FD0202#140D01669AFAFFFF
(1571844973.080508) can0 09F10D01#FFFFFF7F85D3FFFF
(1571844973.130609) can0 09F10D01#FFFFFF7F9FD8FFFF
(1571844973.166532) can0 09FD0202#1502018F9EFAFFFF
(1571844973.180582) can0 09F10D01#FFFFFF7FFEDCFFFF
(1571844973.230584) can0 09F10D01#FFFFFF7F0AE0FFFF
(1571844973.266560) can0 09FD0202#16F800A1A2FAFFFF
(1571844973.280506) can0 09F10D01#FFFFFF7F97E0FFFF
(1571844973.330585) can0 09F10D01#FFFFFF7F96E0FFFF
(1571844973.366533) can0 09FD0202#17F30078A7FAFFFF
(1571844973.380584) can0 09F10D01#FFFFFF7F96E0FFFF
(1571844973.430615) can0 09F10D01#FFFFFF7F92E0FFFF
(1571844973.466534) can0 09FD0202#18EE0053ADFAFFFF
(1571844973.480612) can0 09F10D01#FFFFFF7F70E0FFFF
(1571844973.530611) can0 09F10D01#FFFFFF7F32E0FFFF
(1571844973.566296) can0 09FD0202#19EA0035B3FAFFFF
(1571844973.580611) can0 09F10D01#FFFFFF7FE6DFFFFF
(1571844973.630613) can0 09F10D01#FFFFFF7F7FDFFFFF
(1571844973.666523) can0 09FD0202#1AE4003DB7FAFFFF
(1571844973.680488) can0 09F10D01#FFFFFF7F76DFFFFF
(1571844973.730587) can0 09F10D01#FFFFFF7FE8DFFFFF
(1571844973.766337) can0 09FD0202#1BD80070B9FAFFFF
(1571844973.780477) can0 09F10D01#FFFFFF7F8CE1FFFF
(1571844973.830470) can0 09F10D01#FFFFFF7F90E5FFFF
(1571844973.880615) can0 09F10D01#FFFFFF7F17EBFFFF
(1571844973.890980) can0 09FD0202#1CD10003BAFAFFFF
(1571844973.930614) can0 09F10D01#FFFFFF7FE9F0FFFF
(1571844973.980516) can0 09F10D01#FFFFFF7F25F7FFFF
(1571844973.991514) can0 09FD0202#1DCA0004B9FAFFFF
(1571844974.030600) can0 09F10D01#FFFFFF7FBBFCFFFF
(1571844974.080793) can0 09F10D01#FFFFFF7F2403FFFF
(1571844974.091513) can0 09FD0202#1EC2008CB6FAFFFF
(1571844974.130590) can0 09F10D01#FFFFFF7F710AFFFF
(1571844974.180790) can0 09F10D01#FFFFFF7F8410FFFF
(1571844974.191519) can0 09FD0202#1FBB00CDB2FAFFFF
(1571844974.230590) can0 09F10D01#FFFFFF7F3118FFFF
(1571844974.280723) can0 09F10D01#FFFFFF7F1C20FFFF
(1571844974.290953) can0 09FD0202#20B400E2ADFAFFFF
(1571844974.330592) can0 09F10D01#FFFFFF7F4C26FFFF
(1571844974.380792) can0 09F10D01#FFFFFF7F0B2CFFFF
(1571844974.391518) can0 09FD0202#21AC00F7A7FAFFFF
(1571844974.430792) can0 09F10D01#FFFFFF7F0431FFFF
(1571844974.480720) can0 09F10D01#FFFFFF7F0236FFFF
(1571844974.491522) can0 09FD0202#22A50051A1FAFFFF
(1571844974.530618) can0 09F10D01#FFFFFF7F9F3AFFFF
(1571844974.580793) can0 09F10D01#FFFFFF7FB13FFFFF
(1571844974.591493) can0 09FD0202#23A400399AFAFFFF
(1571844974.630796) can0 09F10D01#FFFFFF7F9145FFFF
(1571844974.680517) can0 09F10D01#FFFFFF7F8B4CFFFF
(1571844974.716293) can0 09FD0202#24A400CA92FAFFFF
(1571844974.730678) can0 09F10D01#FFFFFF7FBB53FFFF
(1571844974.780725) can0 09F10D01#FFFFFF7FAE5BFFFF
(1571844974.816473) can0 09FD0202#25A4001D8BFAFFFF
(1571844974.830596) can0 09F10D01#FFFFFF7F9E64FFFF
(1571844974.880727) can0 09F10D01#FFFFFF7FF36EFFFF
(1571844974.916351) can0 09FD0202#26A3005683FAFFFF
(1571844974.930604) can0 09F10D01#FFFFFF7FB467FFFF
(1571844974.980796) can0 09F10D01#FFFFFF7FFC70FFFF
(1571844975.016497) can0 09FD0202#27A300B87BFAFFFF
(1571844975.030368) can0 09F10D01#FFFFFF7F5C90FFFF
(1571844975.080398) can0 09F10D01#FFFFFF7FF298FFFF
(1571844975.116480) can0 09FD0202#28A2006474FAFFFF
(1571844975.130399) can0 09F10D01#FFFFFF7FEDA0FFFF
(1571844975.180458) can0 09F10D01#FFFFFF7FBDA7FFFF
(1571844975.216448) can0 09FD0202#29A200736DFAFFFF
(1571844975.230399) can0 09F10D01#FFFFFF7F15AEFFFF
(1571844975.280486) can0 09F10D01#FFFFFF7F1CB4FFFF
(1571844975.316448) can0 09FD0202#2AA1001867FAFFFF
(1571844975.330574) can0 09F10D01#FFFFFF7FC5B9FFFF
(1571844975.380601) can0 09F10D01#FFFFFF7F4FBFFFFF
(1571844975.416449) can0 09FD0202#2BA1006461FAFFFF
(1571844975.430582) can0 09F10D01#FFFFFF7F15C5FFFF
(1571844975.480602) can0 09F10D01#FFFFFF7FBECAFFFF
(1571844975.530601) can0 09F10D01#FFFFFF7F77D0FFFF
(1571844975.541472) can0 09FD0202#2CA100355CFAFFFF
(1571844975.580579) can0 09F10D01#FFFFFF7FC3D5FFFF
(1571844975.630576) can0 09F10D01#FFFFFF7F55DAFFFF
(1571844975.641451) can0 09FD0202#2DA1007357FAFFFF
(1571844975.680585) can0 09F10D01#FFFFFF7F8DDEFFFF
(1571844975.730514) can0 09F10D01#FFFFFF7FB3E2FFFF
(1571844975.741447) can0 09FD0202#2E9E00D752FAFFFF
(1571844975.780492) can0 09F10D01#FFFFFF7F7CE6FFFF
(1571844975.830317) can0 09F10D01#FFFFFF7FBFE9FFFF
(1571844975.841453) can0 09FD0202#2F9B005E4EFAFFFF
(1571844975.880607) can0 09F10D01#FFFFFF7F3BECFFFF
(1571844975.930041) can0 09F10D01#FFFFFF7F2EEEFFFF
(1571844975.941473) can0 09FD0202#309800454AFAFFFF
(1571844975.980607) can0 09F10D01#FFFFFF7F66EFFFFF
(1571844976.030607) can0 09F10D01#FFFFFF7F7FF0FFFF
(1571844976.041450) can0 09FD0202#3194009146FAFFFF
(1571844976.080503) can0 09F10D01#FFFFFF7F5FF1FFFF
(1571844976.130580) can0 09F10D01#FFFFFF7F85F2FFFF
(1571844976.141432) can0 09FD0202#329100F342FAFFFF
(1571844976.180607) can0 09F10D01#FFFFFF7F86F5FFFF
(1571844976.230581) can0 09F10D01#FFFFFF7FCDF9FFFF
(1571844976.241455) can0 09FD0202#338E004F3FFAFFFF
(1571844976.280711) can0 09F10D01#FFFFFF7FFEFDFFFF
(1571844976.330582) can0 09F10D01#FFFFFF7FAB02FFFF
(1571844976.366434) can0 09FD0202#348B00CC3BFAFFFF
(1571844976.380807) can0 09F10D01#FFFFFF7FF206FFFF
(1571844976.430609) can0 09F10D01#FFFFFF7FE20CFFFF
(1571844976.466432) can0 09FD0202#3588007D38FAFFFF
(1571844976.480785) can0 09F10D01#FFFFFF7F6314FFFF
(1571844976.530543) can0 09F10D01#FFFFFF7F5E1BFFFF
(1571844976.566443) can0 09FD0202#3688004635FAFFFF
(1571844976.580205) can0 09F10D01#FFFFFF7F9421FFFF
(1571844976.630585) can0 09F10D01#FFFFFF7FE727FFFF
(1571844976.666406) can0 09FD0202#3788003232FAFFFF
(1571844976.680714) can0 09F10D01#FFFFFF7F832CFFFF
(1571844976.730584) can0 09F10D01#FFFFFF7F7130FFFF
(1571844976.766432) can0 09FD0202#388800AB2FFAFFFF
(1571844976.780711) can0 09F10D01#FFFFFF7FF534FFFF
(1571844976.830595) can0 09F10D01#FFFFFF7F3739FFFF
(1571844976.866407) can0 09FD0202#398700BF2DFAFFFF
(1571844976.880753) can0 09F10D01#FFFFFF7F463DFFFF
(1571844976.930800) can0 09F10D01#FFFFFF7FFE41FFFF
(1571844976.966431) can0 09FD0202#3A8600622CFAFFFF
(1571844976.980787) can0 09F10D01#FFFFFF7F7847FFFF
(1571844977.030647) can0 09F10D01#FFFFFF7F1B4EFFFF
(1571844977.080788) can0 09F10D01#FFFFFF7FDE54FFFF
(1571844977.091417) can0 09FD0202#3B85006F2BFAFFFF
(1571844977.130566) can0 09F10D01#FFFFFF7F685DFFFF
(1571844977.180654) can0 09F10D01#FFFFFF7F3466FFFF
(1571844977.191415) can0 09FD0202#3C8400C62AFAFFFF
(1571844977.230589) can0 09F10D01#FFFFFF7F0E70FFFF
(1571844977.280701) can0 09F10D01#FFFFFF7FFA58FFFF
(1571844977.290952) can0 09FD0202#3D8300602AFAFFFF
(1571844977.330385) can0 09F10D01#FFFFFF7F298DFFFF
(1571844977.380390) can0 09F10D01#FFFFFF7F4F92FFFF
(1571844977.390769) can0 09FD0202#3E8200352AFAFFFF
(1571844977.430392) can0 09F10D01#FFFFFF7F339CFFFF
(1571844977.480591) can0 09F10D01#FFFFFF7F33A5FFFF
(1571844977.491161) can0 09FD0202#3F81005B2AFAFFFF
(1571844977.529836) can0 09F10D01#FFFFFF7F79AEFFFF
(1571844977.580594) can0 09F10D01#FFFFFF7F9FB6FFFF
(1571844977.591397) can0 09FD0202#408100B82AFAFFFF
(1571844977.630591) can0 09F10D01#FFFFFF7F54BDFFFF
(1571844977.680484) can0 09F10D01#FFFFFF7F1FC3FFFF
(1571844977.691392) can0 09FD0202#418100512BFAFFFF
(1571844977.730602) can0 09F10D01#FFFFFF7FE9C7FFFF
(1571844977.780513) can0 09F10D01#FFFFFF7F0ACCFFFF
(1571844977.790947) can0 09FD0202#428100FC2BFAFFFF
(1571844977.830599) can0 09F10D01#FFFFFF7FF2CFFFFF
(1571844977.880594) can0 09F10D01#FFFFFF7F67D4FFFF
(1571844977.916368) can0 09FD0202#438100A62CFAFFFF
(1571844977.930568) can0 09F10D01#FFFFFF7F5DD9FFFF
(1571844977.980471) can0 09F10D01#FFFFFF7F8DDEFFFF
(1571844978.016224) can0 09FD0202#448500522DFAFFFF
(1571844978.030346) can0 09F10D01#FFFFFF7FD5E3FFFF
(1571844978.080419) can0 09F10D01#FFFFFF7F19EAFFFF
(1571844978.116199) can0 09FD0202#458A00F02DFAFFFF
(1571844978.130400) can0 09F10D01#FFFFFF7FF0F1FFFF
(1571844978.179990) can0 09F10D01#FFFFFF7F18FAFFFF
(1571844978.216242) can0 09FD0202#46D700862EFAFFFF
(1571844978.230469) can0 09F10D01#FFFFFF7F4801FFFF
(1571844978.280444) can0 09F10D01#FFFFFF7F9C07FFFF
(1571844978.316175) can0 09FD0202#471701F42EFAFFFF
(1571844978.330572) can0 09F10D01#FFFFFF7FE50CFFFF
(1571844978.380626) can0 09F10D01#FFFFFF7FCE12FFFF
(1571844978.416373) can0 09FD0202#485801492FFAFFFF
(1571844978.430574) can0 09F10D01#FFFFFF7F6B19FFFF
(1571844978.480595) can0 09F10D01#FFFFFF7F6A20FFFF
(1571844978.516351) can0 09FD0202#498E01962FFAFFFF
(1571844978.530019) can0 09F10D01#FFFFFF7F0927FFFF
(1571844978.580773) can0 09F10D01#FFFFFF7FF02DFFFF
(1571844978.616373) can0 09FD0202#4AC401E62FFAFFFF
(1571844978.630469) can0 09F10D01#FFFFFF7F8134FFFF
(1571844978.680747) can0 09F10D01#FFFFFF7F6A3AFFFF
(1571844978.730775) can0 09F10D01#FFFFFF7F6D41FFFF
(1571844978.741350) can0 09FD0202#4BFA013A30FAFFFF
(1571844978.780776) can0 09F10D01#FFFFFF7F7948FFFF
(1571844978.830775) can0 09F10D01#FFFFFF7FB84FFFFF
(1571844978.841326) can0 09FD0202#4C2102AD30FAFFFF
(1571844978.880732) can0 09F10D01#FFFFFF7F6E56FFFF
(1571844978.930457) can0 09F10D01#FFFFFF7FAA5EFFFF
(1571844978.941207) can0 09FD0202#4D4902FD30FAFFFF
(1571844978.980777) can0 09F10D01#FFFFFF7FA667FFFF
(1571844979.030579) can0 09F10D01#FFFFFF7F3570FFFF
(1571844979.041322) can0 09FD0202#4E22023031FAFFFF
(1571844979.080547) can0 09F10D01#FFFFFF7F836CFFFF
(1571844979.130578) can0 09F10D01#FFFFFF7F1F1DFFFF
(1571844979.141353) can0 09FD0202#4F06025A31FAFFFF
(1571844979.180442) can0 09F10D01#FFFFFF7F0071FFFF
(1571844979.230385) can0 09F10D01#FFFFFF7F2D8DFFFF
(1571844979.241333) can0 09FD0202#50EA017631FAFFFF
(1571844979.280134) can0 09F10D01#FFFFFF7FDB90FFFF
(1571844979.330377) can0 09F10D01#FFFFFF7F3B96FFFF
(1571844979.341139) can0 09FD0202#51D1018431FAFFFF
(1571844979.380382) can0 09F10D01#FFFFFF7F5F9CFFFF
(1571844979.430380) can0 09F10D01#FFFFFF7F91A2FFFF
(1571844979.441355) can0 09FD0202#52B8013031FAFFFF
(1571844979.480451) can0 09F10D01#FFFFFF7FD2A7FFFF
(1571844979.530391) can0 09F10D01#FFFFFF7F18ACFFFF
(1571844979.566334) can0 09FD0202#53A001182EFAFFFF
(1571844979.580479) can0 09F10D01#FFFFFF7F0AAFFFFF
(1571844979.630384) can0 09F10D01#FFFFFF7F3FB1FFFF
(1571844979.666307) can0 09FD0202#549101D628FAFFFF
(1571844979.680583) can0 09F10D01#FFFFFF7F00B3FFFF
(1571844979.730384) can0 09F10D01#FFFFFF7F34B4FFFF
(1571844979.766334) can0 09FD0202#557C01B620FAFFFF
(1571844979.780419) can0 09F10D01#FFFFFF7F45B5FFFF
(1571844979.830467) can0 09F10D01#FFFFFF7FF6B6FFFF
(1571844979.866190) can0 09FD0202#566F012616FAFFFF
(1571844979.880559) can0 09F10D01#FFFFFF7F8ABBFFFF
(1571844979.930559) can0 09F10D01#FFFFFF7F4BC3FFFF
(1571844979.966337) can0 09FD0202#5762019E09FAFFFF
(1571844979.980587) can0 09F10D01#FFFFFF7F17CDFFFF
(1571844980.030562) can0 09F10D01#FFFFFF7FA2D6FFFF
(1571844980.066297) can0 09FD0202#585501F3F0FAFFFF
(1571844980.080576) can0 09F10D01#FFFFFF7FDFDEFFFF
(1571844980.130570) can0 09F10D01#FFFFFF7FECE6FFFF
(1571844980.166273) can0 09FD0202#594A019AE1FAFFFF
(1571844980.180474) can0 09F10D01#FFFFFF7F8AECFFFF
(1571844980.230578) can0 09F10D01#FFFFFF7F8CEFFFFF
(1571844980.266302) can0 09FD0202#5A3F0144D1FAFFFF
(1571844980.280578) can0 09F10D01#FFFFFF7F19F2FFFF
(1571844980.330354) can0 09F10D01#FFFFFF7FF2F3FFFF
(1571844980.380591) can0 09F10D01#FFFFFF7FCEF5FFFF
(1571844980.391312) can0 09FD0202#5B340134C0FAFFFF
(1571844980.430588) can0 09F10D01#FFFFFF7FE7F6FFFF
(1571844980.480588) can0 09F10D01#FFFFFF7FE7F6FFFF
(1571844980.491314) can0 09FD0202#5C2901A7AEFAFFFF
(1571844980.530590) can0 09F10D01#FFFFFF7FE5F6FFFF
(1571844980.580591) can0 09F10D01#FFFFFF7FE7F6FFFF
(1571844980.591289) can0 09FD0202#5D2401B49CFAFFFF
(1571844980.630565) can0 09F10D01#FFFFFF7FD9F6FFFF
(1571844980.680480) can0 09F10D01#FFFFFF7FBFF6FFFF
(1571844980.691292) can0 09FD0202#5E1B016E8AFAFFFF
(1571844980.730565) can0 09F10D01#FFFFFF7FC3F6FFFF
(1571844980.780594) can0 09F10D01#FFFFFF7FBDF6FFFF
(1571844980.790953) can0 09FD0202#5F1201527CFAFFFF
(1571844980.830573) can0 09F10D01#FFFFFF7FBDF6FFFF
(1571844980.880591) can0 09F10D01#FFFFFF7FE9F5FFFF
(1571844980.891293) can0 09FD0202#6008010A72FAFFFF
(1571844980.930569) can0 09F10D01#FFFFFF7FCFF1FFFF
(1571844980.980566) can0 09F10D01#FFFFFF7F85EAFFFF
(1571844980.991306) can0 09FD0202#610401D56AFAFFFF
(1571844981.030569) can0 09F10D01#FFFFFF7F94E3FFFF
(1571844981.080569) can0 09F10D01#FFFFFF7FA6DCFFFF
(1571844981.116267) can0 09FD0202#6200011466FAFFFF
(1571844981.130575) can0 09F10D01#FFFFFF7FA4D5FFFF
(1571844981.180569) can0 09F10D01#FFFFFF7F1BCFFFFF
(1571844981.216269) can0 09FD0202#63F8004C63FAFFFF
(1571844981.230572) can0 09F10D01#FFFFFF7F76C9FFFF
(1571844981.280569) can0 09F10D01#FFFFFF7F7EC5FFFF
(1571844981.316270) can0 09FD0202#64F0002562FAFFFF
(1571844981.330569) can0 09F10D01#FFFFFF7FF6BFFFFF
(1571844981.380570) can0 09F10D01#FFFFFF7F2FBBFFFF
(1571844981.416084) can0 09FD0202#65E9005D62FAFFFF
(1571844981.430572) can0 09F10D01#FFFFFF7F8FB8FFFF
(1571844981.480572) can0 09F10D01#FFFFFF7FDEB5FFFF
(1571844981.516271) can0 09FD0202#66E5009E63FAFFFF
(1571844981.530396) can0 09F10D01#FFFFFF7F87B2FFFF
(1571844981.580573) can0 09F10D01#FFFFFF7F86AEFFFF
(1571844981.616277) can0 09FD0202#67E100AF65FAFFFF
(1571844981.630375) can0 09F10D01#FFFFFF7F4AABFFFF
(1571844981.680572) can0 09F10D01#FFFFFF7FF8A6FFFF
(1571844981.716104) can0 09FD0202#68DD006668FAFFFF
(1571844981.730257) can0 09F10D01#FFFFFF7F05A3FFFF
(1571844981.780374) can0 09F10D01#FFFFFF7F749EFFFF
(1571844981.816249) can0 09FD0202#69DA00916BFAFFFF
(1571844981.830370) can0 09F10D01#FFFFFF7F189AFFFF
(1571844981.879909) can0 09F10D01#FFFFFF7F3995FFFF
(1571844981.930374) can0 09F10D01#FFFFFF7FF28FFFFF
(1571844981.941252) can0 09FD0202#6AD2001F6FFAFFFF
(1571844981.980373) can0 09F10D01#FFFFFF7F2D8DFFFF
(1571844982.030576) can0 09F10D01#FFFFFF7F0071FFFF
(1571844982.041014) can0 09FD0202#6BCF00FA72FAFFFF
(1571844982.080378) can0 09F10D01#FFFFFF7F438DFFFF
(1571844982.130578) can0 09F10D01#FFFFFF7F0071FFFF
(1571844982.141249) can0 09FD0202#6CCC000977FAFFFF
(1571844982.180778) can0 09F10D01#FFFFFF7F8C6DFFFF
(1571844982.230576) can0 09F10D01#FFFFFF7FFA67FFFF
(1571844982.241256) can0 09FD0202#6DC9002E7BFAFFFF
(1571844982.280785) can0 09F10D01#FFFFFF7F6063FFFF
(1571844982.330577) can0 09F10D01#FFFFFF7FEF5EFFFF
(1571844982.341240) can0 09FD0202#6EC500397FFAFFFF
(1571844982.380753) can0 09F10D01#FFFFFF7F5A5AFFFF
(1571844982.430576) can0 09F10D01#FFFFFF7FD555FFFF
(1571844982.441255) can0 09FD0202#6FC200E982FAFFFF
(1571844982.480779) can0 09F10D01#FFFFFF7FFF51FFFF
(1571844982.530780) can0 09F10D01#FFFFFF7F7C4EFFFF
(1571844982.541231) can0 09FD0202#70BE000E86FAFFFF
(1571844982.580758) can0 09F10D01#FFFFFF7F7D4AFFFF
(1571844982.630599) can0 09F10D01#FFFFFF7FE144FFFF
(1571844982.641230) can0 09FD0202#71BB00B588FAFFFF
(1571844982.680766) can0 09F10D01#FFFFFF7FA33FFFFF
(1571844982.730578) can0 09F10D01#FFFFFF7F0C3AFFFF
(1571844982.766230) can0 09FD0202#72B900DC8AFAFFFF
(1571844982.780629) can0 09F10D01#FFFFFF7FFD34FFFF
(1571844982.830581) can0 09F10D01#FFFFFF7F5031FFFF
(1571844982.866232) can0 09FD0202#73B600838CFAFFFF
(1571844982.880148) can0 09F10D01#FFFFFF7FE72DFFFF
(1571844982.930557) can0 09F10D01#FFFFFF7F022BFFFF
(1571844982.966235) can0 09FD0202#74B400968DFAFFFF
(1571844982.980408) can0 09F10D01#FFFFFF7F1228FFFF
(1571844983.030558) can0 09F10D01#FFFFFF7F3525FFFF
(1571844983.066231) can0 09FD0202#75B1002E8EFAFFFF
(1571844983.080758) can0 09F10D01#FFFFFF7F7D23FFFF
(1571844983.130558) can0 09F10D01#FFFFFF7FA920FFFF
(1571844983.166233) can0 09FD0202#76AE003B8EFAFFFF
(1571844983.180759) can0 09F10D01#FFFFFF7FBA1DFFFF
(1571844983.230557) can0 09F10D01#FFFFFF7F211BFFFF
(1571844983.266236) can0 09FD0202#77AC00AB8DFAFFFF
(1571844983.280758) can0 09F10D01#FFFFFF7F2818FFFF
(1571844983.330560) can0 09F10D01#FFFFFF7F8C15FFFF
(1571844983.366234) can0 09FD0202#78A900818CFAFFFF
(1571844983.380763) can0 09F10D01#FFFFFF7F5812FFFF
(1571844983.430561) can0 09F10D01#FFFFFF7F5E0EFFFF
(1571844983.466235) can0 09FD0202#79A700A68AFAFFFF
(1571844983.480763) can0 09F10D01#FFFFFF7F0B0AFFFF
(1571844983.530562) can0 09F10D01#FFFFFF7FED04FFFF
(1571844983.580762) can0 09F10D01#FFFFFF7FB502FFFF
(1571844983.591239) can0 09FD0202#7AA7002E88FAFFFF
(1571844983.630562) can0 09F10D01#FFFFFF7FBB02FFFF
(1571844983.680762) can0 09F10D01#FFFFFF7FC302FFFF
(1571844983.691236) can0 09FD0202#7BA7009485FAFFFF
(1571844983.730564) can0 09F10D01#FFFFFF7FBF02FFFF
(1571844983.780685) can0 09F10D01#FFFFFF7FC302FFFF
(1571844983.791246) can0 09FD0202#7CA5002183FAFFFF
(1571844983.830563) can0 09F10D01#FFFFFF7FC502FFFF
(1571844983.880764) can0 09F10D01#FFFFFF7FBF02FFFF
(1571844983.891238) can0 09FD0202#7DA200DF80FAFFFF
(1571844983.930565) can0 09F10D01#FFFFFF7FD302FFFF
(1571844983.980766) can0 09F10D01#FFFFFF7F0003FFFF
(1571844983.991241) can0 09FD0202#7E9F009E7EFAFFFF
(1571844984.030565) can0 09F10D01#FFFFFF7F0003FFFF
(1571844984.080649) can0 09F10D01#FFFFFF7F0003FFFF
(1571844984.091242) can0 09FD0202#7F9D00407CFAFFFF
(1571844984.130566) can0 09F10D01#FFFFFF7FFC02FFFF
(1571844984.180768) can0 09F10D01#FFFFFF7F0003FFFF
(1571844984.191211) can0 09FD0202#809B00E679FAFFFF
(1571844984.230565) can0 09F10D01#FFFFFF7F0003FFFF
(1571844984.280767) can0 09F10D01#FFFFFF7F0003FFFF
(1571844984.290842) can0 09FD0202#8198009D77FAFFFF
(1571844984.330393) can0 09F10D01#FFFFFF7F0003FFFF
(1571844984.380597) can0 09F10D01#FFFFFF7F0003FFFF
(1571844984.415992) can0 09FD0202#8296005F75FAFFFF
(1571844984.430439) can0 09F10D01#FFFFFF7F0003FFFF
(1571844984.480638) can0 09F10D01#FFFFFF7F0003FFFF
(1571844984.516017) can0 09FD0202#8393001173FAFFFF
(1571844984.530595) can0 09F10D01#FFFFFF7F0003FFFF
(1571844984.580771) can0 09F10D01#FFFFFF7F0003FFFF
(1571844984.616168) can0 09FD0202#8493008170FAFFFF
(1571844984.630569) can0 09F10D01#FFFFFF7F0003FFFF
(1571844984.680694) can0 09F10D01#FFFFFF7F0003FFFF
(1571844984.716169) can0 09FD0202#8593009D6DFAFFFF
(1571844984.730571) can0 09F10D01#FFFFFF7F0003FFFF
(1571844984.780772) can0 09F10D01#FFFFFF7F0003FFFF
(1571844984.815943) can0 09FD0202#869300CC6AFAFFFF
(1571844984.830571) can0 09F10D01#FFFFFF7F0003FFFF
(1571844984.880771) can0 09F10D01#FFFFFF7F0003FFFF
(1571844984.915972) can0 09FD0202#8793001968FAFFFF
(1571844984.930374) can0 09F10D01#FFFFFF7F0003FFFF
(1571844984.980655) can0 09F10D01#FFFFFF7F0003FFFF
(1571844985.016123) can0 09FD0202#8893008E65FAFFFF
(1571844985.030549) can0 09F10D01#FFFFFF7F0003FFFF
(1571844985.080750) can0 09F10D01#FFFFFF7F0003FFFF
(1571844985.130549) can0 09F10D01#FFFFFF7F0003FFFF
(1571844985.141147) can0 09FD0202#8990003463FAFFFF
(1571844985.180750) can0 09F10D01#FFFFFF7F0003FFFF
(1571844985.230549) can0 09F10D01#FFFFFF7F0003FFFF
(1571844985.241125) can0 09FD0202#8A8C00E260FAFFFF
(1571844985.280756) can0 09F10D01#FFFFFF7F0003FFFF
(1571844985.330549) can0 09F10D01#FFFFFF7F0003FFFF
(1571844985.341125) can0 09FD0202#8B8900D75EFAFFFF
(1571844985.380708) can0 09F10D01#FFFFFF7F0003FFFF
(1571844985.430543) can0 09F10D01#FFFFFF7F0003FFFF
(1571844985.441099) can0 09FD0202#8C8600E05CFAFFFF
(1571844985.480670) can0 09F10D01#FFFFFF7F0003FFFF
(1571844985.530551) can0 09F10D01#FFFFFF7F0003FFFF
(1571844985.541140) can0 09FD0202#8D82005E5AFAFFFF
(1571844985.580753) can0 09F10D01#FFFFFF7F0003FFFF
(1571844985.630555) can0 09F10D01#FFFFFF7F0003FFFF
(1571844985.641159) can0 09FD0202#8E7F002457FAFFFF
(1571844985.680752) can0 09F10D01#FFFFFF7F0003FFFF
(1571844985.730552) can0 09F10D01#FFFFFF7F0003FFFF
(1571844985.741153) can0 09FD0202#8F7B006B53FAFFFF
(1571844985.780753) can0 09F10D01#FFFFFF7F0003FFFF
(1571844985.830556) can0 09F10D01#FFFFFF7F0003FFFF
(1571844985.841128) can0 09FD0202#9078009F4FFAFFFF
(1571844985.880753) can0 09F10D01#FFFFFF7F0003FFFF
(1571844985.930516) can0 09F10D01#FFFFFF7F0003FFFF
(1571844985.966108) can0 09FD0202#917800AD4BFAFFFF
(1571844985.980756) can0 09F10D01#FFFFFF7F0003FFFF
(1571844986.030555) can0 09F10D01#FFFFFF7F0003FFFF
(1571844986.066125) can0 09FD0202#927800BC47FAFFFF
(1571844986.080755) can0 09F10D01#FFFFFF7F0003FFFF
(1571844986.130557) can0 09F10D01#FFFFFF7F0003FFFF
(1571844986.166082) can0 09FD0202#9378001644FAFFFF
(1571844986.180756) can0 09F10D01#FFFFFF7F0003FFFF
(1571844986.230559) can0 09F10D01#FFFFFF7F0003FFFF
(1571844986.266117) can0 09FD0202#947800B440FAFFFF
(1571844986.280756) can0 09F10D01#FFFFFF7F0003FFFF
(1571844986.330557) can0 09F10D01#FFFFFF7F0003FFFF
(1571844986.366077) can0 09FD0202#957800423EFAFFFF
(1571844986.380759) can0 09F10D01#FFFFFF7F0003FFFF
(1571844986.430557) can0 09F10D01#FFFFFF7F0003FFFF
(1571844986.466108) can0 09FD0202#9679007E3CFAFFFF
(1571844986.480760) can0 09F10D01#FFFFFF7F0003FFFF
(1571844986.530560) can0 09F10D01#FFFFFF7F0003FFFF
(1571844986.566082) can0 09FD0202#977A003237FAFFFF
(1571844986.580759) can0 09F10D01#FFFFFF7F0003FFFF
(1571844986.630561) can0 09F10D01#FFFFFF7F0003FFFF
(1571844986.666109) can0 09FD0202#987C00D82EFAFFFF
(1571844986.680691) can0 09F10D01#FFFFFF7F0003FFFF
(1571844986.730545) can0 09F10D01#FFFFFF7F0003FFFF
(1571844986.780759) can0 09F10D01#FFFFFF7F0003FFFF
(1571844986.791111) can0 09FD0202#997E003724FAFFFF
(1571844986.830443) can0 09F10D01#FFFFFF7F0003FFFF
(1571844986.880151) can0 09F10D01#FFFFFF7F0003FFFF
(1571844986.891060) can0 09FD0202#9A7F00CF1CFAFFFF
(1571844986.930419) can0 09F10D01#FFFFFF7F0003FFFF
(1571844986.980763) can0 09F10D01#FFFFFF7F0003FFFF
(1571844986.991114) can0 09FD0202#9B8000B518FAFFFF
(1571844987.030564) can0 09F10D01#FFFFFF7F0003FFFF
(1571844987.080682) can0 09F10D01#FFFFFF7F0003FFFF
(1571844987.090946) can0 09FD0202#9C8200D815FAFFFF
(1571844987.130561) can0 09F10D01#FFFFFF7F0003FFFF
(1571844987.180764) can0 09F10D01#FFFFFF7F0003FFFF
(1571844987.191090) can0 09FD0202#9D83001D13FAFFFF
(1571844987.230564) can0 09F10D01#FFFFFF7F0003FFFF
(1571844987.280763) can0 09F10D01#FFFFFF7F0003FFFF
(1571844987.291065) can0 09FD0202#9E83004B10FAFFFF
(1571844987.330564) can0 09F10D01#FFFFFF7F0003FFFF
(1571844987.380743) can0 09F10D01#FFFFFF7F0003FFFF
(1571844987.391090) can0 09FD0202#9F83009C0EFAFFFF
(1571844987.430542) can0 09F10D01#FFFFFF7F0003FFFF
(1571844987.480744) can0 09F10D01#FFFFFF7F0003FFFF
(1571844987.491069) can0 09FD0202#A08300780DFAFFFF
(1571844987.530541) can0 09F10D01#FFFFFF7F0003FFFF
(1571844987.580741) can0 09F10D01#FFFFFF7F0003FFFF
(1571844987.616094) can0 09FD0202#A18300F00CFAFFFF
(1571844987.630543) can0 09F10D01#FFFFFF7F0003FFFF
(1571844987.680766) can0 09F10D01#FFFFFF7F0003FFFF
(1571844987.715865) can0 09FD0202#A283003D0DFAFFFF
(1571844987.730327) can0 09F10D01#FFFFFF7F0003FFFF
(1571844987.780665) can0 09F10D01#FFFFFF7F0003FFFF
(1571844987.815896) can0 09FD0202#A38300630DFAFFFF
(1571844987.830545) can0 09F10D01#FFFFFF7F0003FFFF
(1571844987.880672) can0 09F10D01#FFFFFF7F0003FFFF
(1571844987.915902) can0 09FD0202#A4AA00310DFAFFFF
(1571844987.930274) can0 09F10D01#FFFFFF7F0003FFFF
(1571844987.980667) can0 09F10D01#FFFFFF7F0003FFFF
(1571844988.015434) can0 09FD0202#A5D200B70CFAFFFF
(1571844988.030546) can0 09F10D01#FFFFFF7F0003FFFF
(1571844988.080673) can0 09F10D01#FFFFFF7F0003FFFF
(1571844988.115888) can0 09FD0202#A6F900420CFAFFFF
(1571844988.130545) can0 09F10D01#FFFFFF7F0003FFFF
(1571844988.180747) can0 09F10D01#FFFFFF7F0003FFFF
(1571844988.216024) can0 09FD0202#A72101DB0BFAFFFF
(1571844988.230548) can0 09F10D01#FFFFFF7F0003FFFF
(1571844988.280749) can0 09F10D01#FFFFFF7F0003FFFF
(1571844988.315864) can0 09FD0202#A84801890BFAFFFF
(1571844988.330549) can0 09F10D01#FFFFFF7F0003FFFF
(1571844988.380483) can0 09F10D01#FFFFFF7F0003FFFF
(1571844988.430548) can0 09F10D01#FFFFFF7F0003FFFF
(1571844988.440964) can0 09FD0202#A96F01450BFAFFFF
(1571844988.480747) can0 09F10D01#FFFFFF7F0003FFFF
(1571844988.530548) can0 09F10D01#FFFFFF7F0003FFFF
(1571844988.540909) can0 09FD0202#AA97010D0BFAFFFF
(1571844988.580658) can0 09F10D01#FFFFFF7F0003FFFF
