(1485778642.062528) can0 0A5#007EE5780055A800
(1485778642.062778) can0 1B5#000001D66AD0FFFC
(1485778642.063027) can0 298#0000001BD82B0800
(1485778642.063276) can0 150#A0B7500000000000
(1485778642.063527) can0 160#55FF00005743DDFD
(1485778642.063776) can0 180#03000DF71804F000
(1485778642.064027) can0 190#8000800080008000
(1485778642.064276) can0 0A0#0000080000008005
(1485778642.064527) can0 1C0#77C0000080000000
(1485778642.064778) can0 1D0#A8FFFF0000000000
(1485778642.065027) can0 1E0#000000000000FB43
(1485778642.065277) can0 210#00000000F4970000
(1485778642.065526) can0 213#00F400000FFFBFFF
(1485778642.065777) can0 252#0000000FFF200040
(1485778642.065902) can0 2D0#000001F975905A85
(1485778642.068277) can0 030#8002A180A000B207
(1485778642.068528) can0 290#0600400100027502
(1485778642.068777) can0 40A#FF03040100201080
(1485778642.069153) can0 090#0000C1FE62110000
(1485778642.069538) can0 010#0B0400000000804B
(1485778642.069653) can0 0C0#0020000040000000
(1485778642.069902) can0 200#F200B7670000C000
(1485778642.071405) can0 170#04000000D0000000
(1485778642.071652) can0 229#6000000000000000
(1485778642.071900) can0 2A0#0000000030000000
(1485778642.072152) can0 2A5#00000000100FF0FF
(1485778642.073027) can0 0C8#DF873AF2E138C600
(1485778642.073526) can0 190#8000800080008000
(1485778642.073777) can0 218#00008F003C7DC0D8
(1485778642.074651) can0 060#0000000000000000
(1485778642.075652) can0 0B0#00004381E68013C3
(1485778642.075901) can0 140#00009C000001EA24
(1485778642.078149) can0 030#8002A180A000B207
(1485778642.078528) can0 260#8A82AF0DB561B800
(1485778642.079151) can0 070#05A709F569F5F000
(1485778642.079527) can0 010#0CF400000000804B
(1485778642.079651) can0 080#90007D00008004F7
(1485778642.079899) can0 090#0000C1FE62110000
(1485778642.080151) can0 0A0#0000080000008004
(1485778642.080399) can0 0F8#000000000000104B
(1485778642.080650) can0 120#0000000000008000
(1485778642.080900) can0 130#50002000E0000000
(1485778642.081149) can0 138#007D84003800820F
(1485778642.081402) can0 1A0#1F40000080000000
(1485778642.081651) can0 1B0#4100000000403000
(1485778642.081902) can0 208#7F092AE60080FF18
(1485778642.082150) can0 269#00000529AA85FF00
(1485778642.082401) can0 270#5E2F042100000000
(1485778642.082652) can0 280#C400008485284000
(1485778642.082776) can0 2D8#0444808000000000
(1485778642.083060) can0 150#A0B7500000000000
(1485778642.083307) can0 2F0#30B0008400579636
(1485778642.083560) can0 0A5#007EE4780045B800
(1485778642.083808) can0 160#55FF00005733E5FD
(1485778642.084059) can0 180#03000DF51805F000
(1485778642.084278) can0 190#8000800080008000
(1485778642.084526) can0 1C0#77C0000080000000
(1485778642.084789) can0 1D0#A8FFFF0000000000
(1485778642.085027) can0 1E0#000000000000FC33
(1485778642.085276) can0 210#00000000F3990000
(1485778642.085527) can0 213#00F200010FFFCFFF
(1485778642.085788) can0 252#0000010FFF200040
(1485778642.088290) can0 030#8002A180A000B207
(1485778642.089287) can0 060#0000000000000000
(1485778642.089547) can0 010#0DE400000000804B
(1485778642.089669) can0 090#0000C1FE62110000
(1485778642.089901) can0 0C0#0020000040000000
(1485778642.091524) can0 170#04000000D0000000
(1485778642.093186) can0 0C8#DF873EF2E138C600
(1485778642.093560) can0 190#8000800080008000
(1485778642.094307) can0 0A0#0000080000008004
(1485778642.094560) can0 200#F200B7680000C000
(1485778642.095667) can0 0B0#00004381E68013C3
(1485778642.095865) can0 140#00009C000002DA24
(1485778642.098165) can0 030#8002A180A000B207
(1485778642.098424) can0 290#0600400100027502
(1485778642.099169) can0 070#05A709F569F5F000
(1485778642.099543) can0 010#0ED400000000804B
(1485778642.099651) can0 080#90007D00008004F7
(1485778642.099919) can0 090#0000C20062140000
(1485778642.100173) can0 0F8#000000000000104B
(1485778642.100406) can0 120#0000000000008000
(1485778642.100654) can0 130#50002000E0000000
(1485778642.100905) can0 138#007D84003800820F
(1485778642.101155) can0 1A0#1F40000080000000
(1485778642.103169) can0 150#A0B7500000000000
(1485778642.103278) can0 260#8A82AF0DB461B800
(1485778642.103580) can0 0A5#007EE3780035C800
(1485778642.103804) can0 160#55FF00005723EDFD
(1485778642.104039) can0 180#03000DF51804F000
(1485778642.104289) can0 060#0000000000000000
(1485778642.104540) can0 190#8000800080008000
(1485778642.104792) can0 1B5#000001D66AD0FFFC
(1485778642.105040) can0 1C0#77C0000080000000
(1485778642.105290) can0 1D0#A8FFFF0000000000
(1485778642.105528) can0 1E0#000000000000FD23
(1485778642.105776) can0 208#7F072AE60080FF18
(1485778642.106030) can0 210#00000000F29B0000
(1485778642.106280) can0 213#00F200000FFFDFFF
(1485778642.106544) can0 218#00008F003C7DC0D8
(1485778642.106781) can0 252#0000000FFF200040
(1485778642.107030) can0 298#0000001BD82B0800
(1485778642.107279) can0 2D0#000001F876905A85
(1485778642.107530) can0 2D4#00000000E5FEFFFE
(1485778642.108279) can0 030#8002A180A000B207
(1485778642.109155) can0 090#0000C20062140000
(1485778642.109531) can0 010#0FC400000000804B
(1485778642.109651) can0 0A0#0000080000008002
(1485778642.109900) can0 0C0#0020000040000000
(1485778642.110151) can0 1B0#4100000000403000
(1485778642.110401) can0 269#000005295585FF00
(1485778642.110651) can0 270#5E2F042100000000
(1485778642.110901) can0 280#C400008485284000
(1485778642.111526) can0 170#04000000D0000000
(1485778642.111775) can0 229#6000000000000000
(1485778642.112030) can0 2A0#0000000030000000
(1485778642.112279) can0 2A5#00000000100FF0FF
(1485778642.113290) can0 0C8#DF873AF6E138C600
(1485778642.113526) can0 190#8000800080008000
(1485778642.115650) can0 0B0#00004381E68013C3
(1485778642.115915) can0 140#00009C000003CA24
(1485778642.118165) can0 030#8003A180A000B207
(1485778642.119169) can0 060#0000000000000000
(1485778642.119541) can0 010#00B400000000804B
(1485778642.119676) can0 070#05A709F469F4F000
(1485778642.119916) can0 080#90007D00008001F7
(1485778642.120165) can0 090#0000C20062140000
(1485778642.120414) can0 0F8#000000000000104B
(1485778642.120652) can0 120#0000000000008000
(1485778642.120904) can0 130#50002000E0000000
(1485778642.121163) can0 138#007D84003800820F
(1485778642.121407) can0 1A0#1F40000080000000
(1485778642.121655) can0 200#F200B7680000C000
(1485778642.123151) can0 150#A0B7500000000000
(1485778642.123528) can0 0A5#007EE2780025D800
(1485778642.123654) can0 160#55FF00005713F5FD
(1485778642.123901) can0 180#03000DF71805F000
(1485778642.124168) can0 0A0#0000080000008002
(1485778642.124545) can0 190#8000800080008000
(1485778642.124676) can0 1C0#77C0000080000000
(1485778642.124919) can0 1D0#A8FFFF0000000000
(1485778642.125169) can0 1E0#000000000000FE13
(1485778642.125539) can0 210#00000000F19D0000
(1485778642.125705) can0 213#00F100000FFFEFFF
(1485778642.125924) can0 252#0000000FFF200040
(1485778642.128030) can0 030#8002A180A000B207
(1485778642.128281) can0 17E#C010004000200000
(1485778642.128545) can0 260#8A82AF0DB5E1B800
(1485778642.128790) can0 290#8600400100027502
(1485778642.129044) can0 380#10927CA96000C0A9
(1485778642.129282) can0 090#0000C20062140000
(1485778642.129530) can0 010#01A400000000804B
(1485778642.129780) can0 0C0#0020000040000000
(1485778642.130030) can0 3B4#401111FF00000000
(1485778642.130281) can0 435#B214B9D276EFB3C3
(1485778642.130654) can0 208#7F042AE60080FF18
(1485778642.131279) can0 170#04000000D0000000
(1485778642.133170) can0 0C8#DF873EF2E138C600
(1485778642.133421) can0 310#D94430602D450074
(1485778642.133662) can0 190#8000800080008000
(1485778642.133921) can0 218#00008F003C7DC0D8
(1485778642.134033) can0 360#C0C03F003C7DB8B7
(1485778642.134295) can0 060#0000000000000000
(1485778642.135541) can0 0B0#00004381E68013C3
(1485778642.135793) can0 140#00009C000004BA24
(1485778642.138295) can0 030#800AE180E000B287
(1485778642.139169) can0 070#05A709F469F4F000
(1485778642.139418) can0 010#029400000000804B
(1485778642.139664) can0 080#90007D00008002F7
(1485778642.139922) can0 090#0000C20062140000
(1485778642.140171) can0 0A0#0000080000008002
(1485778642.140411) can0 0F8#000000000000104B
(1485778642.140654) can0 120#0000000000008000
(1485778642.140905) can0 130#50002000E0000000
(1485778642.141155) can0 138#007D84003800820F
(1485778642.141405) can0 1A0#1F40000080000000
(1485778642.141655) can0 1B0#4100000000403000
(1485778642.141905) can0 269#000005295585FF00
(1485778642.142167) can0 270#5E2F042100000000
(1485778642.142288) can0 280#C400008485284000
(1485778642.142530) can0 2D8#0444808000000000
(1485778642.142780) can0 340#000000000300662F
(1485778642.143155) can0 150#A0B7500000000000
(1485778642.143543) can0 0A5#007EE1780015E800
(1485778642.143679) can0 160#55FF00005703FDFD
(1485778642.143906) can0 180#03000DF41803F000
(1485778642.144155) can0 190#8000800080008000
(1485778642.144530) can0 1B5#000001D66AD0FFFC
(1485778642.144663) can0 1C0#77C0000080000000
(1485778642.144905) can0 1D0#A8FFFF0000000000
(1485778642.145156) can0 1E0#000000000000FF03
(1485778642.145406) can0 200#F200B7680000C000
(1485778642.145654) can0 210#00000000F09F0000
(1485778642.145905) can0 213#00F000000FFFFFFF
(1485778642.146180) can0 252#0000000FFF200040
(1485778642.146404) can0 298#0000001BD82B0800
(1485778642.146655) can0 2D0#000001F777905A85
(1485778642.147029) can0 455#0000000000000000
(1485778642.148529) can0 030#8002A180A000B207
(1485778642.148793) can0 405#0000000000000000
(1485778642.149291) can0 010#038400000000804B
(1485778642.149792) can0 060#0000000000000000
(1485778642.150044) can0 090#0000C20062140000
(1485778642.150295) can0 0C0#0020000040000000
(1485778642.151294) can0 170#04000000D0000000
(1485778642.151540) can0 229#6000000000000000
(1485778642.151920) can0 2A0#0000000030000000
(1485778642.152170) can0 2A5#00000000100FF0FF
(1485778642.153034) can0 0C8#DF873AF2E138C600
(1485778642.153280) can0 260#8A82AF0DB561B800
(1485778642.153532) can0 190#8000800080008000
(1485778642.154155) can0 0A0#0000080000008002
(1485778642.155535) can0 0B0#00004381E68013C3
(1485778642.155794) can0 140#00009C000005AA24
(1485778642.156031) can0 208#7F0C3AF66F80FF98
(1485778642.158171) can0 030#8002A180A000B207
(1485778642.158546) can0 290#0600400100027702
(1485778642.159170) can0 070#05A709F469F4F000
(1485778642.159417) can0 010#047400000000804B
(1485778642.159670) can0 080#90007D00008002F7
(1485778642.159919) can0 090#0000C20062140000
(1485778642.160167) can0 0F8#000000000000104B
(1485778642.160419) can0 120#0000000000008000
(1485778642.160672) can0 130#50002000E0000000
(1485778642.160907) can0 138#007D84003800820F
(1485778642.161156) can0 1A0#1F40000080000000
(1485778642.163032) can0 150#A0B7700000000000
(1485778642.163542) can0 0A5#007EE0780005F800
(1485778642.163669) can0 160#55FF000057F385FD
(1485778642.163919) can0 180#03000DF71803F000
(1485778642.164169) can0 060#0000000000000000
(1485778642.164543) can0 190#8000800080008000
(1485778642.164658) can0 1C0#77C0000080000000
(1485778642.164917) can0 1D0#A8FFFF0000000000
(1485778642.165170) can0 1E0#000000000000F0F3
(1485778642.165532) can0 210#00000000FF810000
(1485778642.165663) can0 213#00FF00000FFF0FFF
(1485778642.165905) can0 218#00008F003C7DC0D8
(1485778642.166158) can0 252#0000000FFF200040
(1485778642.166406) can0 2D4#00000000E5FEFFFE
(1485778642.168280) can0 030#8002A180A000B207
(1485778642.169169) can0 090#0000C1FE62100000
(1485778642.169541) can0 010#056400000000804B
(1485778642.169657) can0 0A0#0000080000008003
(1485778642.169920) can0 0C0#0020000040000000
(1485778642.170171) can0 1B0#4100000000403000
(1485778642.170434) can0 200#F200B7680000C000
(1485778642.170656) can0 269#000005295585FF00
(1485778642.170917) can0 04A#02000018000000C0
(1485778642.171156) can0 04B#00D8D8D8D8D8C000
(1485778642.171404) can0 270#5E2F042100000000
(1485778642.171655) can0 170#04000000D0000000
(1485778642.171908) can0 280#C400008485274000
(1485778642.172156) can0 2F0#30B0008400579636
(1485778642.173033) can0 0C8#DF873EF6E138C600
(1485778642.173542) can0 190#8000800080008000
(1485778642.175530) can0 0B0#00004381E68013C3
(1485778642.175794) can0 140#00009C0000069A24
(1485778642.178296) can0 030#8003A180A000B207
(1485778642.178546) can0 260#8A82AF0DB4E1B800
(1485778642.179295) can0 060#0000000000000000
(1485778642.179542) can0 010#065400000000804B
(1485778642.179795) can0 070#05A709F469F4F000
(1485778642.179907) can0 080#90007D00008002F7
(1485778642.180296) can0 090#0000C1FE62100000
(1485778642.180546) can0 0F8#000000000000104B
(1485778642.180795) can0 120#0000000000008000
(1485778642.180908) can0 130#50002000E0000000
(1485778642.181171) can0 138#007D84003800820F
(1485778642.181541) can0 1A0#1F40000080000000
(1485778642.181657) can0 208#7F072AE60080FF18
(1485778642.183158) can0 150#A0B7500000000000
(1485778642.183546) can0 0A5#007EEF7800F50800
(1485778642.183657) can0 160#55FF000057E38DFD
(1485778642.183920) can0 180#03000DF61805F000
(1485778642.184171) can0 0A0#0000080000008006
(1485778642.184545) can0 190#8000800080008000
(1485778642.184656) can0 1B5#000001D66AD0FFFC
(1485778642.184921) can0 1C0#77C0000080000000
(1485778642.185157) can0 1D0#A8FFFF0000000000
(1485778642.185406) can0 1E0#000000000000F1E3
(1485778642.185655) can0 210#00000000FE830000
(1485778642.185905) can0 213#00FE00000FFF1FFF
(1485778642.186157) can0 252#0000000FFF200040
(1485778642.186406) can0 298#0000001BD82B0800
(1485778642.186656) can0 2D0#000001F678905A85
(1485778642.188281) can0 030#8002A180A000B207
(1485778642.188529) can0 290#0600C00100027702
(1485778642.189155) can0 090#0000C1FE62100000
(1485778642.189532) can0 010#074400000000804B
(1485778642.189689) can0 0C0#0020000040000000
(1485778642.191542) can0 170#04000000D0000000
(1485778642.191796) can0 229#6000000000000000
(1485778642.192045) can0 2A0#0000000030000000
(1485778642.192296) can0 2A5#00000000100FF0FF
(1485778642.193295) can0 0C8#DF873AF2E138C600
(1485778642.193546) can0 40A#FF04101264000242
(1485778642.193795) can0 190#8000800080008000
(1485778642.193906) can0 218#00008F003C7DC0D8
(1485778642.194170) can0 060#0000000000000000
(1485778642.194546) can0 200#F200B7680000C000
(1485778642.195671) can0 0B0#00004381E68013C3
(1485778642.195782) can0 140#00009C0000078A24
(1485778642.198171) can0 030#8002A180A000B207
(1485778642.199173) can0 070#05A709F569F5F000
(1485778642.199423) can0 010#083400000000804B
(1485778642.199672) can0 080#90007D00008005F7
(1485778642.199922) can0 090#0000C1FE62100000
(1485778642.200170) can0 0A0#0000080000008006
(1485778642.200416) can0 0F8#000000000000104B
(1485778642.200670) can0 120#0000000000008000
(1485778642.200907) can0 130#50002000E0000000
(1485778642.201155) can0 138#007D84003800820F
(1485778642.201405) can0 1A0#1F40000080000000
(1485778642.201671) can0 1B0#4100000000403000
(1485778642.201920) can0 269#00000529AA85FF00
(1485778642.202158) can0 270#5E2F042100000000
(1485778642.202403) can0 280#C400008485274000
(1485778642.202538) can0 2D8#0444808000000000
(1485778642.203158) can0 150#A0B7500000000000
(1485778642.203529) can0 260#8A82AF0DB461B800
(1485778642.203672) can0 0A5#007EEE7800E51800
(1485778642.203907) can0 160#55FF000057D395FD
(1485778642.204155) can0 180#03000DF51802F000
(1485778642.204405) can0 190#8000800080008000
(1485778642.204655) can0 1C0#77C0000080000000
(1485778642.204906) can0 1D0#A8FFFF0000000000
(1485778642.205155) can0 1E0#000000000000F2D3
(1485778642.205406) can0 210#00000000FD850000
(1485778642.205653) can0 213#00FD00000FFF2FFF
(1485778642.205905) can0 252#0000000FFF200040
(1485778642.206158) can0 208#7F0A2AE60080FF18
(1485778642.208155) can0 030#8002A180A000B207
(1485778642.209155) can0 060#0000000000000000
(1485778642.209530) can0 010#092400000000804B
(1485778642.209664) can0 090#0000C20062130000
(1485778642.209919) can0 0C0#0020000040000000
(1485778642.211296) can0 170#04000000D0000000
(1485778642.213172) can0 0C8#DF873EF2E138C600
(1485778642.213543) can0 190#8000800080008000
(1485778642.214296) can0 0A0#0000080000008003
(1485778642.215543) can0 0B0#00004381E68013C3
(1485778642.215797) can0 140#00009C0000087A24
(1485778642.218044) can0 030#800AE180E000B287
(1485778642.218295) can0 290#8600400100027702
(1485778642.218544) can0 400#1102000000010000
(1485778642.219170) can0 070#05A709F569F5F000
(1485778642.219421) can0 010#0A1400000000804B
(1485778642.219671) can0 080#90007D00008005F7
(1485778642.219922) can0 090#0000C20062130000
(1485778642.220157) can0 0F8#000000000000104B
(1485778642.220421) can0 120#0000000000008000
(1485778642.220657) can0 130#50002000E0000000
(1485778642.220920) can0 138#007D84003800820F
(1485778642.221157) can0 1A0#1F40000080000000
(1485778642.221405) can0 200#F200B7690000C000
(1485778642.223157) can0 150#A0B7500000000000
(1485778642.223555) can0 0A5#007EED7800D52800
(1485778642.223660) can0 160#55FF000057C39DFD
(1485778642.223919) can0 180#03000DF71805F000
(1485778642.224170) can0 060#0000000000000000
(1485778642.224544) can0 190#8000800080008000
(1485778642.224657) can0 1B5#000001D66AD0FFFC
(1485778642.224919) can0 1C0#77C0000080000000
(1485778642.225167) can0 1D0#A8FFFF0000000000
(1485778642.225419) can0 1E0#000000000000F3C3
(1485778642.225671) can0 210#00000000FC870000
(1485778642.225907) can0 213#00FC00000FFF3FFF
(1485778642.226157) can0 218#00008F003C7DC0D8
(1485778642.226406) can0 252#0000000FFF200040
(1485778642.226655) can0 298#0000001BD82B0800
(1485778642.226906) can0 2D0#000001F579905A85
(1485778642.227155) can0 2D4#00000000E5FEFFFE
(1485778642.228156) can0 030#8002A180A000B207
(1485778642.228532) can0 17E#C010004000278000
(1485778642.228675) can0 260#8A82AF0DB561B800
(1485778642.229171) can0 090#0000C20062130000
(1485778642.229540) can0 010#0B0400000000804B
(1485778642.229657) can0 0A0#0000080000008003
(1485778642.229908) can0 0C0#0020000040000000
(1485778642.230155) can0 1B0#4100000000403000
(1485778642.230406) can0 269#00000529AA85FF00
(1485778642.230655) can0 270#5E2F042100000000
(1485778642.230906) can0 280#C400008485264000
(1485778642.231156) can0 208#7F042AE60080FF18
(1485778642.231529) can0 170#04000000D0000000
(1485778642.231780) can0 229#6000000000000000
(1485778642.232031) can0 2A0#0000000030000000
(1485778642.232281) can0 2A5#00000000100FF0FF
(1485778642.233279) can0 0C8#DF873AF6E138C600
(1485778642.233530) can0 190#8000800080008000
(1485778642.233781) can0 310#DB4430602D450074
(1485778642.235534) can0 0B0#00004381E68013C3
(1485778642.235782) can0 140#00009C0000096A24
(1485778642.238421) can0 030#8003A180A000B207
(1485778642.239170) can0 060#0000000000000000
(1485778642.239420) can0 010#0CF400000000804B
(1485778642.239670) can0 070#05A709F569F5F000
(1485778642.239918) can0 080#90007D00008004F7
(1485778642.240170) can0 090#0000C20062130000
(1485778642.240419) can0 0F8#000000000000104B
(1485778642.240656) can0 120#0000000000008000
(1485778642.240906) can0 130#50002000E0000000
(1485778642.241155) can0 138#007D84003800820F
(1485778642.241406) can0 1A0#1F40000080000000
(1485778642.243172) can0 150#A0B7500000000000
(1485778642.243545) can0 0A5#007EEC7800C53800
(1485778642.243658) can0 160#55FF000057B3A5FD
(1485778642.243919) can0 180#03000DF31803F000
(1485778642.244170) can0 0A0#0000080000008003
(1485778642.244544) can0 190#8000800080008000
(1485778642.244657) can0 1C0#77C0000080000000
(1485778642.244922) can0 1D0#A8FFFF0000000000
(1485778642.245171) can0 1E0#000000000000F4B3
(1485778642.245422) can0 200#F200B7690000C000
(1485778642.245671) can0 210#00000000FB890000
(1485778642.245906) can0 213#00FB00000FFF4FFF
(1485778642.246158) can0 252#0000000FFF200040
(1485778642.247157) can0 455#0000000000000000
(1485778642.248295) can0 030#8002A180A000B207
(1485778642.248543) can0 290#0600400100027702
(1485778642.249296) can0 090#0000C20162150000
(1485778642.249547) can0 010#0DE400000000804B
(1485778642.249792) can0 0C0#0020000040000000
(1485778642.251295) can0 170#04000000D0000000
(1485778642.253047) can0 0C8#DF873EF2E138C600
(1485778642.253156) can0 260#8A82AF0DB4E1B800
(1485778642.253546) can0 190#8000800080008000
(1485778642.253808) can0 218#00008F003C7DC0D8
(1485778642.254294) can0 060#0000000000000000
(1485778642.255543) can0 0B0#00004381E68013C3
(1485778642.255793) can0 140#00009C00000A5A24
(1485778642.256173) can0 208#7F093AF66F80FF98
(1485778642.258295) can0 030#8002A180A000B207
(1485778642.259170) can0 070#05A709F469F4F000
(1485778642.259420) can0 010#0ED400000000804B
(1485778642.259670) can0 080#90007D00008003F7
(1485778642.259921) can0 090#0000C20162150000
(1485778642.260169) can0 0A0#0000080000008001
(1485778642.260421) can0 0F8#000000000000104B
(1485778642.260669) can0 120#0000000000008000
(1485778642.260908) can0 130#50002000E0000000
(1485778642.261157) can0 138#007D84003800820F
(1485778642.261408) can0 1A0#1F40000080000000
(1485778642.261670) can0 1B0#4100000000403000
(1485778642.261918) can0 269#00000529AA85FF00
(1485778642.262042) can0 270#5E2F042100000000
(1485778642.262282) can0 280#C400008485264000
(1485778642.262531) can0 2D8#0444808000000000
(1485778642.262781) can0 2F0#30B0008400579636
(1485778642.263031) can0 340#000000000300662F
(1485778642.263281) can0 150#A0B7500000000000
(1485778642.263531) can0 0A5#007EEB7800B54800
(1485778642.263782) can0 160#55FF000057A3ADFD
(1485778642.264031) can0 180#03000DF51803F000
(1485778642.264280) can0 190#8000800080008000
(1485778642.264531) can0 1B5#000001D66AD0FFFC
(1485778642.264781) can0 1C0#77C0000080000000
(1485778642.265031) can0 1D0#A8FFFF0000000000
(1485778642.265281) can0 1E0#000000000000F5A3
(1485778642.265531) can0 210#00000000FA8B0000
(1485778642.265779) can0 213#00FA00000FFF5FFF
(1485778642.266032) can0 252#0000000FFF200040
(1485778642.266283) can0 298#0000001BD82B0800
(1485778642.266531) can0 2D0#000001F47A905A85
(1485778642.268281) can0 030#8002A180A000B207
(1485778642.269156) can0 060#0000000000000000
(1485778642.269534) can0 010#0FC400000000804B
(1485778642.269692) can0 090#0000C20162150000
(1485778642.269918) can0 0C0#0020000040000000
(1485778642.270168) can0 200#F200B7690000C000
(1485778642.271420) can0 170#04000000D0000000
(1485778642.271672) can0 229#6000000000000000
(1485778642.271920) can0 2A0#0000000030000000
(1485778642.272171) can0 2A5#00000000100FF0FF
(1485778642.273034) can0 0C8#DF873AF2E138C600
(1485778642.273531) can0 190#8000800080008000
(1485778642.274171) can0 0A0#0000080000008001
(1485778642.275545) can0 0B0#00004381E68013C3
(1485778642.275798) can0 140#00009C00000B4A24
(1485778642.278171) can0 030#8002A180A000B207
(1485778642.278421) can0 260#8A82AF0DB561B800
(1485778642.278670) can0 290#8600400100027702
(1485778642.279172) can0 070#05A709F469F4F000
(1485778642.279422) can0 010#00B400000000804B
(1485778642.279672) can0 080#90007D00008002F7
(1485778642.279922) can0 090#0000C20162150000
(1485778642.280158) can0 0F8#000000000000104B
(1485778642.280421) can0 120#0000000000008000
(1485778642.280658) can0 130#50002000E0000000
(1485778642.280921) can0 138#007D84003800820F
(1485778642.281158) can0 1A0#1F40000080000000
(1485778642.281407) can0 208#7F052AE60080FF18
(1485778642.283283) can0 150#A0B7500000000000
(1485778642.283532) can0 0A5#007EEA7800A55800
(1485778642.283779) can0 160#55FF00005793B5FF
(1485778642.284044) can0 180#03000DF61805F000
(1485778642.284283) can0 060#0000000000000000
(1485778642.284532) can0 190#8000800080008000
(1485778642.284665) can0 1C0#77C0000080000000
(1485778642.284906) can0 1D0#A8FFFF0000000000
(1485778642.285157) can0 1E0#000000000000F693
(1485778642.285531) can0 210#00000000F98D0000
(1485778642.285654) can0 213#00F900000FFF6FFF
(1485778642.285907) can0 218#00008F003C7DC0D8
(1485778642.286157) can0 252#0000000FFF200040
(1485778642.286533) can0 2D4#00000000E5FEFFFE
(1485778642.286686) can0 360#C0C03F003C7DB8B7
(1485778642.288158) can0 030#8002A180A000B207
(1485778642.289296) can0 090#0000C20062140000
(1485778642.289545) can0 010#01A400000000804B
(1485778642.289794) can0 0A0#0000080000008002
(1485778642.290044) can0 0C0#0020000040000000
(1485778642.290295) can0 1B0#4100000000403000
(1485778642.290545) can0 269#00000529AA85FF00
(1485778642.290782) can0 270#5E2F042100000000
(1485778642.290905) can0 280#C400008485264000
(1485778642.291532) can0 170#04000000D0000000
(1485778642.293160) can0 0C8#DF873EF6E138C600
(1485778642.293532) can0 190#8000800080008000
(1485778642.294171) can0 200#F200B7690000C000
(1485778642.295533) can0 0B0#00004381E68013C3
(1485778642.295798) can0 140#00009C00000C3A24
(1485778642.298170) can0 030#800BE1A0E000B287
(1485778642.299170) can0 060#0000000000000000
(1485778642.299417) can0 010#029400000000804B
(1485778642.299690) can0 070#05A709F469F4F000
(1485778642.299918) can0 080#90007D00008002F7
(1485778642.300171) can0 090#0000C20062140000
(1485778642.300422) can0 0F8#000000000000104B
(1485778642.300657) can0 120#0000000000008000
(1485778642.300907) can0 130#50002000E0000000
(1485778642.301156) can0 138#007D84003800820F
(1485778642.301406) can0 1A0#1F40000080000000
(1485778642.303171) can0 150#A0B7500000000000
(1485778642.303292) can0 260#8A82AF0DB4E1B800
(1485778642.303544) can0 0A5#007EE97800956800
(1485778642.303793) can0 160#55FF00005783BDFD
(1485778642.304046) can0 180#03000DF51805F000
(1485778642.304297) can0 0A0#0000080000008002
(1485778642.304546) can0 190#8000800080008000
(1485778642.304798) can0 1B5#000001D66AD0FFFC
(1485778642.305047) can0 1C0#77C0000080000000
(1485778642.305296) can0 1D0#A8FFFF0000000000
(1485778642.305533) can0 1E0#000000000000F783
(1485778642.305794) can0 210#00000000F88F0000
(1485778642.306032) can0 213#00F800000FFF7FFF
(1485778642.306283) can0 252#0000000FFF200040
(1485778642.306532) can0 208#7F092AE60080FF18
(1485778642.306782) can0 298#0000001BD82B0800
(1485778642.307033) can0 2D0#000001F37B905A85
(1485778642.308156) can0 030#8002A180A000B207
(1485778642.308407) can0 290#0600400100027702
(1485778642.309156) can0 090#0000C20062140000
(1485778642.309534) can0 010#038400000000804B
(1485778642.309668) can0 0C0#0020000040000000
(1485778642.311546) can0 170#04000000D0000000
(1485778642.311797) can0 229#6000000000000000
(1485778642.312047) can0 2A0#0000000030000000
(1485778642.312298) can0 2A5#00000000100FF0FF
(1485778642.313171) can0 0C8#DF873AF2E138C600
(1485778642.313546) can0 190#8000800080008000
(1485778642.313793) can0 218#00008F003C7DC0D8
(1485778642.314170) can0 060#0000000000000000
(1485778642.315547) can0 0B0#00004381E68013C3
(1485778642.315792) can0 140#00009C00000D2A24
(1485778642.318171) can0 030#8002A180A000B207
(1485778642.318421) can0 40A#C0003E212C08EC3B
(1485778642.319171) can0 070#05A709F469F4F000
(1485778642.319422) can0 010#047400000000804B
(1485778642.319687) can0 080#90007D00008002F7
(1485778642.319921) can0 090#0000C1FF62120000
(1485778642.320170) can0 0A0#0000080000008002
(1485778642.320408) can0 0F8#000000000000104B
(1485778642.320671) can0 120#0000000000008000
(1485778642.320908) can0 130#50002000E0000000
(1485778642.321171) can0 138#007D84003800820F
(1485778642.321408) can0 1A0#1F40000080000000
(1485778642.321671) can0 1B0#4100000000403000
(1485778642.321920) can0 200#F200B76A0000C000
(1485778642.322032) can0 269#000005295585FF00
(1485778642.322282) can0 270#5E2F042100000000
(1485778642.322531) can0 280#C400008485264000
(1485778642.322782) can0 2D8#0444808000000000
(1485778642.323157) can0 150#A0B7500000000000
(1485778642.323532) can0 160#55FF00005773C5FD
(1485778642.323796) can0 180#03000DF51804F000
(1485778642.324033) can0 190#8000800080008000
(1485778642.324282) can0 1C0#77C0000080000000
(1485778642.324532) can0 0A5#007EE87800857800
(1485778642.324782) can0 1D0#A8FFFF0000000000
(1485778642.325033) can0 1E0#000000000000F873
(1485778642.325282) can0 210#00000000F7910000
(1485778642.325532) can0 213#00F700000FFF8FFF
(1485778642.325665) can0 252#0000000FFF200040
(1485778642.328281) can0 030#8002A180A000B207
(1485778642.328543) can0 17E#C010004000200000
(1485778642.328797) can0 260#8A82AF0DB561B800
(1485778642.329159) can0 060#0000000000000000
(1485778642.329549) can0 010#056400000000804B
(1485778642.329658) can0 090#0000C1FF62120000
(1485778642.329922) can0 0C0#0020000040000000
(1485778642.331298) can0 208#7F052AE60080FF18
(1485778642.331547) can0 170#04000000D0000000
(1485778642.333175) can0 0C8#DF873EF2E138C600
(1485778642.333423) can0 310#D94430602D450074
(1485778642.333673) can0 190#8000800080008000
(1485778642.334172) can0 0A0#0000080000008004
(1485778642.335547) can0 0B0#00004381E68013C3
(1485778642.335795) can0 140#00009C00000E1A24
(1485778642.338298) can0 030#8002A180A000B207
(1485778642.338544) can0 290#0600400100027702
(1485778642.339171) can0 070#05A709F469F4F000
(1485778642.339421) can0 010#065400000000804B
(1485778642.339672) can0 080#90007D00008003F7
(1485778642.339920) can0 090#0000C1FF62120000
(1485778642.340172) can0 0F8#000000000000104B
(1485778642.340413) can0 120#0000000000008000
(1485778642.340658) can0 130#50002000E0000000
(1485778642.340907) can0 138#007D84003800820F
(1485778642.341171) can0 1A0#1F40000080000000
(1485778642.343035) can0 150#A0B7500000000000
(1485778642.343548) can0 160#55FF00005763CDFD
(1485778642.343797) can0 180#03000DF71804F000
(1485778642.344047) can0 190#8000800080008000
(1485778642.344298) can0 060#0000000000000000
(1485778642.344545) can0 1C0#77C0000080000000
(1485778642.344796) can0 0A5#007EE77800758800
(1485778642.344908) can0 1B5#000001D66AD0FFFC
(1485778642.345171) can0 1D0#A8FFFF0000000000
(1485778642.345544) can0 1E0#000000000000F963
(1485778642.345688) can0 200#F200B76A0000C000
(1485778642.345908) can0 210#00000000F6930000
(1485778642.346159) can0 213#00F600000FFF9FFF
(1485778642.346534) can0 218#00008F003C7DC0D8
(1485778642.346688) can0 252#0000000FFF200040
(1485778642.346909) can0 298#0000001BD82B0800
(1485778642.347158) can0 2D0#000001F27C905A85
(1485778642.347407) can0 2D4#00000000E5FEFFFE
(1485778642.347657) can0 455#0000000000000000
(1485778642.348407) can0 030#8002A180A000B207
(1485778642.349170) can0 090#0000C1FF62120000
(1485778642.349421) can0 010#074400000000804B
(1485778642.349685) can0 0A0#0000080000008004
(1485778642.349909) can0 0C0#0020000040000000
(1485778642.350157) can0 1B0#4100000000403000
(1485778642.350420) can0 269#000005295585FF00
(1485778642.350658) can0 270#5E2F042100000000
(1485778642.350907) can0 280#C400008485264000
(1485778642.351157) can0 2F0#30B0008400579636
(1485778642.351533) can0 170#04000000D0000000
(1485778642.351794) can0 229#6000000000000000
(1485778642.352033) can0 2A0#0000000030000000
(1485778642.352282) can0 2A5#00000000100FF0FF
(1485778642.353034) can0 0C8#DF873AF6E138C600
(1485778642.353283) can0 260#8A82AF0DB5E1B800
(1485778642.353532) can0 190#8000800080008000
(1485778642.355532) can0 0B0#00004381E68013C3
(1485778642.355794) can0 140#00009C00000F0A24
(1485778642.356535) can0 208#7F0B3AF66F80FF98
(1485778642.358295) can0 030#8003A180A000B207
(1485778642.359173) can0 060#0000000000000000
(1485778642.359549) can0 010#083400000000804B
(1485778642.359659) can0 070#05A709F469F4F000
(1485778642.359923) can0 080#90007D00008003F7
(1485778642.360172) can0 090#0000C20062150000
(1485778642.360423) can0 0F8#000000000000104B
(1485778642.360672) can0 120#0000000000008000
(1485778642.360923) can0 130#50002000E0000000
(1485778642.361172) can0 138#007D84003800820F
(1485778642.361436) can0 1A0#1F40000080000000
(1485778642.363048) can0 150#A0B7500000000000
(1485778642.363533) can0 160#55FF00005753D5FD
(1485778642.363783) can0 180#03000DF41803F000
(1485778642.364047) can0 190#8000800080008000
(1485778642.364298) can0 0A0#0000080000008002
(1485778642.364548) can0 1C0#77C0000080000000
(1485778642.364797) can0 0A5#007EE67800659800
(1485778642.365048) can0 1D0#A8FFFF0000000000
(1485778642.365296) can0 1E0#000000000000FA53
(1485778642.365534) can0 210#00000000F5950000
(1485778642.365666) can0 213#00F500000FFFAFFF
(1485778642.365905) can0 252#0000000FFF200040
(1485778642.368282) can0 030#8002A180A000B207
(1485778642.368570) can0 290#8600400100027702
(1485778642.369183) can0 090#0000C20062150000
(1485778642.369427) can0 010#092400000000804B
(1485778642.369674) can0 0C0#0020000040000000
(1485778642.369924) can0 200#F200B76A0000C000
(1485778642.371296) can0 170#04000000D0000000
(1485778642.373052) can0 0C8#DF873EF2E138C600
(1485778642.373552) can0 190#8000800080008000
(1485778642.373794) can0 218#00008F003C7DC0D8
(1485778642.374178) can0 060#0000000000000000
(1485778642.375549) can0 0B0#00004381E68013C3
(1485778642.375790) can0 140#00009C000000FA24
(1485778642.378301) can0 030#8002A180A000B207
(1485778642.378553) can0 260#8A82AF0DB561B800
(1485778642.379174) can0 070#05A709F469F4F000
(1485778642.379446) can0 010#0A1400000000804B
(1485778642.379672) can0 080#90007D00008002F7
(1485778642.379945) can0 090#0000C20062150000
(1485778642.380177) can0 0A0#0000080000008001
(1485778642.380409) can0 0F8#000000000000104B
(1485778642.380677) can0 120#0000000000008000
(1485778642.380908) can0 130#50002000E0000000
(1485778642.381157) can0 138#007D84003800820F
(1485778642.381407) can0 1A0#1F40000080000000
(1485778642.381671) can0 1B0#4100000000403000
(1485778642.381909) can0 208#7F072AE60080FF18
(1485778642.382066) can0 269#000005295585FF00
(1485778642.382301) can0 270#5E2F042100000000
(1485778642.382533) can0 280#C400008485264000
(1485778642.382784) can0 2D8#0444808000000000
(1485778642.383033) can0 340#000000000300662F
(1485778642.383408) can0 150#A0B7500000000000
(1485778642.383542) can0 160#55FF00005743DDFD
(1485778642.383780) can0 180#03000DF61805F000
(1485778642.384033) can0 190#8000800080008000
(1485778642.384282) can0 1C0#77C0000080000000
(1485778642.384533) can0 0A5#007EE5780055A800
(1485778642.384783) can0 1B5#000001D66AD0FFFC
(1485778642.385033) can0 1D0#A8FFFF0000000000
(1485778642.385283) can0 1E0#000000000000FB43
(1485778642.385532) can0 210#00000000F4970000
(1485778642.385783) can0 213#00F400000FFFBFFF
(1485778642.386032) can0 252#0000000FFF200040
(1485778642.386284) can0 298#0000001BD82B0800
(1485778642.386533) can0 2D0#000001F17D905A85
(1485778642.388282) can0 030#800AE180E000B287
(1485778642.389158) can0 060#0000000000000000
(1485778642.389535) can0 010#0B0400000000804B
(1485778642.389670) can0 090#0000C20062150000
(1485778642.389926) can0 0C0#0020000040000000
(1485778642.391543) can0 170#04000000D0000000
(1485778642.391659) can0 229#6000000000000000
(1485778642.391938) can0 2A0#0000000030000000
(1485778642.392302) can0 2A5#00000000100FF0FF
(1485778642.393183) can0 0C8#DF873AF2E138C600
(1485778642.393551) can0 190#8000800080008000
(1485778642.394175) can0 0A0#0000080000008001
(1485778642.394453) can0 200#F200B76B0000C000
(1485778642.395552) can0 0B0#00004381E68013C3
(1485778642.395801) can0 140#00009C000001EA24
(1485778642.398198) can0 030#8002A180A000B207
(1485778642.398427) can0 290#0600400100027702
(1485778642.398694) can0 405#0167212C08ED089C
(1485778642.399191) can0 070#05A709F469F4F000
(1485778642.399551) can0 010#0CF400000000804B
(1485778642.399658) can0 080#90007D00008002F7
(1485778642.399919) can0 090#0000C20062150000
(1485778642.400178) can0 0F8#000000000000104B
(1485778642.400549) can0 120#0000000000008000
(1485778642.400659) can0 130#50002000E0000000
(1485778642.400925) can0 138#007D84003800820F
(1485778642.401204) can0 1A0#1F40000080000000
(1485778642.403067) can0 150#A0B7500000000000
(1485778642.403302) can0 260#8A82AF0DB461B800
(1485778642.403552) can0 160#55FF00005733E5FD
(1485778642.403795) can0 180#03000DF51805F000
(1485778642.404050) can0 190#8000800080008000
(1485778642.404304) can0 060#0000000000000000
(1485778642.404533) can0 0A5#007EE4780045B800
(1485778642.404783) can0 1C0#77C0000080000000
(1485778642.405051) can0 1D0#A8FFFF0000000000
(1485778642.405284) can0 1E0#000000000000FC33
(1485778642.405551) can0 210#00000000F3990000
(1485778642.405783) can0 213#00F300000FFFCFFF
(1485778642.406033) can0 218#00008F003C7DC0D8
(1485778642.406283) can0 252#0000000FFF200040
(1485778642.406533) can0 2D4#00000000E5FEFFFE
(1485778642.406782) can0 208#7F062AE60080FF18
(1485778642.408157) can0 030#8002A180A000B207
(1485778642.409181) can0 090#0000C20062150000
(1485778642.409409) can0 010#0DE400000000804B
(1485778642.409658) can0 0A0#0000080000008001
(1485778642.409909) can0 0C0#0020000040000000
(1485778642.410158) can0 1B0#4100000000403000
(1485778642.410407) can0 269#00000529AA85FF00
(1485778642.410658) can0 270#5E2F042100000000
(1485778642.410907) can0 280#C400008485264000
(1485778642.411408) can0 170#04000000D0000000
(1485778642.413159) can0 0C8#DF873EF2E138C600
(1485778642.413533) can0 190#8000800080008000
(1485778642.415551) can0 0B0#00004381E68013C3
(1485778642.415818) can0 140#00009C000002DA24
(1485778642.418064) can0 030#8003A180A000B207
(1485778642.419213) can0 060#0000000000000000
(1485778642.419410) can0 010#0ED400000000804B
(1485778642.419708) can0 070#05A709F469F4F000
(1485778642.419947) can0 080#90007D00008001F7
(1485778642.420208) can0 090#0000C20062150000
(1485778642.420447) can0 0F8#000000000000104B
(1485778642.420708) can0 120#0000000000008000
(1485778642.420919) can0 130#50002000E0000000
(1485778642.421180) can0 138#007D84003800820F
(1485778642.421427) can0 1A0#1F40000080000000
(1485778642.421659) can0 200#F200B76B0000C000
(1485778642.423286) can0 150#A0B7500000000000
(1485778642.423533) can0 160#55FF00005723EDFF
(1485778642.423784) can0 180#03000DF51803F000
(1485778642.424033) can0 190#8000800080008000
(1485778642.424324) can0 0A0#0000080000008002
(1485778642.424534) can0 1C0#77C0000080000000
(1485778642.424783) can0 0A5#007EE3780035C800
(1485778642.424940) can0 1B5#000001D66AD0FFFC
(1485778642.425176) can0 1D0#A8FFFF0000000000
(1485778642.425549) can0 1E0#000000000000FD23
(1485778642.425659) can0 210#00000000F29B0000
(1485778642.425908) can0 213#00F200000FFFDFFF
(1485778642.426160) can0 252#0000000FFF200040
(1485778642.426408) can0 298#0000001BD82B0800
(1485778642.426657) can0 2D0#000001F07E905A85
(1485778642.428533) can0 030#8002A180A000B207
(1485778642.428664) can0 17E#C010004000200000
(1485778642.428927) can0 260#8A82AF0DB5E1B800
(1485778642.429177) can0 290#0600400100027702
(1485778642.429445) can0 010#0FC400000000804B
(1485778642.429667) can0 090#0000C20062150000
(1485778642.429945) can0 0C0#0020000040000000
(1485778642.430176) can0 380#5392FCA96000C0A9
(1485778642.430428) can0 3B4#401111FF00000000
(1485778642.430533) can0 435#B214B9D276EFB3C3
(1485778642.431534) can0 170#04000000D0000000
(1485778642.431666) can0 208#7F092AE60080FF18
(1485778642.431930) can0 229#6000000000000000
(1485778642.432174) can0 2A0#0000000030000000
(1485778642.432552) can0 2A5#00000000100FF0FF
(1485778642.433050) can0 0C8#DF873AF6E138C600
(1485778642.433319) can0 310#D94430602D450074
(1485778642.433549) can0 190#8000800080008000
(1485778642.433784) can0 218#00008F003C7DC0D8
(1485778642.434033) can0 360#C0C03F003C7DBCB7
(1485778642.434283) can0 060#0000000000000000
(1485778642.435531) can0 0B0#00004381E68013C3
(1485778642.435820) can0 140#00009C000003CA24
(1485778642.438305) can0 030#8002A180A000B207
(1485778642.439176) can0 070#05A709F469F4F000
(1485778642.439428) can0 010#00B400000000804B
(1485778642.439669) can0 080#90007D00008002F7
(1485778642.439945) can0 090#0000C1FF62130000
(1485778642.440178) can0 0A0#0000080000008003
(1485778642.440453) can0 0F8#000000000000104B
(1485778642.440660) can0 120#0000000000008000
(1485778642.440908) can0 130#50002000E0000000
(1485778642.441158) can0 138#007D84003800820F
(1485778642.441408) can0 1A0#1F40000080000000
(1485778642.441686) can0 1B0#4100000000403000
(1485778642.441789) can0 269#00000529AA85FF00
(1485778642.442053) can0 270#5E2F042100000000
(1485778642.442302) can0 280#C400008485264000
(1485778642.442534) can0 2D8#0444808000000000
(1485778642.442784) can0 2F0#30B0008400579636
(1485778642.443034) can0 150#A0B7700000000000
(1485778642.443283) can0 40A#C0013833003C7D00
(1485778642.443533) can0 160#55FF00005713F5FD
(1485778642.443783) can0 180#03000DF51805F000
(1485778642.444034) can0 190#8000800080008000
(1485778642.444283) can0 1C0#77C0000080000000
(1485778642.444534) can0 0A5#007EE2780025D800
(1485778642.444784) can0 1D0#A8FFFF0000000000
(1485778642.445033) can0 1E0#000000000000FE13
(1485778642.445283) can0 200#F200B76B0000C000
(1485778642.445533) can0 210#00000000F19D0000
(1485778642.445784) can0 213#00F100000FFFEFFF
(1485778642.446033) can0 252#0000000FFF200040
(1485778642.447160) can0 455#0000000000000000
(1485778642.448283) can0 030#8002A180A000B207
(1485778642.449158) can0 060#0000000000000000
(1485778642.449424) can0 010#01A400000000804B
(1485778642.449677) can0 090#0000C1FF62130000
(1485778642.449944) can0 0C0#0020000040000000
(1485778642.451302) can0 170#04000000D0000000
(1485778642.453054) can0 0C8#DF873EF2E138C600
(1485778642.453303) can0 260#8A82AF0DB561B800
(1485778642.453547) can0 190#8000800080008000
(1485778642.454177) can0 0A0#0000080000008003
(1485778642.455546) can0 0B0#00004381E68013C3
(1485778642.455659) can0 140#00009C000004BA24
(1485778642.456674) can0 208#7F063AF66F80FF98
(1485778642.458301) can0 030#800AE180E000B287
(1485778642.458572) can0 290#8600400100027702
(1485778642.459176) can0 070#05A709F469F4F000
(1485778642.459426) can0 010#029400000000804B
(1485778642.459666) can0 080#90007D00008002F7
(1485778642.459944) can0 090#0000C1FF62130000
(1485778642.460177) can0 0F8#000000000000104B
(1485778642.460455) can0 120#0000000000008000
(1485778642.460659) can0 130#50002000E0000000
(1485778642.460910) can0 138#007D84003800820F
(1485778642.461158) can0 1A0#1F40000080000000
(1485778642.463036) can0 150#A0B7500000000000
(1485778642.463540) can0 160#55FF00005703FDFD
(1485778642.463823) can0 180#03000DF51805F000
(1485778642.464051) can0 190#8000800080008000
(1485778642.464321) can0 060#0000000000000000
(1485778642.464553) can0 1C0#77C0000080000000
(1485778642.464658) can0 0A5#007EE1780015E800
(1485778642.464928) can0 1B5#000001D66AD0FFFC
(1485778642.465319) can0 1D0#A8FFFF0000000000
(1485778642.465535) can0 1E0#000000000000FF03
(1485778642.465687) can0 210#00000000F09F0000
(1485778642.465925) can0 213#00F000000FFFFFFF
(1485778642.466161) can0 218#00008F003C7DC0D8
(1485778642.466534) can0 252#0000000FFF200040
(1485778642.466657) can0 298#0000001BD82B0800
(1485778642.466908) can0 2D0#000001EF7F905A85
(1485778642.467159) can0 2D4#00000000E5FEFFFE
(1485778642.468409) can0 030#8002A180A000B207
(1485778642.468696) can0 400#1201000001040100
(1485778642.469295) can0 010#038400000000804B
(1485778642.469547) can0 090#0000C1FF62130000
(1485778642.469801) can0 0A0#0000080000008003
(1485778642.470052) can0 0C0#0020000040000000
(1485778642.470285) can0 1B0#4100000000403000
(1485778642.470533) can0 200#F200B76B0000C000
(1485778642.470803) can0 269#00000529AA85FF00
(1485778642.471034) can0 270#5E2F042100000000
(1485778642.471284) can0 280#C400008485264000
(1485778642.471531) can0 170#04000000D0000000
(1485778642.471783) can0 229#6000000000000000
(1485778642.472033) can0 2A0#0000000030000000
(1485778642.472284) can0 2A5#00000000100FF0FF
(1485778642.473285) can0 0C8#DF873AF6E138C600
(1485778642.473533) can0 190#8000800080008000
(1485778642.475533) can0 0B0#00004381E68013C3
(1485778642.475784) can0 140#00009C000005AA24
(1485778642.478284) can0 030#8003A180A000B207
(1485778642.478558) can0 260#8A82AF0DB4E1B800
(1485778642.479177) can0 060#0000000000000000
(1485778642.479444) can0 010#047400000000804B
(1485778642.479679) can0 070#05A709F469F4F000
(1485778642.479916) can0 080#90007D00008002F7
(1485778642.480197) can0 090#0000C1FF62130000
(1485778642.480410) can0 0F8#000000000000104B
(1485778642.480659) can0 120#0000000000008000
(1485778642.480908) can0 130#50002000E0000000
(1485778642.481197) can0 138#007D84003800820F
(1485778642.481427) can0 1A0#1F40000080000000
(1485778642.481668) can0 208#7F062AE60080FF18
(1485778642.483178) can0 150#A0B7500000000000
(1485778642.483553) can0 160#55FF000057F385FD
(1485778642.483805) can0 180#03000DF31804F000
(1485778642.484069) can0 190#8000800080008000
(1485778642.484307) can0 0A0#0000080000008003
(1485778642.484553) can0 1C0#77C0000080000000
(1485778642.484659) can0 0A5#007EE0780005F800
(1485778642.484934) can0 1D0#A8FFFF0000000000
(1485778642.485176) can0 1E0#000000000000F0F3
(1485778642.485535) can0 210#00000000FF810000
(1485778642.485664) can0 213#00FE00010FFF0FFF
(1485778642.485909) can0 252#0000010FFF200040
(1485778642.488161) can0 030#8002A180A000B207
(1485778642.488449) can0 290#0600C00100027702
(1485778642.489183) can0 090#0000C1FF62130000
(1485778642.489427) can0 010#056400000000804B
(1485778642.489677) can0 0C0#0020000040000000
(1485778642.491553) can0 170#04000000D0000000
(1485778642.493047) can0 0C8#DF873EF2E138C600
(1485778642.493551) can0 190#8000800080008000
(1485778642.493827) can0 218#00008F003C7DC0D8
(1485778642.494178) can0 060#0000000000000000
(1485778642.494445) can0 200#F200B76B0000C000
(1485778642.495552) can0 0B0#00004381E68013C3
(1485778642.495659) can0 140#00009C0000069A24
(1485778642.498064) can0 030#8002A180A000B207
(1485778642.499178) can0 070#05A709F469F4F000
(1485778642.499429) can0 010#065400000000804B
(1485778642.499676) can0 080#90007D00008003F7
(1485778642.499954) can0 090#0000C1FF62130000
(1485778642.500178) can0 0A0#0000080000008003
(1485778642.500446) can0 0F8#000000000000104B
(1485778642.500682) can0 120#0000000000008000
(1485778642.500910) can0 130#50002000E0000000
(1485778642.501160) can0 138#007D84003800820F
(1485778642.501409) can0 1A0#1F40000080000000
(1485778642.501658) can0 1B0#4100000000403000
(1485778642.501946) can0 269#000005295585FF00
(1485778642.502044) can0 270#5E2F042100000000
(1485778642.502284) can0 280#C400008485264000
(1485778642.502534) can0 2D8#0444808000000000
(1485778642.502806) can0 340#000000000300662F
(1485778642.503283) can0 150#A0B7500000000000
(1485778642.503571) can0 260#8A82AF0DB461B800
(1485778642.503669) can0 160#55FF000057E38DFD
(1485778642.503908) can0 180#03000DF61805F000
(1485778642.504159) can0 190#8000800080008000
(1485778642.504533) can0 1C0#77C0000080000000
(1485778642.504657) can0 0A5#007EEF7800F50800
(1485778642.504909) can0 1B5#000001D66AD0FFFC
(1485778642.505158) can0 1D0#A8FFFF0000000000
(1485778642.505409) can0 1E0#000000000000F1E3
(1485778642.505658) can0 210#00000000FE830000
(1485778642.505908) can0 213#00FE00000FFF1FFF
(1485778642.506160) can0 252#0000000FFF200040
(1485778642.506409) can0 298#0000001BD82B0800
(1485778642.506659) can0 2D0#000001FE70905A85
(1485778642.506909) can0 208#7F022AE60080FF18
(1485778642.508284) can0 030#8002A180A000B207
(1485778642.509284) can0 060#0000000000000000
(1485778642.509535) can0 010#074400000000804B
(1485778642.509784) can0 090#0000C1FF62120000
(1485778642.510034) can0 0C0#0020000040000000
(1485778642.511408) can0 170#04000000D0000000
(1485778642.511676) can0 229#6000000000000000
(1485778642.511944) can0 2A0#0000000030000000
(1485778642.512179) can0 2A5#00000000100FF0FF
(1485778642.513185) can0 0C8#DF873AF2E138C600
(1485778642.513554) can0 190#8000800080008000
(1485778642.514169) can0 0A0#0000080000008004
(1485778642.515552) can0 0B0#00004381E68013C3
(1485778642.515660) can0 140#00009C0000078A24
(1485778642.518303) can0 030#8002A180A000B207
(1485778642.518557) can0 290#0600400100027702
(1485778642.519303) can0 070#05A709F569F5F000
(1485778642.519571) can0 010#083400000000804B
(1485778642.519805) can0 080#90007D00008003F7
(1485778642.520052) can0 090#0000C1FF62120000
(1485778642.520321) can0 0F8#000000000000104B
(1485778642.520552) can0 120#0000000000008000
(1485778642.520791) can0 130#50002000E0000000
(1485778642.521034) can0 138#007D84003800820F
(1485778642.521322) can0 1A0#1F40000080000000
(1485778642.521555) can0 200#F200B76C0000C000
(1485778642.523180) can0 150#A0B7500000000000
(1485778642.523550) can0 160#55FF000057D395FD
(1485778642.523821) can0 180#03000DF41803F000
(1485778642.524055) can0 190#8000800080008000
(1485778642.524324) can0 060#0000000000000000
(1485778642.524548) can0 1C0#77C0000080000000
(1485778642.524821) can0 0A5#007EEE7800E51800
(1485778642.525035) can0 1D0#A8FFFF0000000000
(1485778642.525159) can0 1E0#000000000000F2D3
(1485778642.525534) can0 210#00000000FD850000
(1485778642.525659) can0 213#00FD00000FFF2FFF
(1485778642.525908) can0 218#00008F003C7DC0D8
(1485778642.526161) can0 252#0000000FFF200040
(1485778642.526535) can0 2D4#00000000E5FEFFFE
(1485778642.528407) can0 030#8002A180A000B207
(1485778642.528696) can0 17E#C010004000228000
(1485778642.528785) can0 260#8A82AF0DB461B800
(1485778642.529178) can0 090#0000C1FF62120000
(1485778642.529428) can0 010#092400000000804B
(1485778642.529679) can0 0A0#0000080000008004
(1485778642.529916) can0 0C0#0020000040000000
(1485778642.530179) can0 1B0#4100000000403000
(1485778642.530448) can0 269#000005295585FF00
(1485778642.530661) can0 270#5E2F042100000000
(1485778642.530909) can0 280#C400008485264000
(1485778642.531160) can0 2F0#30B0008400579636
(1485778642.531409) can0 170#04000000D0000000
(1485778642.531785) can0 208#7F0B2AE60080FF18
(1485778642.533159) can0 0C8#DF873EF2E138C600
(1485778642.533302) can0 310#D94430602D450074
(1485778642.533560) can0 190#8000800080008000
(1485778642.535553) can0 0B0#00004381E68013C3
(1485778642.535667) can0 140#00009C0000087A24
(1485778642.538303) can0 030#800BE180E000B287
(1485778642.539178) can0 060#0000000000000000
(1485778642.539451) can0 010#0A1400000000804B
(1485778642.539677) can0 070#05A709F469F4F000
(1485778642.539947) can0 080#90007D00008003F7
(1485778642.540177) can0 090#0000C1FF62120000
(1485778642.540450) can0 0F8#000000000000104B
(1485778642.540682) can0 120#0000000000008000
(1485778642.540910) can0 130#50002000E0000000
(1485778642.541159) can0 138#007D84003800820F
(1485778642.541409) can0 1A0#1F40000080000000
(1485778642.543053) can0 150#A0B7500000000000
(1485778642.543552) can0 160#55FF000057C39DFD
(1485778642.543828) can0 180#03000DF51803F000
(1485778642.544054) can0 190#8000800080008000
(1485778642.544319) can0 1C0#77C0000080000000
(1485778642.544565) can0 1D0#A8FFFF0000000000
(1485778642.544823) can0 0A0#0000080000008004
(1485778642.544919) can0 0A5#007EED7800D52800
(1485778642.545159) can0 1B5#000001D66AD0FFFC
(1485778642.545534) can0 1E0#000000000000F3C3
(1485778642.545680) can0 200#F200B76C0000C000
(1485778642.545909) can0 210#00000000FC870000
(1485778642.546162) can0 213#00FC00000FFF3FFF
(1485778642.546410) can0 252#0000000FFF200040
(1485778642.546659) can0 298#0000001BD82B0800
(1485778642.546909) can0 2D0#000001FD71905A85
(1485778642.547159) can0 455#0000000000000000
(1485778642.548284) can0 030#8002A180A000B207
(1485778642.548555) can0 290#8600400100027702
(1485778642.549285) can0 090#0000C1FF62110000
(1485778642.549536) can0 010#0B0400000000804B
(1485778642.549784) can0 0C0#0020000040000000
(1485778642.551410) can0 170#04000000D0000000
(1485778642.551677) can0 229#6000000000000000
(1485778642.551931) can0 2A0#0000000030000000
(1485778642.552177) can0 2A5#00000000100FF0FF
(1485778642.553054) can0 0C8#DF873AF6E138C600
(1485778642.553321) can0 260#8A82AF0DB4E1B800
(1485778642.553553) can0 190#8000800080008000
(1485778642.553807) can0 218#00008F003C7DC0D8
(1485778642.554159) can0 060#0000000000000000
(1485778642.555534) can0 0B0#00004381E68013C3
(1485778642.555686) can0 140#00009C0000096A24
(1485778642.557303) can0 208#7F0A3AF66F80FF98
(1485778642.558307) can0 030#8002A180A000B207
(1485778642.559172) can0 070#05A709F569F5F000
(1485778642.559450) can0 010#0CF400000000804B
(1485778642.559692) can0 080#90007D00008004F7
(1485778642.559927) can0 090#0000C1FF62110000
(1485778642.560203) can0 0A0#0000080000008005
(1485778642.560426) can0 0F8#000000000000104B
(1485778642.560703) can0 120#0000000000008000
(1485778642.560909) can0 130#50002000E0000000
(1485778642.561159) can0 138#007D84003800820F
(1485778642.561409) can0 1A0#1F40000080000000
(1485778642.561659) can0 1B0#4100000000403000
(1485778642.561792) can0 269#000005295585FF00
(1485778642.562055) can0 270#5E2F042100000000
(1485778642.562285) can0 280#C400008485264000
(1485778642.562534) can0 2D8#0444808000000000
(1485778642.563036) can0 150#A0B7500000000000
(1485778642.563595) can0 160#55FF000057B3A5FD
(1485778642.563795) can0 180#03000DF61805F000
(1485778642.564034) can0 190#8000800080008000
(1485778642.564285) can0 1C0#77C0000080000000
(1485778642.564534) can0 1D0#A8FFFF0000000000
(1485778642.564784) can0 1E0#000000000000F4B3
(1485778642.565034) can0 210#00000000FB890000
(1485778642.565284) can0 213#00FB00000FFF4FFF
(1485778642.565587) can0 0A5#007EEC7800C53800
(1485778642.565669) can0 252#0000000FFF200040
(1485778642.568284) can0 030#8002A180A000B207
(1485778642.568554) can0 40A#FF05010000088000
(1485778642.569180) can0 060#0000000000000000
(1485778642.569424) can0 010#0DE400000000804B
(1485778642.569678) can0 090#0000C1FF62110000
(1485778642.569929) can0 0C0#0020000040000000
(1485778642.570197) can0 200#F200B76C0000C000
(1485778642.571429) can0 170#04000000D0000000
(1485778642.573296) can0 0C8#DF873EF2E138C600
(1485778642.573573) can0 190#8000800080008000
(1485778642.574180) can0 0A0#0000080000008005
(1485778642.575433) can0 0B0#00004381E68013C3
(1485778642.575695) can0 140#00009C00000A5A24
(1485778642.578060) can0 030#8002A180A000B207
(1485778642.578317) can0 260#8A82AF0DB461B800
(1485778642.578554) can0 290#0600400100027702
(1485778642.579178) can0 070#05A709F569F5F000
(1485778642.579421) can0 010#0ED400000000804B
(1485778642.579700) can0 080#90007D00008004F7
(1485778642.579929) can0 090#0000C1FF62110000
(1485778642.580160) can0 0F8#000000000000104B
(1485778642.580410) can0 120#0000000000008000
(1485778642.580657) can0 130#50002000E0000000
(1485778642.580924) can0 138#007D84003800820F
(1485778642.581161) can0 1A0#1F40000080000000
(1485778642.581923) can0 208#7F0A2AE60080FF18
(1485778642.583175) can0 150#A0B7500000000000
(1485778642.583547) can0 360#C0C03F003C7DB8B7
(1485778642.583680) can0 160#55FF000057A3ADFF
(1485778642.583910) can0 180#03000DF31805F000
(1485778642.584188) can0 190#8000800080008000
(1485778642.584408) can0 060#0000000000000000
(1485778642.584674) can0 1C0#77C0000080000000
(1485778642.584921) can0 1D0#A8FFFF0000000000
(1485778642.585159) can0 1E0#000000000000F5A3
(1485778642.585409) can0 210#00000000FA8B0000
(1485778642.585662) can0 0A5#007EEB7800B54800
(1485778642.585910) can0 1B5#000001D66AD0FFFC
(1485778642.586163) can0 213#00FA00000FFF5FFF
(1485778642.586412) can0 218#00008F003C7DC0D8
(1485778642.586661) can0 252#0000000FFF200040
(1485778642.586910) can0 298#0000001BD82B0800
(1485778642.587037) can0 2D0#000001FC72905A85
(1485778642.587286) can0 2D4#00000000E5FEFFFE
(1485778642.588160) can0 030#8002A180A000B207
(1485778642.589162) can0 090#0000C20062120000
(1485778642.589410) can0 010#0FC400000000804B
(1485778642.589658) can0 0A0#0000080000008003
(1485778642.589912) can0 0C0#0020000040000000
(1485778642.590158) can0 1B0#4100000000403000
(1485778642.590410) can0 269#000005295585FF00
(1485778642.590660) can0 270#5E2F042100000000
(1485778642.590910) can0 280#C400008485264000
(1485778642.591159) can0 170#04000000D0000000
(1485778642.591535) can0 229#6000000000000000
(1485778642.591784) can0 2A0#0000000030000000
(1485778642.592035) can0 2A5#00000000100FF0FF
(1485778642.593158) can0 0C8#DF873AF6E138C600
(1485778642.593545) can0 190#8000800080008000
(1485778642.594171) can0 200#F200B76C0000C000
(1485778642.595547) can0 0B0#00004381E68013C3
(1485778642.595662) can0 140#00009C00000B4A24
(1485778642.598174) can0 030#8003A180A000B207
(1485778642.599172) can0 060#0000000000000000
(1485778642.599450) can0 010#00B400000000804B
(1485778642.599687) can0 070#05A709F569F5F000
(1485778642.599929) can0 080#90007D00008004F7
(1485778642.600180) can0 090#0000C20062120000
(1485778642.600433) can0 0F8#000000000000104B
(1485778642.600697) can0 120#0000000000008000
(1485778642.600911) can0 130#50002000E0000000
(1485778642.601161) can0 138#007D84003800820F
(1485778642.601284) can0 1A0#1F40000080000000
(1485778642.603161) can0 150#A0B7500000000000
(1485778642.603410) can0 260#8A82AF0DB5E1B800
(1485778642.603667) can0 160#55FF00005793B5FD
(1485778642.603786) can0 180#03000DF51803F000
(1485778642.604059) can0 190#8000800080008000
(1485778642.604303) can0 0A0#0000080000008003
(1485778642.604553) can0 1C0#77C0000080000000
(1485778642.604797) can0 1D0#A8FFFF0000000000
(1485778642.605050) can0 1E0#000000000000F693
(1485778642.605286) can0 210#00000000F98D0000
(1485778642.605534) can0 0A5#007EEA7800A55800
(1485778642.605785) can0 213#00F800010FFF6FFF
(1485778642.606035) can0 252#0000010FFF200040
(1485778642.607160) can0 208#7F092AE60080FF18
(1485778642.608178) can0 030#8002A180A000B207
(1485778642.608447) can0 290#8600400100027702
(1485778642.609180) can0 090#0000C20062120000
(1485778642.609447) can0 010#01A400000000804B
(1485778642.609679) can0 0C0#0020000040000000
(1485778642.611309) can0 170#04000000D0000000
(1485778642.613180) can0 0C8#DF873EF2E138C600
(1485778642.613554) can0 190#8000800080008000
(1485778642.613793) can0 218#00008F003C7DC0D8
(1485778642.614177) can0 060#0000000000000000
(1485778642.615428) can0 0B0#00004381E68013C3
(1485778642.615697) can0 140#00009C00000C3A24
(1485778642.618304) can0 030#800AE1A0E000B287
(1485778642.619179) can0 070#05A709F569F5F000
(1485778642.619444) can0 010#029400000000804B
(1485778642.619687) can0 080#90007D00008004F7
(1485778642.619921) can0 090#0000C20062120000
(1485778642.620198) can0 0A0#0000080000008003
(1485778642.620430) can0 0F8#000000000000104B
(1485778642.620661) can0 120#0000000000008000
(1485778642.620948) can0 130#50002000E0000000
(1485778642.621048) can0 138#007D84003800820F
(1485778642.621430) can0 1A0#1F40000080000000
(1485778642.621537) can0 1B0#4100000000403000
(1485778642.621800) can0 200#F200B76D0000C000
(1485778642.622054) can0 269#00000529AA85FF00
(1485778642.622320) can0 270#5E2F042100000000
(1485778642.622537) can0 280#C400008485264000
(1485778642.622785) can0 2D8#0444808000000000
(1485778642.623036) can0 2F0#30B0008400579636
(1485778642.623285) can0 150#A0B7500000000000
(1485778642.623535) can0 340#000000000300662F
(1485778642.623785) can0 160#55FF00005783BDFD
(1485778642.624044) can0 180#03000DF41805F000
(1485778642.624286) can0 190#8000800080008000
(1485778642.624535) can0 1C0#77C0000080000000
(1485778642.624785) can0 1D0#A8FFFF0000000000
(1485778642.625035) can0 1E0#000000000000F783
(1485778642.625285) can0 210#00000000F88F0000
(1485778642.625535) can0 213#00F700010FFF7FFF
(1485778642.625669) can0 0A5#007EE97800956800
(1485778642.625909) can0 1B5#000001D66AD0FFFC
(1485778642.626162) can0 252#0000010FFF200040
(1485778642.626535) can0 298#0000001BD82B0800
(1485778642.626681) can0 2D0#000001FB73905A85
(1485778642.628410) can0 030#8002A180A000B207
(1485778642.628678) can0 17E#C010004000200000
(1485778642.628946) can0 260#8A82AF0DB461B800
(1485778642.629181) can0 060#0000000000000000
(1485778642.629429) can0 010#038400000000804B
(1485778642.629680) can0 090#0000C20062120000
(1485778642.629910) can0 0C0#0020000040000000
(1485778642.631411) can0 170#04000000D0000000
(1485778642.631661) can0 229#6000000000000000
(1485778642.631910) can0 2A0#0000000030000000
(1485778642.632177) can0 208#7F072AE60080FF18
(1485778642.632455) can0 2A5#00000000100FF0FF
(1485778642.633056) can0 0C8#DF873AF2E138C600
(1485778642.633304) can0 310#D94430602D450074
(1485778642.633571) can0 190#8000800080008000
(1485778642.634179) can0 0A0#0000080000008004
(1485778642.635433) can0 0B0#00004381E68013C3
(1485778642.635678) can0 140#00009C00000D2A24
(1485778642.638304) can0 030#8002A180A000B207
(1485778642.638552) can0 290#0600400100027702
(1485778642.639181) can0 070#05A709F469F4F000
(1485778642.639446) can0 010#047400000000804B
(1485778642.639683) can0 080#90007D00008003F7
(1485778642.639917) can0 090#0000C20062120000
(1485778642.640200) can0 0F8#000000000000104B
(1485778642.640412) can0 120#0000000000008000
(1485778642.640660) can0 130#50002000E0000000
(1485778642.640805) can0 138#007D84003800820F
(1485778642.641178) can0 1A0#1F40000080000000
(1485778642.643055) can0 150#A0B7500000000000
(1485778642.643555) can0 160#55FF00005773C5FD
(1485778642.643802) can0 180#03000DF51805F000
(1485778642.644054) can0 190#8000800080008000
(1485778642.644306) can0 060#0000000000000000
(1485778642.644573) can0 1C0#77C0000080000000
(1485778642.644671) can0 1D0#A8FFFF0000000000
(1485778642.644939) can0 1E0#000000000000F873
(1485778642.645179) can0 200#F200B76D0000C000
(1485778642.645555) can0 210#00000000F7910000
(1485778642.645662) can0 0A5#007EE87800857800
(1485778642.645910) can0 213#00F700000FFF8FFF
(1485778642.646162) can0 218#00008F003C7DC0D8
(1485778642.646411) can0 252#0000000FFF200040
(1485778642.646660) can0 2D4#00000000E5FEFFFE
(1485778642.647286) can0 455#0000000000000000
(1485778642.648327) can0 030#8002A180A000B207
(1485778642.648555) can0 405#023833003B003C7D
(1485778642.649180) can0 090#0000C20062120000
(1485778642.649429) can0 010#056400000000804B
(1485778642.649682) can0 0A0#0000080000008004
(1485778642.649928) can0 0C0#0020000040000000
(1485778642.650172) can0 1B0#4100000000403000
(1485778642.650411) can0 269#00000529AA85FF00
(1485778642.650660) can0 270#5E2F042100000000
(1485778642.650795) can0 280#C400008485264000
(1485778642.651160) can0 170#04000000D0000000
(1485778642.653038) can0 0C8#DF873EF2E138C600
(1485778642.653323) can0 260#8A82AF0DB561B800
(1485778642.653552) can0 190#8000800080008000
(1485778642.655417) can0 0B0#00004381E68013C3
(1485778642.655698) can0 140#00009C00000E1A24
(1485778642.657305) can0 208#7F093AF66F80FF98
(1485778642.658181) can0 030#8003A180A000B207
(1485778642.659179) can0 060#0000000000000000
(1485778642.659429) can0 010#065400000000804B
(1485778642.659679) can0 070#05A709F469F4F000
(1485778642.659946) can0 080#90007D00008003F7
(1485778642.660183) can0 090#0000C20062130000
(1485778642.660448) can0 0F8#000000000000104B
(1485778642.660682) can0 120#0000000000008000
(1485778642.660911) can0 130#50002000E0000000
(1485778642.661161) can0 138#007D84003800820F
(1485778642.661411) can0 1A0#1F40000080000000
(1485778642.663305) can0 150#A0B7500000000000
(1485778642.663554) can0 160#55FF00005763CDFD
(1485778642.663802) can0 180#03000DF51804F000
(1485778642.664055) can0 190#8000800080008000
(1485778642.664161) can0 0A0#0000080000008004
(1485778642.664553) can0 1C0#77C0000080000000
(1485778642.664662) can0 1D0#A8FFFF0000000000
(1485778642.664931) can0 1E0#000000000000F963
(1485778642.665180) can0 210#00000000F6930000
(1485778642.665534) can0 213#00F600000FFF9FFF
(1485778642.665658) can0 0A5#007EE77800758800
(1485778642.665910) can0 1B5#000001D66AD0FFFC
(1485778642.666162) can0 252#0000000FFF200040
(1485778642.666411) can0 298#0000001BD82B0800
(1485778642.666661) can0 2D0#000001FA74905A85
(1485778642.668286) can0 030#8002A180A000B207
(1485778642.668542) can0 290#0600400100027702
(1485778642.669191) can0 090#0000C20062130000
(1485778642.669556) can0 010#074400000000804B
(1485778642.669663) can0 0C0#0020000040000000
(1485778642.669928) can0 200#F200B76D0000C000
(1485778642.671185) can0 170#04000000D0000000
(1485778642.671553) can0 229#6000000000000000
(1485778642.671820) can0 2A0#0000000030000000
(1485778642.672057) can0 2A5#00000000100FF0FF
(1485778642.673181) can0 0C8#DF873AF6E138C600
(1485778642.673574) can0 190#8000800080008000
(1485778642.673803) can0 218#00008F003C7DC0D8
(1485778642.674178) can0 060#0000000000000000
(1485778642.675429) can0 0B0#00004381E68013C3
(1485778642.675679) can0 140#00009C00000F0A24
(1485778642.678180) can0 030#8002A180A000B207
(1485778642.678288) can0 260#8A82AF0DB5E1B800
(1485778642.679174) can0 070#05A709F469F4F000
(1485778642.679449) can0 010#083400000000804B
(1485778642.679686) can0 080#90007D00008003F7
(1485778642.679931) can0 090#0000C20062130000
(1485778642.680176) can0 0A0#0000080000008003
(1485778642.680431) can0 0F8#000000000000104B
(1485778642.680668) can0 120#0000000000008000
(1485778642.680949) can0 130#50002000E0000000
(1485778642.681046) can0 138#007D84003800820F
(1485778642.681285) can0 1A0#1F40000080000000
(1485778642.681535) can0 1B0#4100000000403000
(1485778642.681785) can0 269#00000529AA85FF00
(1485778642.682035) can0 270#5E2F042100000000
(1485778642.682283) can0 208#7F072AE60080FF18
(1485778642.682535) can0 280#C400008485264000
(1485778642.682786) can0 2D8#0444808000000000
(1485778642.683286) can0 150#A0B7500000000000
(1485778642.683533) can0 160#55FF00005753D5FF
(1485778642.683785) can0 180#03000DF61805F000
(1485778642.684035) can0 190#8000800080008000
(1485778642.684286) can0 1C0#77C0000080000000
(1485778642.684536) can0 1D0#A8FFFF0000000000
(1485778642.684784) can0 1E0#000000000000FA53
(1485778642.685036) can0 210#00000000F5950000
(1485778642.685170) can0 213#00F400010FFFAFFF
(1485778642.685541) can0 0A5#007EE67800659800
(1485778642.685659) can0 252#0000010FFF200040
(1485778642.688160) can0 030#8002A180A000B207
(1485778642.689177) can0 060#0000000000000000
(1485778642.689418) can0 010#092400000000804B
(1485778642.689702) can0 090#0000C20062130000
(1485778642.689929) can0 0C0#0020000040000000
(1485778642.691430) can0 170#04000000D0000000
(1485778642.693186) can0 0C8#DF873EF2E138C600
(1485778642.693430) can0 40A#FF06111010000000
(1485778642.693672) can0 190#8000800080008000
(1485778642.694178) can0 0A0#0000080000008003
(1485778642.694451) can0 200#F200B76E0000C000
(1485778642.695429) can0 0B0#00004381E68013C3
(1485778642.695674) can0 140#00009C000000FA24
(1485778642.698179) can0 030#800AE180E000B287
(1485778642.698446) can0 290#8600400100027702
(1485778642.699178) can0 070#05A709F569F5F000
(1485778642.699448) can0 010#0A1400000000804B
(1485778642.699677) can0 080#90007D00008003F7
(1485778642.699918) can0 090#0000C20062140000
(1485778642.700200) can0 0F8#000000000000104B
(1485778642.700412) can0 120#0000000000008000
(1485778642.700661) can0 130#50002000E0000000
(1485778642.700785) can0 138#007D84003800820F
(1485778642.701179) can0 1A0#1F40000080000000
(1485778642.703186) can0 150#A0B7700000000000
(1485778642.703450) can0 260#8A82AF0DB561B800
(1485778642.703697) can0 160#55FF00005743DDFF
(1485778642.703923) can0 180#03000DF31803F000
(1485778642.704200) can0 190#8000800080008000
(1485778642.704428) can0 060#0000000000000000
(1485778642.704662) can0 1C0#77C0000080000000
(1485778642.704950) can0 1D0#A8FFFF0000000000
(1485778642.705162) can0 1E0#000000000000FB43
(1485778642.705411) can0 210#00000000F4970000
(1485778642.705661) can0 0A5#007EE5780055A800
(1485778642.705927) can0 1B5#000001D66AD0FFFC
(1485778642.706164) can0 213#00F400000FFFBFFF
(1485778642.706284) can0 218#00008F003C7DC0D8
(1485778642.706536) can0 252#0000000FFF200040
(1485778642.706786) can0 298#0000001BD82B0800
(1485778642.707036) can0 2D0#000001F975905A85
(1485778642.707285) can0 2D4#00000000E5FEFFFE
(1485778642.707536) can0 208#7F062AE60080FF18
(1485778642.708410) can0 030#8002A180A000B207
(1485778642.709181) can0 090#0000C20062140000
(1485778642.709446) can0 010#0B0400000000804B
(1485778642.709662) can0 0A0#0000080000008002
(1485778642.709911) can0 0C0#0020000040000000
(1485778642.710160) can0 1B0#4100000000403000
(1485778642.710411) can0 269#000005295585FF00
(1485778642.710660) can0 270#5E2F042100000000
(1485778642.710796) can0 280#C400008485264000
(1485778642.711036) can0 2F0#30B0008400579636
(1485778642.711412) can0 170#04000000D0000000
(1485778642.711661) can0 229#6000000000000000
(1485778642.711910) can0 2A0#0000000030000000
(1485778642.712159) can0 2A5#00000000100FF0FF
(1485778642.713163) can0 0C8#DF873AF6E138C600
(1485778642.713554) can0 190#8000800080008000
(1485778642.715430) can0 0B0#00004381E68013C3
(1485778642.715698) can0 140#00009C000001EA24
(1485778642.718300) can0 030#8003A180A000B207
(1485778642.718569) can0 400#1300000000020000
(1485778642.719180) can0 060#0000000000000000
(1485778642.719421) can0 010#0CF400000000804B
(1485778642.719703) can0 070#05A709F469F4F000
(1485778642.719930) can0 080#90007D00008003F7
(1485778642.720209) can0 090#0000C20062140000
(1485778642.720412) can0 0F8#000000000000104B
(1485778642.720662) can0 120#0000000000008000
(1485778642.720911) can0 130#50002000E0000000
(1485778642.721034) can0 138#007D84003800820F
(1485778642.721411) can0 1A0#1F40000080000000
(1485778642.721562) can0 200#F200B76E0000C000
(1485778642.723056) can0 150#A0B7500000000000
(1485778642.723553) can0 160#55FF00005733E5FD
(1485778642.723828) can0 180#03000DF51804F000
(1485778642.724052) can0 190#8000800080008000
(1485778642.724298) can0 0A0#0000080000008002
(1485778642.724577) can0 1C0#77C0000080000000
(1485778642.724675) can0 1D0#A8FFFF0000000000
(1485778642.724912) can0 1E0#000000000000FC33
(1485778642.725160) can0 210#00000000F3990000
(1485778642.725536) can0 213#00F300000FFFCFFF
(1485778642.725681) can0 0A5#007EE4780045B800
(1485778642.725912) can0 252#0000000FFF200040
(1485778642.728160) can0 030#8002A180A000B207
(1485778642.728553) can0 17E#C010004000200000
(1485778642.728661) can0 260#8A82AF0DB4E1B800
(1485778642.728948) can0 290#0600400100027702
(1485778642.729180) can0 380#10927CA96000C0A9
(1485778642.729427) can0 010#0DE400000000804B
(1485778642.729668) can0 090#0000C20062140000
(1485778642.729948) can0 0C0#0020000040000000
(1485778642.730181) can0 3B4#401111FF00000000
(1485778642.730286) can0 435#B214B9D276EFB3C3
(1485778642.731286) can0 170#04000000D0000000
(1485778642.732430) can0 208#7F052AE60080FF18
(1485778642.732933) can0 0C8#DF873EF2E138C600
(1485778642.733181) can0 310#D94430602D450074
(1485778642.733446) can0 360#C0C03F003C7DB8B7
(1485778642.733681) can0 190#8000800080008000
(1485778642.733931) can0 218#00008F003C7DC0D8
(1485778642.734181) can0 060#0000000000000000
(1485778642.735429) can0 0B0#00004381E68013C3
(1485778642.735699) can0 140#00009C000002DA24
(1485778642.738162) can0 030#8002A180A000B207
(1485778642.739162) can0 070#05A709F469F4F000
(1485778642.739556) can0 010#0ED400000000804B
(1485778642.739664) can0 080#90007D00008003F7
(1485778642.739930) can0 090#0000C1FF62110000
(1485778642.740199) can0 0A0#0000080000008004
(1485778642.740424) can0 0F8#000000000000104B
(1485778642.740700) can0 120#0000000000008000
(1485778642.740931) can0 130#50002000E0000000
(1485778642.741206) can0 138#007D84003800820F
(1485778642.741431) can0 1A0#1F40000080000000
(1485778642.741699) can0 1B0#4100000000403000
(1485778642.741910) can0 269#000005295585FF00
(1485778642.742161) can0 270#5E2F042100000000
(1485778642.742411) can0 280#C400008485264000
(1485778642.742661) can0 2D8#0444808000000000
(1485778642.742795) can0 340#000000000300662F
(1485778642.743036) can0 150#A0B7500000000000
(1485778642.743536) can0 160#55FF00005723EDFD
(1485778642.743786) can0 180#03000DF51804F000
(1485778642.744036) can0 190#8000800080008000
(1485778642.744287) can0 1C0#77C0000080000000
(1485778642.744536) can0 1D0#A8FFFF0000000000
(1485778642.744670) can0 1E0#000000000000FD23
(1485778642.744912) can0 200#F200B76E0000C000
(1485778642.745176) can0 210#00000000F29B0000
(1485778642.745536) can0 213#00F200000FFFDFFF
(1485778642.745671) can0 252#0000000FFF200040
(1485778642.745911) can0 2D0#000001F876905A85
(1485778642.746535) can0 0A5#007EE3780035C800
(1485778642.746672) can0 1B5#000001D66AD0FFFC
(1485778642.746911) can0 298#0000001BD82B0800
(1485778642.747162) can0 455#0000000000000000
(1485778642.748410) can0 030#8002A180A000B207
(1485778642.749181) can0 060#0000000000000000
(1485778642.749444) can0 010#0FC400000000804B
(1485778642.749681) can0 090#0000C1FF62110000
(1485778642.749947) can0 0C0#0020000040000000
(1485778642.751307) can0 170#04000000D0000000
(1485778642.751552) can0 229#6000000000000000
(1485778642.751930) can0 2A0#0000000030000000
(1485778642.752180) can0 2A5#00000000100FF0FF
(1485778642.753057) can0 0C8#DF873AF2E138C600
(1485778642.753307) can0 260#8A82AF0DB461B800
(1485778642.753574) can0 190#8000800080008000
(1485778642.754180) can0 0A0#0000080000008004
(1485778642.755431) can0 0B0#00004381E68013C3
(1485778642.755698) can0 140#00009C000003CA24
(1485778642.757566) can0 208#7F043AF66F80FF98
(1485778642.757805) can0 388#0000414279421600
(1485778642.758298) can0 030#8002A180A000B207
(1485778642.758577) can0 290#0600400100027702
(1485778642.759178) can0 070#05A709F469F4F000
(1485778642.759454) can0 010#00B400000000804B
(1485778642.759691) can0 080#90007D00008003F7
(1485778642.759931) can0 090#0000C1FF62110000
(1485778642.760228) can0 0F8#000000000000104B
(1485778642.760409) can0 120#0000000000008000
(1485778642.760662) can0 130#50002000E0000000
(1485778642.760911) can0 138#007D84003800820F
(1485778642.761047) can0 1A0#1F40000080000000
(1485778642.763288) can0 150#A0B7500000000000
(1485778642.763555) can0 160#55FF00005713F5FD
(1485778642.763831) can0 180#03000DF31803F000
(1485778642.764055) can0 190#8000800080008000
(1485778642.764298) can0 060#0000000000000000
(1485778642.764581) can0 1C0#77C0000080000000
(1485778642.764806) can0 1D0#A8FFFF0000000000
(1485778642.765037) can0 1E0#000000000000FE13
(1485778642.765287) can0 210#00000000F19D0000
(1485778642.765536) can0 213#00F000010FFFEFFF
(1485778642.765787) can0 218#00008F003C7DC0D8
(1485778642.766037) can0 252#0000010FFF200040
(1485778642.766287) can0 2D4#00000000E5FEFFFE
(1485778642.766661) can0 0A5#007EE2780025D800
(1485778642.768182) can0 030#8002A180A000B207
(1485778642.769178) can0 090#0000C1FF62110000
(1485778642.769413) can0 010#01A400000000804B
(1485778642.769676) can0 0A0#0000080000008004
(1485778642.769928) can0 0C0#0020000040000000
(1485778642.770175) can0 1B0#4100000000403000
(1485778642.770427) can0 200#F200B76E0000C000
(1485778642.771420) can0 269#000005295585FF00
(1485778642.771424) can0 270#5E2F042100000000
(1485778642.771427) can0 280#C400008485274000
(1485778642.771429) can0 170#04000000D0000000
(1485778642.773187) can0 0C8#DF873EF6E138C600
(1485778642.773578) can0 190#8000800080008000
(1485778642.775307) can0 0B0#00004381E68013C3
(1485778642.775535) can0 140#00009C000004BA24
(1485778642.778075) can0 030#8003A180A000B207
(1485778642.778314) can0 260#8A82AF0DB5E1B800
(1485778642.779180) can0 060#0000000000000000
(1485778642.779412) can0 010#029400000000804B
(1485778642.779699) can0 070#05A709F469F4F000
(1485778642.779930) can0 080#90007D00008003F7
(1485778642.780184) can0 090#0000C1FF62110000
(1485778642.780413) can0 0F8#000000000000104B
(1485778642.780696) can0 120#0000000000008000
(1485778642.780947) can0 130#50002000E0000000
(1485778642.781038) can0 138#007D84003800820F
(1485778642.781313) can0 1A0#1F40000080000000
(1485778642.782538) can0 208#7F072AE60080FF18
(1485778642.783182) can0 150#A0B7500000000000
(1485778642.783554) can0 160#55FF00005703FDFD
(1485778642.783825) can0 180#03000DF71803F000
(1485778642.784058) can0 190#8000800080008000
(1485778642.784162) can0 0A0#0000080000008004
(1485778642.784552) can0 1C0#77C0000080000000
(1485778642.784661) can0 1D0#A8FFFF0000000000
(1485778642.785037) can0 1E0#000000000000FF03
(1485778642.785161) can0 210#00000000F09F0000
(1485778642.785552) can0 213#00F000000FFFFFFF
(1485778642.785662) can0 252#0000000FFF200040
(1485778642.785911) can0 2D0#000001F777905A85
(1485778642.786537) can0 0A5#007EE1780015E800
(1485778642.786674) can0 1B5#000001D66AD0FFFC
(1485778642.786929) can0 298#0000001BD82B0800
(1485778642.788305) can0 030#800AE180E000B287
(1485778642.788538) can0 290#8600C00100027702
(1485778642.789298) can0 010#038400000000804B
(1485778642.789701) can0 090#0000C1FF62110000
(1485778642.789931) can0 0C0#0020000040000000
(1485778642.791174) can0 170#04000000D0000000
(1485778642.791430) can0 229#6000000000000000
(1485778642.791663) can0 2A0#0000000030000000
(1485778642.791912) can0 2A5#00000000100FF0FF
(1485778642.793174) can0 0C8#DF873AF2E138C600
(1485778642.793555) can0 190#8000800080008000
(1485778642.793822) can0 218#00008F003C7DC0D8
(1485778642.794180) can0 060#0000000000000000
(1485778642.794447) can0 200#F200B76E0000C000
(1485778642.795430) can0 0B0#00004381E68013C3
(1485778642.795536) can0 140#00009C000005AA24
(1485778642.798181) can0 030#8002A180A000B207
(1485778642.799163) can0 070#05A709F469F4F000
(1485778642.799412) can0 010#047400000000804B
(1485778642.799537) can0 080#90007D00008002F7
(1485778642.799928) can0 090#0000C1FF62110000
(1485778642.800038) can0 0A0#0000080000008004
(1485778642.800316) can0 0F8#000000000000104B
(1485778642.800558) can0 120#0000000000008000
(1485778642.800805) can0 130#50002000E0000000
(1485778642.801055) can0 138#007D84003800820F
(1485778642.801287) can0 1A0#1F40000080000000
(1485778642.801537) can0 1B0#4100000000403000
(1485778642.801787) can0 269#00000529AA85FF00
(1485778642.802049) can0 270#5E2F042100000000
(1485778642.802288) can0 280#C400008485274000
(1485778642.802538) can0 2D8#0444808000000000
(1485778642.802787) can0 2F0#30B0008400579636
(1485778642.803293) can0 150#A0B7500000000000
(1485778642.803568) can0 160#55FF000057F385FD
(1485778642.803788) can0 180#03000DF41804F000
(1485778642.804048) can0 190#8000800080008000
(1485778642.804303) can0 1C0#77C0000080000000
(1485778642.804538) can0 1D0#A8FFFF0000000000
(1485778642.804823) can0 1E0#000000000000F0F3
(1485778642.805038) can0 210#00000000FF810000
(1485778642.805287) can0 213#00FF00000FFF0FFF
(1485778642.805537) can0 252#0000000FFF200040
(1485778642.805672) can0 260#8A82AF0DB461B800
(1485778642.806538) can0 0A5#007EE0780005F800
(1485778642.807661) can0 208#7F0A2AE60080FF18
(1485778642.808412) can0 030#8002A180A000B207
(1485778642.809162) can0 060#0000000000000000
(1485778642.809565) can0 010#056400000000804B
(1485778642.809672) can0 090#0000C20062130000
(1485778642.809922) can0 0C0#0020000040000000
(1485778642.811303) can0 170#04000000D0000000
(1485778642.813062) can0 0C8#DF873EF2E138C600
(1485778642.813552) can0 190#8000800080008000
(1485778642.814182) can0 0A0#0000080000008004
(1485778642.815310) can0 0B0#00004381E68013C3
(1485778642.815552) can0 140#00009C0000069A24
(1485778642.818327) can0 030#8002A180A000B207
(1485778642.818555) can0 290#0600400100027702
(1485778642.818663) can0 40A#FF07080001001008
(1485778642.819180) can0 070#05A709F469F4F000
(1485778642.819430) can0 010#065400000000804B
(1485778642.819680) can0 080#90007D00008002F7
(1485778642.819925) can0 090#0000C20062130000
(1485778642.820038) can0 0F8#000000000000104B
(1485778642.820314) can0 120#0000000000008000
(1485778642.820556) can0 130#50002000E0000000
(1485778642.820806) can0 138#007D84003800820F
(1485778642.821038) can0 1A0#1F40000080000000
(1485778642.821288) can0 200#F200B76F0000C000
(1485778642.823039) can0 150#A0B7500000000000
(1485778642.823554) can0 160#55FF000057E38DFD
(1485778642.823663) can0 180#03000DF51805F000
(1485778642.823912) can0 190#8000800080008000
(1485778642.824168) can0 060#0000000000000000
(1485778642.824536) can0 1C0#77C0000080000000
(1485778642.824689) can0 1D0#A8FFFF0000000000
(1485778642.824913) can0 1E0#000000000000F1E3
(1485778642.825163) can0 210#00000000FE830000
(1485778642.825536) can0 213#00FE00000FFF1FFF
(1485778642.825671) can0 218#00008F003C7DC0D8
(1485778642.825912) can0 252#0000000FFF200040
(1485778642.826172) can0 2D0#000001F678905A85
(1485778642.826412) can0 2D4#00000000E5FEFFFE
(1485778642.826662) can0 0A5#007EEF7800F50800
(1485778642.826913) can0 1B5#000001D66AD0FFFC
(1485778642.827164) can0 298#0000001BD82B0800
(1485778642.828287) can0 030#8002A180A000B207
(1485778642.828663) can0 17E#C010004000278000
(1485778642.828787) can0 260#8A82AF0DB461B800
(1485778642.829161) can0 090#0000C20062130000
(1485778642.829431) can0 010#074400000000804B
(1485778642.829680) can0 0A0#0000080000008002
(1485778642.829954) can0 0C0#0020000040000000
(1485778642.830160) can0 1B0#4100000000403000
(1485778642.830413) can0 269#00000529AA85FF00
(1485778642.830663) can0 270#5E2F042100000000
(1485778642.830786) can0 280#C400008485274000
(1485778642.831162) can0 170#04000000D0000000
(1485778642.831536) can0 229#6000000000000000
(1485778642.831662) can0 2A0#0000000030000000
(1485778642.831911) can0 2A5#00000000100FF0FF
(1485778642.832663) can0 208#7F072AE60080FF18
(1485778642.833163) can0 0C8#DF873AF6E138C600
(1485778642.833412) can0 310#DB4430602D450074
(1485778642.833662) can0 190#8000800080008000
(1485778642.835287) can0 0B0#00004381E68013C3
(1485778642.835551) can0 140#00009C0000078A24
(1485778642.838305) can0 030#8003A180A000B207
(1485778642.839181) can0 060#0000000000000000
(1485778642.839430) can0 010#083400000000804B
(1485778642.839682) can0 070#05A709F469F4F000
(1485778642.839913) can0 080#90007D00008002F7
(1485778642.840037) can0 090#0000C20062130000
(1485778642.840286) can0 0F8#000000000000104B
(1485778642.840537) can0 120#0000000000008000
(1485778642.840787) can0 130#50002000E0000000
(1485778642.841037) can0 138#007D84003800820F
(1485778642.841287) can0 1A0#1F40000080000000
(1485778642.842914) can0 581#8100FFFFFFFFFFFF
(1485778642.843203) can0 150#A0B7500000000000
(1485778642.843546) can0 160#55FF000057D395FD
(1485778642.843666) can0 180#03000DF51803F000
(1485778642.843939) can0 190#8000800080008000
(1485778642.844179) can0 0A0#0000080000008002
(1485778642.844555) can0 1C0#77C0000080000000
(1485778642.844669) can0 1D0#A8FFFF0000000000
(1485778642.844912) can0 1E0#000000000000F2D3
(1485778642.845162) can0 200#F200B76F0000C000
(1485778642.845537) can0 210#00000000FD850000
(1485778642.845662) can0 213#00FD00000FFF2FFF
(1485778642.845912) can0 252#0000000FFF200040
(1485778642.846414) can0 0A5#007EEE7800E51800
(1485778642.847413) can0 3DA#0000000000000000
(1485778642.847687) can0 3E2#0000000000000000
(1485778642.848055) can0 3EA#0000000000006000
(1485778642.848321) can0 030#8002A180A000B207
(1485778642.848574) can0 290#8600400100027702
(1485778642.848663) can0 455#0000000000000000
(1485778642.849163) can0 090#0000C20062140000
(1485778642.849424) can0 010#092400000000804B
(1485778642.849708) can0 0C0#0020000040000000
(1485778642.851289) can0 170#04000000D0000000
(1485778642.853185) can0 0C8#DF873EF2E138C600
(1485778642.853437) can0 260#8A82AF0DB5E1B800
(1485778642.853703) can0 190#8000800080008000
(1485778642.853930) can0 218#00008F003C7DC0D8
(1485778642.854203) can0 060#0000000000000000
(1485778642.855289) can0 0B0#00004381E68013C3
(1485778642.855555) can0 140#00009C0000087A24
(1485778642.857822) can0 208#7F003AF66F80FF98
(1485778642.858180) can0 030#800AE180E000B287
(1485778642.859180) can0 070#05A709F569F5F000
(1485778642.859452) can0 010#0A1400000000804B
(1485778642.859682) can0 080#90007D00008004F7
(1485778642.859797) can0 090#0000C20062140000
(1485778642.860063) can0 0A0#0000080000008002
(1485778642.860420) can0 0F8#000000000000104B
(1485778642.860541) can0 120#0000000000008000
(1485778642.860805) can0 130#50002000E0000000
(1485778642.861056) can0 138#007D84003800820F
(1485778642.861306) can0 1A0#1F40000080000000
(1485778642.861538) can0 1B0#4100000000403000
(1485778642.861790) can0 269#00000529AA85FF00
(1485778642.862037) can0 270#5E2F042100000000
(1485778642.862287) can0 280#C400008485274000
(1485778642.862537) can0 2D8#0444808000000000
(1485778642.862788) can0 340#000000000300662F
(1485778642.863163) can0 150#A0B7500000000000
(1485778642.863538) can0 160#55FF000057C39DFD
(1485778642.863662) can0 180#03000DF61804F000
(1485778642.864037) can0 190#8000800080008000
(1485778642.864161) can0 1C0#77C0000080000000
(1485778642.864537) can0 1D0#A8FFFF0000000000
(1485778642.864663) can0 1E0#000000000000F3C3
(1485778642.864912) can0 210#00000000FC870000
(1485778642.865163) can0 213#00FC00000FFF3FFF
(1485778642.865537) can0 252#0000000FFF200040
(1485778642.865662) can0 2D0#000001F579905A85
(1485778642.866539) can0 0A5#007EED7800D52800
(1485778642.866683) can0 1B5#000001D66AD0FFFC
(1485778642.866951) can0 298#0000001BD82B0800
(1485778642.868195) can0 030#8002A180A000B207
(1485778642.869181) can0 060#0000000000000000
(1485778642.869450) can0 010#0B0400000000804B
(1485778642.869681) can0 090#0000C20062140000
(1485778642.869950) can0 0C0#0020000040000000
(1485778642.870198) can0 200#F200B76F0000C000
(1485778642.871181) can0 170#04000000D0000000
(1485778642.871414) can0 229#6000000000000000
(1485778642.871700) can0 2A0#0000000030000000
(1485778642.871946) can0 2A5#00000000100FF0FF
(1485778642.873290) can0 0C8#DF873AF2E138C600
(1485778642.873556) can0 190#8000800080008000
(1485778642.874163) can0 0A0#0000080000008002
(1485778642.875302) can0 0B0#00004381E68013C3
(1485778642.875556) can0 140#00009C0000096A24
(1485778642.878056) can0 030#8002A180A000B207
(1485778642.878325) can0 260#8A82AF0DB461B800
(1485778642.878558) can0 290#0600400100027702
(1485778642.879180) can0 070#05A709F569F5F000
(1485778642.879451) can0 010#0CF400000000804B
(1485778642.879681) can0 080#90007D00008004F7
(1485778642.879950) can0 090#0000C20062140000
(1485778642.880164) can0 0F8#000000000000104B
(1485778642.880412) can0 120#0000000000008000
(1485778642.880662) can0 130#50002000E0000000
(1485778642.880949) can0 138#007D84003800820F
(1485778642.881039) can0 1A0#1F40000080000000
(1485778642.882814) can0 208#7F082AE60080FF18
(1485778642.883180) can0 150#A0B7500000000000
(1485778642.883557) can0 360#C0C03F003C7DB8B7
(1485778642.883664) can0 160#55FF000057B3A5FD
(1485778642.883930) can0 180#03000DF41802F000
(1485778642.884183) can0 060#0000000000000000
(1485778642.884451) can0 190#8000800080008000
(1485778642.884700) can0 1C0#77C0000080000000
(1485778642.884926) can0 1D0#A8FFFF0000000000
(1485778642.885163) can0 1E0#000000000000F4B3
(1485778642.885412) can0 210#00000000FB890000
(1485778642.885662) can0 213#00FB00000FFF4FFF
(1485778642.885913) can0 218#00008F003C7DC0D8
(1485778642.886164) can0 252#0000000FFF200040
(1485778642.886414) can0 2D4#00000000E5FEFFFE
(1485778642.886663) can0 0A5#007EEC7800C53800
(1485778642.888163) can0 030#8002A180A000B207
(1485778642.889162) can0 090#0000C20162160000
(1485778642.889413) can0 010#0DE400000000804B
(1485778642.889663) can0 0A0#0000080000008000
(1485778642.889913) can0 0C0#0020000040000000
(1485778642.890163) can0 1B0#4100000000403000
(1485778642.890412) can0 269#00000529AA85FF00
(1485778642.890538) can0 270#5E2F042100000000
(1485778642.890817) can0 280#C400008485274000
(1485778642.891055) can0 2F0#30B0008400579636
(1485778642.891289) can0 170#04000000D0000000
(1485778642.893161) can0 0C8#DF873EF2E138C600
(1485778642.893557) can0 190#8000800080008000
(1485778642.894183) can0 200#F200B76F0000C000
(1485778642.895310) can0 0B0#00004381E68013C3
(1485778642.895573) can0 140#00009C00000A5A24
(1485778642.898326) can0 030#8003A180A000B207
(1485778642.898557) can0 405#050000000000078A
(1485778642.899182) can0 060#0000000000000000
(1485778642.899436) can0 010#0ED400000000804B
(1485778642.899692) can0 070#05A709F469F4F000
(1485778642.899931) can0 080#90007D00008003F7
(1485778642.900039) can0 090#0000C20162160000
(1485778642.900311) can0 0F8#000000000000104B
(1485778642.900557) can0 120#0000000000008000
(1485778642.900805) can0 130#50002000E0000000
(1485778642.901056) can0 138#007D84003800820F
(1485778642.901299) can0 1A0#1F40000080000000
(1485778642.903166) can0 150#A0B7500000000000
(1485778642.903450) can0 260#8A82AF0DB5E1B800
(1485778642.903682) can0 160#55FF000057A3ADFD
(1485778642.903914) can0 180#03000DF61805F000
(1485778642.904163) can0 0A0#0000080000008000
(1485778642.904452) can0 190#8000800080008000
(1485778642.904676) can0 1C0#77C0000080000000
(1485778642.904954) can0 1D0#A8FFFF0000000000
(1485778642.905164) can0 1E0#000000000000F5A3
(1485778642.905412) can0 210#00000000FA8B0000
(1485778642.905548) can0 213#00FA00000FFF5FFF
(1485778642.905788) can0 252#0000000FFF200040
(1485778642.906038) can0 2D0#000001F47A905A85
(1485778642.906414) can0 0A5#007EEB7800B54800
(1485778642.906663) can0 1B5#000001D66AD0FFFC
(1485778642.906913) can0 298#0000001BD82B0800
(1485778642.908038) can0 208#7F052AE60080FF18
(1485778642.908414) can0 030#8002A180A000B207
(1485778642.908703) can0 290#0600400100027702
(1485778642.909164) can0 090#0000C20162160000
(1485778642.909413) can0 010#0FC400000000804B
(1485778642.909671) can0 0C0#0020000040000000
(1485778642.911181) can0 170#04000000D0000000
(1485778642.911448) can0 229#6000000000000000
(1485778642.911685) can0 2A0#0000000030000000
(1485778642.911931) can0 2A5#00000000100FF0FF
(1485778642.913061) can0 0C8#DF873AF6E138C600
(1485778642.913557) can0 190#8000800080008000
(1485778642.913664) can0 218#00008F003C7DC0D8
(1485778642.914181) can0 060#0000000000000000
(1485778642.915304) can0 0B0#00004381E68013C3
(1485778642.915557) can0 140#00009C00000B4A24
(1485778642.918186) can0 030#8002A180A000B207
(1485778642.919072) can0 070#05A709F469F4F000
(1485778642.919305) can0 010#00B400000000804B
(1485778642.919556) can0 080#90007D00008002F7
(1485778642.919806) can0 090#0000C20162160000
(1485778642.920056) can0 0A0#0000080000008000
(1485778642.920298) can0 0F8#000000000000104B
(1485778642.920539) can0 120#0000000000008000
(1485778642.920801) can0 130#50002000E0000000
(1485778642.921039) can0 138#007D84003800820F
(1485778642.921288) can0 1A0#1F40000080000000
(1485778642.921536) can0 1B0#4100000000403000
(1485778642.921788) can0 200#F200B7700000C000
(1485778642.922038) can0 269#000005295585FF00
(1485778642.922288) can0 270#5E2F042100000000
(1485778642.922538) can0 280#C400008485264000
(1485778642.922787) can0 2D8#0444808000000000
(1485778642.923038) can0 150#A0B7500000000000
(1485778642.923538) can0 160#55FF00005793B5FD
(1485778642.923673) can0 180#03000DF41804F000
(1485778642.924038) can0 190#8000800080008000
(1485778642.924172) can0 1C0#77C0000080000000
(1485778642.924538) can0 1D0#A8FFFF0000000000
(1485778642.924661) can0 1E0#000000000000F693
(1485778642.924912) can0 210#00000000F98D0000
(1485778642.925162) can0 213#00F900000FFF6FFF
(1485778642.925537) can0 252#0000000FFF200040
(1485778642.926415) can0 0A5#007EEA7800A55800
(1485778642.928307) can0 030#8002A180A000B207
(1485778642.928558) can0 17E#C010004000200000
(1485778642.928796) can0 260#8A82AF0DB561B800
(1485778642.929183) can0 060#0000000000000000
(1485778642.929432) can0 010#01A400000000804B
(1485778642.929681) can0 090#0000C20062160000
(1485778642.929933) can0 0C0#0020000040000000
(1485778642.931182) can0 170#04000000D0000000
(1485778642.933057) can0 208#7F072AE60080FF18
(1485778642.933164) can0 0C8#DF873EF2E138C600
(1485778642.933561) can0 310#D94430602D450074
(1485778642.933662) can0 190#8000800080008000
(1485778642.934180) can0 0A0#0000080000008000
(1485778642.935288) can0 0B0#00004381E68013C3
(1485778642.935551) can0 140#00009C00000C3A24
(1485778642.938289) can0 030#800AE1A0E000B287
(1485778642.938579) can0 290#8600400100027702
(1485778642.939289) can0 010#029400000000804B
(1485778642.939664) can0 070#05A709F469F4F000
(1485778642.939913) can0 080#90007D00008001F7
(1485778642.940163) can0 090#0000C20062160000
(1485778642.940414) can0 0F8#000000000000104B
(1485778642.940663) can0 120#0000000000008000
(1485778642.940913) can0 130#50002000E0000000
(1485778642.941163) can0 138#007D84003800820F
(1485778642.941298) can0 1A0#1F40000080000000
(1485778642.943040) can0 150#A0B7500000000000
(1485778642.943289) can0 40A#FF08080444460244
(1485778642.943550) can0 160#55FF00005783BDFD
(1485778642.943789) can0 180#03000DF61803F000
(1485778642.944038) can0 190#8000800080008000
(1485778642.944288) can0 060#0000000000000000
(1485778642.944538) can0 1C0#77C0000080000000
(1485778642.944788) can0 1D0#A8FFFF0000000000
(1485778642.945039) can0 1E0#000000000000F783
(1485778642.945288) can0 200#F200B7700000C000
(1485778642.945536) can0 210#00000000F88F0000
(1485778642.945788) can0 213#00F800000FFF7FFF
(1485778642.946038) can0 218#00008F003C7DC0D8
(1485778642.946194) can0 252#0000000FFF200040
(1485778642.946540) can0 2D0#000001F37B905A85
(1485778642.946662) can0 0A5#007EE97800956800
(1485778642.946913) can0 1B5#000001D66AD0FFFC
(1485778642.947163) can0 298#0000001BD82B0800
(1485778642.947413) can0 2D4#00000000E5FEFFFE
(1485778642.947663) can0 455#0000000000000000
(1485778642.948413) can0 030#8002A180A000B207
(1485778642.949181) can0 090#0000C20062160000
(1485778642.949432) can0 010#038400000000804B
(1485778642.949678) can0 0A0#0000080000008000
(1485778642.949915) can0 0C0#0020000040000000
(1485778642.950164) can0 1B0#4100000000403000
(1485778642.950413) can0 269#000005295585FF00
(1485778642.950548) can0 270#5E2F042100000000
(1485778642.950789) can0 280#C400008485264000
(1485778642.951163) can0 170#04000000D0000000
(1485778642.951414) can0 229#6000000000000000
(1485778642.951663) can0 2A0#0000000030000000
(1485778642.951914) can0 2A5#00000000100FF0FF
(1485778642.953421) can0 0C8#DF873AF6E138C600
(1485778642.953584) can0 190#8000800080008000
(1485778642.953815) can0 260#8A82AF0DB4E1B800
(1485778642.955310) can0 0B0#00004381E68013C3
(1485778642.955586) can0 140#00009C00000D2A24
(1485778642.958121) can0 030#8003A180A000B207
(1485778642.958308) can0 208#7F073AF66F80FF98
(1485778642.959244) can0 060#0000000000000000
(1485778642.959419) can0 010#047400000000804B
(1485778642.959681) can0 070#05A709F469F4F000
(1485778642.959937) can0 080#90007D00008001F7
(1485778642.960182) can0 090#0000C20062150000
(1485778642.960415) can0 0F8#000000000000104B
(1485778642.960664) can0 120#0000000000008000
(1485778642.960914) can0 130#50002000E0000000
(1485778642.961164) can0 138#007D84003800820F
(1485778642.961413) can0 1A0#1F40000080000000
(1485778642.963166) can0 150#A0B7500000000000
(1485778642.963565) can0 160#55FF00005773C5FD
(1485778642.963662) can0 180#03000DF51804F000
(1485778642.963967) can0 190#8000800080008000
(1485778642.964189) can0 0A0#0000080000008000
(1485778642.964560) can0 1C0#77C0000080000000
(1485778642.964667) can0 1D0#A8FFFF0000000000
(1485778642.964932) can0 1E0#000000000000F873
(1485778642.965182) can0 210#00000000F7910000
(1485778642.965557) can0 213#00F700000FFF8FFF
(1485778642.965665) can0 252#0000000FFF200040
(1485778642.966561) can0 0A5#007EE87800857800
(1485778642.968051) can0 030#8002A180A000B207
(1485778642.968342) can0 290#0600400100027702
(1485778642.968547) can0 400#1402000100000301
(1485778642.969180) can0 090#0000C20062150000
(1485778642.969432) can0 010#056400000000804B
(1485778642.969684) can0 0C0#0020000040000000
(1485778642.969950) can0 200#F200B7700000C000
(1485778642.971308) can0 170#04000000D0000000
(1485778642.973186) can0 0C8#DF873EF2E138C600
(1485778642.973557) can0 190#8000800080008000
(1485778642.973664) can0 218#00008F003C7DC0D8
(1485778642.974182) can0 060#0000000000000000
(1485778642.975307) can0 0B0#00004381E68013C3
(1485778642.975557) can0 140#00009C00000E1A24
(1485778642.978072) can0 030#8002A180A000B207
(1485778642.978336) can0 260#8A82AF0DB561B800
(1485778642.979214) can0 070#05A709F469F4F000
(1485778642.979286) can0 010#065400000000804B
(1485778642.979603) can0 080#90007D00008000F7
(1485778642.979788) can0 090#0000C20062150000
(1485778642.980059) can0 0A0#0000080000008001
(1485778642.980310) can0 0F8#000000000000104B
(1485778642.980566) can0 120#0000000000008000
(1485778642.980807) can0 130#50002000E0000000
(1485778642.981057) can0 138#007D84003800820F
(1485778642.981308) can0 1A0#1F40000080000000
(1485778642.981540) can0 1B0#4100000000403000
(1485778642.981790) can0 269#000005295585FF00
(1485778642.982039) can0 270#5E2F042100000000
(1485778642.982287) can0 280#C400008485264000
(1485778642.982539) can0 2D8#0444808000000000
(1485778642.982788) can0 2F0#30B0008400579636
(1485778642.983040) can0 340#000000000300662F
(1485778642.983288) can0 150#A0B7700000000000
(1485778642.983539) can0 208#7F0D2AE60080FF18
(1485778642.983662) can0 160#55FF00005763CDFD
(1485778642.983913) can0 180#03000DF41804F000
(1485778642.984164) can0 190#8000800080008000
(1485778642.984538) can0 1C0#77C0000080000000
(1485778642.984685) can0 1D0#A8FFFF0000000000
(1485778642.984914) can0 1E0#000000000000F963
(1485778642.985164) can0 210#00000000F6930000
(1485778642.985538) can0 213#00F600000FFF9FFF
(1485778642.985688) can0 252#0000000FFF200040
(1485778642.985914) can0 2D0#000001F27C905A85
(1485778642.987414) can0 0A5#007EE77800758800
(1485778642.987703) can0 1B5#000001D66AD0FFFC
(1485778642.987932) can0 298#0000001BD82B0800
(1485778642.988182) can0 030#8002A180A000B207
(1485778642.989184) can0 060#0000000000000000
(1485778642.989451) can0 010#074400000000804B
(1485778642.989691) can0 090#0000C20062150000
(1485778642.989932) can0 0C0#0020000040000000
(1485778642.991290) can0 170#04000000D0000000
(1485778642.991558) can0 229#6000000000000000
(1485778642.991790) can0 2A0#0000000030000000
(1485778642.992068) can0 2A5#00000000100FF0FF
(1485778642.993311) can0 0C8#DF873AF2E138C600
(1485778642.993557) can0 190#8000800080008000
(1485778642.994183) can0 0A0#0000080000008001
(1485778642.994289) can0 200#F200B7710000C000
(1485778642.995306) can0 0B0#00004381E68013C3
(1485778642.995575) can0 140#00009C00000F0A24
(1485778642.998309) can0 030#8002A180A000B207
(1485778642.998559) can0 290#0600400100027702
(1485778642.999183) can0 070#05A709F469F4F000
(1485778642.999426) can0 010#083400000000804B
(1485778642.999702) can0 080#90007D00008000F7
(1485778642.999932) can0 090#0000C1FF62150000
(1485778643.000210) can0 0F8#000000000000104B
(1485778643.000415) can0 120#0000000000008000
(1485778643.000664) can0 130#50002000E0000000
(1485778643.000914) can0 138#007D84003800820F
(1485778643.001202) can0 1A0#1F40000080000000
(1485778643.003168) can0 150#A0B7500000000000
(1485778643.003288) can0 260#8A82AF0DB461B800
(1485778643.003550) can0 160#55FF00005753D5FD
(1485778643.003807) can0 180#03000DF51803F000
(1485778643.004055) can0 190#8000800080008000
(1485778643.004307) can0 060#0000000000000000
(1485778643.004540) can0 1C0#77C0000080000000
(1485778643.004789) can0 1D0#A8FFFF0000000000
(1485778643.005039) can0 1E0#000000000000FA53
(1485778643.005288) can0 210#00000000F5950000
(1485778643.005548) can0 213#00F500000FFFAFFF
(1485778643.005788) can0 218#00008F003C7DC0D8
(1485778643.006039) can0 252#0000000FFF200040
(1485778643.006290) can0 2D4#00000000E5FEFFFE
(1485778643.007538) can0 0A5#007EE67800659800
(1485778643.008288) can0 030#8002A180A000B207
(1485778643.008548) can0 208#7F082AE60080FF18
(1485778643.009164) can0 090#0000C1FF62150000
(1485778643.009415) can0 010#092400000000804B
(1485778643.009707) can0 0A0#0000080000008001
(1485778643.009930) can0 0C0#0020000040000000
(1485778643.010200) can0 1B0#4100000000403000
(1485778643.010298) can0 269#00000529AA85FF00
(1485778643.010551) can0 270#5E2F042100000000
(1485778643.010790) can0 280#C400008485264000
(1485778643.011164) can0 170#04000000D0000000
(1485778643.013068) can0 0C8#DF873EF6E138C600
(1485778643.013557) can0 190#8000800080008000
(1485778643.015309) can0 0B0#00004381E68013C3
(1485778643.015575) can0 140#00009C000000FA24
(1485778643.018308) can0 030#800BE180E000B287
(1485778643.019183) can0 060#0000000000000000
(1485778643.019413) can0 010#0A1400000000804B
(1485778643.019554) can0 070#05A709F469F4F000
(1485778643.019805) can0 080#90007D00008000F7
(1485778643.020058) can0 090#0000C1FF62150000
(1485778643.020306) can0 0F8#000000000000104B
(1485778643.020550) can0 120#0000000000008000
(1485778643.020806) can0 130#50002000E0000000
(1485778643.021058) can0 138#007D84003800820F
(1485778643.021290) can0 1A0#1F40000080000000
(1485778643.021540) can0 200#F200B7710000C000
(1485778643.023040) can0 150#A0B7500000000000
(1485778643.023560) can0 160#55FF00005743DDFD
(1485778643.023665) can0 180#03000DF51805F000
(1485778643.023934) can0 190#8000800080008000
(1485778643.024182) can0 0A0#0000080000008001
(1485778643.024558) can0 1C0#77C0000080000000
(1485778643.024665) can0 1D0#A8FFFF0000000000
(1485778643.024914) can0 1E0#000000000000FB43
(1485778643.025164) can0 210#00000000F4970000
(1485778643.025554) can0 213#00F400000FFFBFFF
(1485778643.025665) can0 252#0000000FFF200040
(1485778643.025916) can0 2D0#000001F17D905A85
(1485778643.027414) can0 0A5#007EE5780055A800
(1485778643.027682) can0 1B5#000001D66AD0FFFC
(1485778643.027957) can0 298#0000001BD82B0800
(1485778643.028165) can0 030#8002A180A000B207
(1485778643.028538) can0 17E#C010004000200000
(1485778643.028673) can0 260#8A82AF0DB4E1B800
(1485778643.028930) can0 290#8600400100027702
(1485778643.029166) can0 090#0000C1FF62150000
(1485778643.029414) can0 010#0B0400000000804B
(1485778643.029665) can0 0C0#0020000040000000
(1485778643.029913) can0 380#5392FCA96000C0A9
(1485778643.030163) can0 3B4#401111FF00000000
(1485778643.030414) can0 435#B215B9D276EFB3C3
(1485778643.031288) can0 170#04000000D0000000
(1485778643.031540) can0 229#6000000000000000
(1485778643.031789) can0 2A0#0000000030000000
(1485778643.032058) can0 2A5#00000000100FF0FF
(1485778643.033055) can0 0C8#DF873AF2E138C600
(1485778643.033308) can0 208#7F072AE60080FF18
(1485778643.033556) can0 190#8000800080008000
(1485778643.033810) can0 218#00008F003C7DC0D8
(1485778643.034040) can0 310#D94430602D450074
(1485778643.034289) can0 060#0000000000000000
(1485778643.034540) can0 360#C0C03F003C7DB8B7
(1485778643.035307) can0 0B0#00004381E68013C3
(1485778643.035559) can0 140#00009C000001EA24
