(1485778680.340423) can0 208#7F082AE60080FF18
(1485778680.340670) can0 170#04000000D0000000
(1485778680.340921) can0 229#6000000000000000
(1485778680.341171) can0 0A0#0000080000007FFF
(1485778680.341422) can0 200#F200B79F0000C000
(1485778680.341671) can0 160#55FF000057A3ADFD
(1485778680.341922) can0 0B0#00004381E68013C3
(1485778680.342171) can0 140#00009C00000B4A24
(1485778680.342421) can0 180#03000DF41804F000
(1485778680.342671) can0 190#8000800080008000
(1485778680.342921) can0 1C0#77C0000080000000
(1485778680.343172) can0 1D0#A8FFFF0000000000
(1485778680.343421) can0 150#A0AE500000000000
(1485778680.343672) can0 1E0#000000000000F5A3
(1485778680.343921) can0 210#00000000FA8B0000
(1485778680.344171) can0 213#00F900010FFF5FFF
(1485778680.344421) can0 252#0000010FFF200040
(1485778680.344670) can0 2A0#0000000030000000
(1485778680.344921) can0 2D0#000001FC72905A85
(1485778680.345046) can0 2A5#00000000100FF0FF
(1485778680.346046) can0 090#0000C201620B0000
(1485778680.346296) can0 0C0#0020000040000000
(1485778680.346547) can0 455#0000000000000000
(1485778680.348171) can0 030#8002A180A000B207
(1485778680.348423) can0 290#0600400100027502
(1485778680.348922) can0 0A5#007EE3780035C800
(1485778680.349170) can0 1B5#000001D66AD0FFFC
(1485778680.349297) can0 298#0000001BD82B0800
(1485778680.349673) can0 010#0FC400000000804B
(1485778680.351050) can0 060#0000000000000000
(1485778680.351673) can0 190#8000800080008000
(1485778680.351921) can0 218#00008F003C7DC0D8
(1485778680.353187) can0 0C8#DF873AF6E138C600
(1485778680.353434) can0 260#8A82B40DB7E1B800
(1485778680.353686) can0 269#000005295585FF00
(1485778680.356060) can0 070#05A709F469F4F000
(1485778680.356311) can0 080#90007D00008001F7
(1485778680.356560) can0 090#0000C201620B0000
(1485778680.356686) can0 0A0#0000080000007FFE
(1485778680.356936) can0 0F8#000000000000104C
(1485778680.357185) can0 120#0000000000008000
(1485778680.357434) can0 130#50002000E0000000
(1485778680.357684) can0 138#007D84003800820D
(1485778680.357935) can0 1A0#1F40000080000000
(1485778680.358185) can0 030#8002A180A000B207
(1485778680.358434) can0 1B0#4100000000403000
(1485778680.358686) can0 270#5E2F042100000000
(1485778680.358923) can0 280#C400008385274000
(1485778680.359170) can0 2D8#0444808000000000
(1485778680.359421) can0 010#00B400000000804B
(1485778680.360422) can0 170#04000000D0000000
(1485778680.361686) can0 160#55FF00005793B5FD
(1485778680.361936) can0 0B0#00004381E68013C3
(1485778680.362187) can0 140#00009C00000C3A24
(1485778680.362435) can0 180#03000DF61804F000
(1485778680.362687) can0 190#8000800080008000
(1485778680.362936) can0 1C0#77C0000080000000
(1485778680.363183) can0 1D0#A8FFFF0000000000
(1485778680.363423) can0 150#A0AE500000000000
(1485778680.363671) can0 1E0#000000000000F693
(1485778680.363921) can0 210#00000000F98D0000
(1485778680.364171) can0 213#00F800010FFF6FFF
(1485778680.364422) can0 252#0000010FFF200040
(1485778680.365671) can0 208#7F063AF66F80FF98
(1485778680.366559) can0 060#0000000000000000
(1485778680.366935) can0 090#0000C200620C0000
(1485778680.367047) can0 0C0#0020000040000000
(1485778680.367310) can0 200#F200B79F0000C000
(1485778680.368184) can0 030#8002A180A000B207
(1485778680.368932) can0 0A5#007EE2780025D800
(1485778680.369434) can0 010#01A400000000804B
(1485778680.371060) can0 0A0#0000080000007FFE
(1485778680.371684) can0 190#8000800080008000
(1485778680.373060) can0 0C8#DF873EF2E138C600
(1485778680.376060) can0 070#05A709F369F3F000
(1485778680.376310) can0 080#90007D00007FFFF7
(1485778680.376560) can0 090#0000C200620C0000
(1485778680.376809) can0 0F8#000000000000104C
(1485778680.377059) can0 120#0000000000008000
(1485778680.377310) can0 130#50002000E0000000
(1485778680.377559) can0 138#007D84003800820D
(1485778680.377797) can0 1A0#1F40000080000000
(1485778680.378296) can0 030#8002A180A000B207
(1485778680.378577) can0 260#8A82B40DB761B800
(1485778680.378811) can0 290#0600400100027502
(1485778680.379312) can0 010#029400000000804B
(1485778680.380437) can0 170#04000000D0000000
(1485778680.380689) can0 229#6000000000000000
(1485778680.380937) can0 2A0#0000000030000000
(1485778680.381187) can0 060#0000000000000000
(1485778680.381429) can0 2A5#00000000100FF0FF
(1485778680.381671) can0 160#55FF00005783BDFD
(1485778680.381922) can0 0B0#00004381E68013C3
(1485778680.382171) can0 140#00009C00000D2A24
(1485778680.382422) can0 180#03000DF51805F000
(1485778680.382671) can0 190#8000800080008000
(1485778680.382923) can0 1C0#77C0000080000000
(1485778680.383173) can0 1D0#A8FFFF0000000000
(1485778680.383421) can0 150#A0AD700000000000
(1485778680.383672) can0 1E0#000000000000F783
(1485778680.383921) can0 210#00000000F88F0000
(1485778680.384172) can0 213#00F700010FFF7FFF
(1485778680.384421) can0 218#00008F003C7DC0D8
(1485778680.384672) can0 252#0000010FFF200040
(1485778680.384922) can0 269#000005295585FF00
(1485778680.385046) can0 2D0#000001FB73905A85
(1485778680.385297) can0 2D4#00000000E5FEFFFE
(1485778680.385547) can0 360#C0C03F003C7DBCB7
(1485778680.386047) can0 090#0000C200620C0000
(1485778680.386298) can0 0A0#0000080000007FFE
(1485778680.386547) can0 0C0#0020000040000000
(1485778680.386796) can0 1B0#4100000000403000
(1485778680.387047) can0 270#5E2F042100000000
(1485778680.387297) can0 280#C400008385264000
(1485778680.388422) can0 030#800AE1A0E000B287
(1485778680.388922) can0 0A5#007EE1780015E800
(1485778680.389171) can0 1B5#000001D66AD0FFFC
(1485778680.389424) can0 298#0000001BD82B0800
(1485778680.389671) can0 010#038400000000804B
(1485778680.390546) can0 208#7F0A2AE60080FF18
(1485778680.391056) can0 200#F200B79F0000C000
(1485778680.391681) can0 190#8000800080008000
(1485778680.393058) can0 0C8#DF873AF6E138C600
(1485778680.396055) can0 060#0000000000000000
(1485778680.396308) can0 070#05A709F369F3F000
(1485778680.396557) can0 080#90007D00007FFEF7
(1485778680.396808) can0 090#0000C200620C0000
(1485778680.396945) can0 0F8#000000000000104C
(1485778680.397180) can0 120#0000000000008000
(1485778680.397431) can0 130#50002000E0000000
(1485778680.397687) can0 138#007D84003800820D
(1485778680.397938) can0 1A0#1F40000080000000
(1485778680.398175) can0 030#8003A180A000B207
(1485778680.398436) can0 405#0167212C0A69089C
(1485778680.399437) can0 010#047400000000804B
(1485778680.400436) can0 170#04000000D0000000
(1485778680.401061) can0 0A0#0000080000007FFE
(1485778680.401685) can0 160#55FF00005773C5FD
(1485778680.401937) can0 0B0#00004381E68013C3
(1485778680.402186) can0 140#00009C00000E1A24
(1485778680.402437) can0 180#03000DF51804F000
(1485778680.402687) can0 190#8000800080008000
(1485778680.402937) can0 1C0#77C0000080000000
(1485778680.403188) can0 150#A0AD500000000000
(1485778680.403425) can0 1D0#A8FFFF0000000000
(1485778680.403671) can0 1E0#000000000000F873
(1485778680.403922) can0 210#00000000F7910000
(1485778680.404171) can0 213#00F700000FFF8FFF
(1485778680.404431) can0 252#0000000FFF200040
(1485778680.404546) can0 260#8A82B40DB7E1B800
(1485778680.406048) can0 090#0000C1FE62080000
(1485778680.406310) can0 0C0#0020000040000000
(1485778680.408322) can0 030#8002A180A000B207
(1485778680.408562) can0 290#8600400100027502
(1485778680.408940) can0 0A5#007EE0780005F800
(1485778680.409430) can0 010#056400000000804B
(1485778680.411048) can0 060#0000000000000000
(1485778680.411687) can0 190#8000800080008000
(1485778680.411937) can0 218#00008F003C7DC0D8
(1485778680.412937) can0 0C8#DF873EF2E138C600
(1485778680.413688) can0 269#000005295585FF00
(1485778680.415811) can0 208#7F062AE60080FF18
(1485778680.416063) can0 070#05A709F469F4F000
(1485778680.416327) can0 080#90007D00008000F7
(1485778680.416564) can0 090#0000C1FE62080000
(1485778680.416812) can0 0A0#0000080000008001
(1485778680.417062) can0 0F8#000000000000104C
(1485778680.417313) can0 120#0000000000008000
(1485778680.417550) can0 130#50002000E0000000
(1485778680.417682) can0 138#007D84003800820D
(1485778680.417922) can0 1A0#1F40000080000000
(1485778680.418172) can0 1B0#4100000000403000
(1485778680.418422) can0 030#8002A180A000B207
(1485778680.418671) can0 200#F200B7A00000C000
(1485778680.418922) can0 270#5E2F042100000000
(1485778680.419171) can0 280#C400008385284000
(1485778680.419422) can0 010#065400000000804B
(1485778680.419671) can0 2D8#0444808000000000
(1485778680.419923) can0 2F0#30B00083005B9637
(1485778680.420184) can0 340#000000000300662F
(1485778680.420547) can0 170#04000000D0000000
(1485778680.420797) can0 229#6000000000000000
(1485778680.421048) can0 2A0#0000000030000000
(1485778680.421297) can0 2A5#00000000100FF0FF
(1485778680.421672) can0 160#55FF00005763CDFD
(1485778680.421922) can0 0B0#00004381E68013C3
(1485778680.422173) can0 140#00009C00000F0A24
(1485778680.422422) can0 180#03000DF71805F000
(1485778680.422671) can0 190#8000800080008000
(1485778680.422925) can0 1C0#77C0000080000000
(1485778680.423172) can0 1D0#A8FFFF0000000000
(1485778680.423422) can0 1E0#000000000000F963
(1485778680.423673) can0 150#A0AD500000000000
(1485778680.423923) can0 210#00000000F6930000
(1485778680.424171) can0 213#00F600000FFF9FFF
(1485778680.424421) can0 252#0000000FFF200040
(1485778680.424548) can0 2D0#000001FA74905A85
(1485778680.426047) can0 060#0000000000000000
(1485778680.426309) can0 090#0000C1FE62080000
(1485778680.426550) can0 0C0#0020000040000000
(1485778680.428297) can0 030#8002A180A000B207
(1485778680.428548) can0 17E#C010004000200000
(1485778680.428805) can0 260#8A82B40DB761B800
(1485778680.429055) can0 0A5#007EEF7800F50800
(1485778680.429174) can0 1B5#000001D66AD0FFFC
(1485778680.429422) can0 010#074400000000804B
(1485778680.429681) can0 298#0000001BD82B0800
(1485778680.431063) can0 0A0#0000080000008001
(1485778680.431688) can0 190#8000800080008000
(1485778680.433308) can0 0C8#DF873AF2E138C600
(1485778680.433555) can0 310#D94430602D450074
(1485778680.436057) can0 070#05A709F469F4F000
(1485778680.436308) can0 080#90007D00008000F7
(1485778680.436557) can0 090#0000C1FE62080000
(1485778680.436808) can0 0F8#000000000000104C
(1485778680.437062) can0 120#0000000000008000
(1485778680.437316) can0 130#50002000E0000000
(1485778680.437425) can0 138#007D84003800820D
(1485778680.437686) can0 1A0#1F40000080000000
(1485778680.438186) can0 030#8002A180A000B207
(1485778680.438438) can0 290#0600400100027502
(1485778680.439436) can0 010#083400000000804B
(1485778680.440437) can0 170#04000000D0000000
(1485778680.440813) can0 208#7F082AE60080FF18
(1485778680.441062) can0 060#0000000000000000
(1485778680.441311) can0 200#F200B7A00000C000
(1485778680.441686) can0 160#55FF00005753D5FD
(1485778680.441938) can0 0B0#00004381E68013C3
(1485778680.442186) can0 140#00009C000000FA24
(1485778680.442436) can0 180#03000DF41804F000
(1485778680.442688) can0 190#8000800080008000
(1485778680.442924) can0 1C0#77C0000080000000
(1485778680.443173) can0 1D0#A8FFFF0000000000
(1485778680.443422) can0 150#A0AD500000000000
(1485778680.443673) can0 1E0#000000000000FA53
(1485778680.443922) can0 210#00000000F5950000
(1485778680.444173) can0 213#00F400010FFFAFFF
(1485778680.444297) can0 218#00008F003C7DC0D8
(1485778680.444547) can0 252#0000010FFF200040
(1485778680.444931) can0 269#00000529AA85FF00
(1485778680.445057) can0 2D4#00000000E5FEFFFE
(1485778680.445298) can0 40A#C0013733003C7D00
(1485778680.446174) can0 090#0000C1FE62060000
(1485778680.446435) can0 0A0#0000080000008003
(1485778680.446689) can0 0C0#0020000040000000
(1485778680.446924) can0 1B0#4100000000403000
(1485778680.447173) can0 270#5E2F042100000000
(1485778680.447297) can0 280#C400008385284000
(1485778680.447547) can0 455#0000000000000000
(1485778680.448173) can0 030#8002A180A000B207
(1485778680.448938) can0 0A5#007EEE7800E51800
(1485778680.449435) can0 010#092400000000804B
(1485778680.451689) can0 190#8000800080008000
(1485778680.453065) can0 0C8#DF873EF2E138C600
(1485778680.453312) can0 260#8A82B40DB761B800
(1485778680.456187) can0 060#0000000000000000
(1485778680.456440) can0 070#05A709F369F3F000
(1485778680.456687) can0 080#90007D00007FFEF7
(1485778680.456939) can0 090#0000C1FE62060000
(1485778680.457188) can0 0F8#000000000000104C
(1485778680.457437) can0 120#0000000000008000
(1485778680.457675) can0 130#50002000E0000000
(1485778680.457922) can0 138#007D84003800820D
(1485778680.458188) can0 1A0#1F40000080000000
(1485778680.458298) can0 030#800BE180E000B287
(1485778680.459437) can0 010#0A1400000000804B
(1485778680.460562) can0 170#04000000D0000000
(1485778680.460812) can0 229#6000000000000000
(1485778680.461065) can0 0A0#0000080000008003
(1485778680.461306) can0 2A0#0000000030000000
(1485778680.461561) can0 2A5#00000000100FF0FF
(1485778680.461807) can0 160#55FF00005743DDFD
(1485778680.462057) can0 0B0#00004381E68013C3
(1485778680.462300) can0 140#00009C000001EA24
(1485778680.462547) can0 180#03000DF51803F000
(1485778680.462673) can0 190#8000800080008000
(1485778680.462925) can0 1C0#77C0000080000000
(1485778680.463172) can0 1D0#A8FFFF0000000000
(1485778680.463422) can0 150#A0AD500000000000
(1485778680.463672) can0 1E0#000000000000FB43
(1485778680.463923) can0 210#00000000F4970000
(1485778680.464173) can0 213#00F300010FFFBFFF
(1485778680.464423) can0 252#0000010FFF200040
(1485778680.464672) can0 2D0#000001F975905A85
(1485778680.465922) can0 208#7F093AF66F80FF98
(1485778680.466174) can0 090#0000C1FE62060000
(1485778680.466422) can0 0C0#0020000040000000
(1485778680.466673) can0 200#F200B7A00000C000
(1485778680.466922) can0 388#0000414279421600
(1485778680.468172) can0 030#8002A180A000B207
(1485778680.468423) can0 290#0600400100027502
(1485778680.468681) can0 400#1A00010200000000
(1485778680.469438) can0 010#0B0400000000804B
(1485778680.469938) can0 0A5#007EED7800D52800
(1485778680.470188) can0 1B5#000001D66AD0FFFC
(1485778680.470438) can0 298#0000001BD82B0800
(1485778680.471061) can0 060#0000000000000000
(1485778680.471688) can0 190#8000800080008000
(1485778680.471938) can0 218#00008F003C7DC0D8
(1485778680.473314) can0 0C8#DF873AF6E138C600
(1485778680.473813) can0 269#00000529AA85FF00
(1485778680.476065) can0 070#05A709F469F4F000
(1485778680.476193) can0 080#90007D00008002F7
(1485778680.476438) can0 090#0000C1FE62060000
(1485778680.476687) can0 0A0#0000080000008003
(1485778680.476935) can0 0F8#000000000000104C
(1485778680.477188) can0 120#0000000000008000
(1485778680.477437) can0 130#50002000E0000000
(1485778680.477686) can0 138#007D84003800820D
(1485778680.477938) can0 1A0#1F40000080000000
(1485778680.478187) can0 1B0#4100000000403000
(1485778680.478425) can0 030#8002A180A000B207
(1485778680.478672) can0 260#8A82B40DB7E1B800
(1485778680.478923) can0 270#5E2F042100000000
(1485778680.479172) can0 280#C400008285294000
(1485778680.479423) can0 010#0CF400000000804B
(1485778680.479672) can0 2D8#0444808000000000
(1485778680.480549) can0 170#04000000D0000000
(1485778680.481689) can0 160#55FF00005733E5FD
(1485778680.481925) can0 0B0#00004381E68013C3
(1485778680.482172) can0 140#00009C000002DA24
(1485778680.482423) can0 180#03000DF61805F000
(1485778680.482672) can0 190#8000800080008000
(1485778680.482923) can0 1C0#77C0000080000000
(1485778680.483173) can0 1D0#A8FFFF0000000000
(1485778680.483423) can0 150#A0AD500000000000
(1485778680.483673) can0 1E0#000000000000FC33
(1485778680.483922) can0 210#00000000F3990000
(1485778680.484173) can0 213#00F300000FFFCFFF
(1485778680.484422) can0 252#0000000FFF200040
(1485778680.486048) can0 060#0000000000000000
(1485778680.486300) can0 090#0000C20062090000
(1485778680.486548) can0 0C0#0020000040000000
(1485778680.488298) can0 030#8002A180A000B207
(1485778680.489423) can0 010#0DE400000000804B
(1485778680.489936) can0 0A5#007EEC7800C53800
(1485778680.490938) can0 208#7F072AE60080FF18
(1485778680.491188) can0 0A0#0000080000008003
(1485778680.491438) can0 200#F200B7A10000C000
(1485778680.491689) can0 190#8000800080008000
(1485778680.493065) can0 0C8#DF873EF2E138C600
(1485778680.496062) can0 070#05A709F469F4F000
(1485778680.496195) can0 080#90007D00008002F7
(1485778680.496442) can0 090#0000C20062090000
(1485778680.496693) can0 0F8#000000000000104C
(1485778680.496940) can0 120#0000000000008000
(1485778680.497190) can0 130#50002000E0000000
(1485778680.497438) can0 138#007D84003800820D
(1485778680.497685) can0 1A0#1F40000080000000
(1485778680.498313) can0 030#8002A180A000B207
(1485778680.498563) can0 290#8600400100027502
(1485778680.499425) can0 010#0ED400000000804B
(1485778680.500423) can0 170#04000000D0000000
(1485778680.500689) can0 229#6000000000000000
(1485778680.500940) can0 2A0#0000000030000000
(1485778680.501189) can0 2A5#00000000100FF0FF
(1485778680.501437) can0 060#0000000000000000
(1485778680.501688) can0 160#55FF00005723EDFD
(1485778680.501936) can0 0B0#00004381E68013C3
(1485778680.502188) can0 140#00009C000003CA24
(1485778680.502424) can0 180#03000DF61803F000
(1485778680.502673) can0 190#8000800080008000
(1485778680.502940) can0 1C0#77C0000080000000
(1485778680.503189) can0 1D0#A8FFFF0000000000
(1485778680.503437) can0 150#A0AD500000000000
(1485778680.503687) can0 1E0#000000000000FD23
(1485778680.503926) can0 210#00000000F29B0000
(1485778680.504048) can0 213#00F100010FFFDFFF
(1485778680.504298) can0 218#00008F003C7DC0D8
(1485778680.504548) can0 252#0000010FFF200040
(1485778680.504924) can0 260#8A82B40DB761B800
(1485778680.505047) can0 269#00000529AA85FF00
(1485778680.505297) can0 2D0#000001F876905A85
(1485778680.505548) can0 2D4#00000000E5FEFFFE
(1485778680.506048) can0 090#0000C20062090000
(1485778680.506299) can0 0A0#0000080000008000
(1485778680.506548) can0 0C0#0020000040000000
(1485778680.506798) can0 1B0#4100000000403000
(1485778680.507048) can0 270#5E2F042100000000
(1485778680.507298) can0 280#C400008285294000
(1485778680.507548) can0 2F0#30B00082005B9637
(1485778680.508299) can0 030#8002A180A000B207
(1485778680.509424) can0 010#0FC400000000804B
(1485778680.509939) can0 0A5#007EEB7800B54800
(1485778680.510188) can0 1B5#000001D66AD0FFFC
(1485778680.510439) can0 298#0000001BD82B0800
(1485778680.511689) can0 190#8000800080008000
(1485778680.513066) can0 0C8#DF873AF6E138C600
(1485778680.516065) can0 060#0000000000000000
(1485778680.516317) can0 070#05A709F469F4F000
(1485778680.516437) can0 080#90007D00008001F7
(1485778680.516690) can0 090#0000C20062090000
(1485778680.516940) can0 0F8#000000000000104C
(1485778680.517190) can0 120#0000000000008000
(1485778680.517438) can0 130#50002000E0000000
(1485778680.517686) can0 138#007D84003800820D
(1485778680.517938) can0 1A0#1F40000080000000
(1485778680.518187) can0 200#F200B7A10000C000
(1485778680.518437) can0 030#8003A180A000B207
(1485778680.518676) can0 208#7F0A2AE60080FF18
(1485778680.519423) can0 010#00B400000000804B
(1485778680.520424) can0 170#04000000D0000000
(1485778680.521064) can0 0A0#0000080000008000
(1485778680.521690) can0 160#55FF00005713F5FD
(1485778680.521936) can0 0B0#00004381E68013C3
(1485778680.522189) can0 140#00009C000004BA24
(1485778680.522440) can0 180#03000DF51804F000
(1485778680.522691) can0 190#8000800080008000
(1485778680.522940) can0 1C0#77C0000080000000
(1485778680.523187) can0 1D0#A8FFFF0000000000
(1485778680.523425) can0 150#A0AD500000000000
(1485778680.523673) can0 1E0#000000000000FE13
(1485778680.523923) can0 210#00000000F19D0000
(1485778680.524173) can0 213#00F100000FFFEFFF
(1485778680.524424) can0 252#0000000FFF200040
(1485778680.526048) can0 090#0000C201620A0000
(1485778680.526314) can0 0C0#0020000040000000
(1485778680.528189) can0 030#8002A180A000B207
(1485778680.528438) can0 17E#C010004000200000
(1485778680.528690) can0 260#8A82B40DB7E1B800
(1485778680.528938) can0 290#0600400100027502
(1485778680.529190) can0 380#10917CA96000C0A9
(1485778680.529438) can0 3B4#401111FF00000000
(1485778680.529676) can0 010#01A400000000804B
(1485778680.529923) can0 0A5#007EEA7800A55800
(1485778680.530048) can0 435#B224B9D276EFB3C4
(1485778680.531048) can0 060#0000000000000000
(1485778680.531689) can0 190#8000800080008000
(1485778680.531938) can0 218#00008F003C7DC0D8
(1485778680.533193) can0 0C8#DF873EF2E138C600
(1485778680.533319) can0 310#D94430602D450074
(1485778680.533562) can0 360#C0C03F003C7DB8B7
(1485778680.533939) can0 269#000005295585FF00
(1485778680.536064) can0 070#05A709F469F4F000
(1485778680.536314) can0 080#90007D00008001F7
(1485778680.536436) can0 090#0000C201620A0000
(1485778680.536690) can0 0A0#0000080000007FFF
(1485778680.536938) can0 0F8#000000000000104C
(1485778680.537188) can0 120#0000000000008000
(1485778680.537439) can0 130#50002000E0000000
(1485778680.537687) can0 138#007D84003800820D
(1485778680.537939) can0 1A0#1F40000080000000
(1485778680.538188) can0 030#800AE180E000B287
(1485778680.538436) can0 1B0#4100000000403000
(1485778680.538675) can0 270#5E2F042100000000
(1485778680.538924) can0 280#C400008385284000
(1485778680.539174) can0 2D8#0444808000000000
(1485778680.539428) can0 010#029400000000804B
(1485778680.539674) can0 340#000000000300662F
(1485778680.540425) can0 170#04000000D0000000
(1485778680.540689) can0 229#6000000000000000
(1485778680.540926) can0 2A0#0000000030000000
(1485778680.541174) can0 200#F200B7A10000C000
(1485778680.541423) can0 208#7F082AE60080FF18
(1485778680.541673) can0 2A5#00000000100FF0FF
(1485778680.541924) can0 0B0#00004381E68013C3
(1485778680.542173) can0 140#00009C000005AA24
(1485778680.542298) can0 160#55FF00005703FDFD
(1485778680.542548) can0 180#03000DF71805F000
(1485778680.542926) can0 190#8000800080008000
(1485778680.543049) can0 1C0#77C0000080000000
(1485778680.543298) can0 1D0#A8FFFF0000000000
(1485778680.543549) can0 150#A0AD500000000000
(1485778680.543923) can0 1E0#000000000000FF03
(1485778680.544048) can0 210#00000000F09F0000
(1485778680.544298) can0 213#00EF00010FFFFFFF
(1485778680.544548) can0 252#0000010FFF200040
(1485778680.544799) can0 2D0#000001F777905A85
(1485778680.546048) can0 060#0000000000000000
(1485778680.546311) can0 090#0000C201620A0000
(1485778680.546566) can0 0C0#0020000040000000
(1485778680.546816) can0 455#0000000000000000
(1485778680.548189) can0 030#8002A180A000B207
(1485778680.549441) can0 010#038400000000804B
(1485778680.549941) can0 0A5#007EE97800956800
(1485778680.550192) can0 1B5#000001D66AD0FFFC
(1485778680.550439) can0 298#0000001BD82B0800
(1485778680.550937) can0 0A0#0000080000007FFF
(1485778680.551687) can0 190#8000800080008000
(1485778680.553190) can0 0C8#DF873AF2E138C600
(1485778680.553441) can0 260#8A82B40DB761B800
(1485778680.556064) can0 070#05A709F469F4F000
(1485778680.556314) can0 080#90007D00008001F7
(1485778680.556437) can0 090#0000C201620A0000
(1485778680.556689) can0 0F8#000000000000104C
(1485778680.556939) can0 120#0000000000008000
(1485778680.557189) can0 130#50002000E0000000
(1485778680.557439) can0 138#007D84003800820D
(1485778680.557690) can0 1A0#1F40000080000000
(1485778680.558190) can0 030#8002A180A000B207
(1485778680.558438) can0 290#8600400100027702
(1485778680.559439) can0 010#047400000000804B
(1485778680.560301) can0 170#04000000D0000000
(1485778680.561065) can0 060#0000000000000000
(1485778680.561689) can0 160#55FF000057F385FD
(1485778680.561939) can0 0B0#00004381E68013C3
(1485778680.562189) can0 140#00009C0000069A24
(1485778680.562437) can0 180#03000DF51804F000
(1485778680.562689) can0 190#8000800080008000
(1485778680.562938) can0 1C0#77C0000080000000
(1485778680.563188) can0 1D0#A8FFFF0000000000
(1485778680.563426) can0 150#A0AD500000000000
(1485778680.563673) can0 1E0#000000000000F0F3
(1485778680.563924) can0 210#00000000FF810000
(1485778680.564173) can0 213#00FF00000FFF0FFF
(1485778680.564298) can0 218#00008F003C7DC0D8
(1485778680.564549) can0 252#0000000FFF200040
(1485778680.564924) can0 269#000005295585FF00
(1485778680.565049) can0 2D4#00000000E5FEFFFE
(1485778680.566049) can0 090#0000C200620A0000
(1485778680.566307) can0 0A0#0000080000007FFF
(1485778680.566565) can0 0C0#0020000040000000
(1485778680.566801) can0 1B0#4100000000403000
(1485778680.567048) can0 200#F200B7A10000C000
(1485778680.567299) can0 208#7F043AF66F80FF98
(1485778680.567423) can0 270#5E2F042100000000
(1485778680.567673) can0 280#C400008385294000
(1485778680.568298) can0 030#8002A180A000B207
(1485778680.568549) can0 40A#C100574630355858
(1485778680.569423) can0 010#056400000000804B
(1485778680.569940) can0 0A5#007EE87800857800
(1485778680.571690) can0 190#8000800080008000
(1485778680.573191) can0 0C8#DF873EF2E138C600
(1485778680.576061) can0 060#0000000000000000
(1485778680.576190) can0 070#05A709F469F4F000
(1485778680.576442) can0 080#90007D00008000F7
(1485778680.576689) can0 090#0000C200620A0000
(1485778680.576938) can0 0F8#000000000000104C
(1485778680.577197) can0 120#0000000000008000
(1485778680.577439) can0 130#50002000E0000000
(1485778680.577689) can0 138#007D84003800820D
(1485778680.577939) can0 1A0#1F40000080000000
(1485778680.578440) can0 030#8003A180A000B207
(1485778680.578676) can0 260#8A82B40DB7E1B800
(1485778680.579424) can0 010#065400000000804B
(1485778680.580317) can0 170#04000000D0000000
(1485778680.580572) can0 229#6000000000000000
(1485778680.580814) can0 2A0#0000000030000000
(1485778680.581070) can0 0A0#0000080000007FFF
(1485778680.581309) can0 2A5#00000000100FF0FF
(1485778680.581684) can0 160#55FF000057E38DFD
(1485778680.581934) can0 0B0#00004381E68013C3
(1485778680.582177) can0 140#00009C0000078A24
(1485778680.582426) can0 180#03000DF41805F000
(1485778680.582679) can0 190#8000800080008000
(1485778680.582925) can0 1C0#77C0000080000000
(1485778680.583173) can0 1D0#A8FFFF0000000000
(1485778680.583427) can0 150#A0AD500000000000
(1485778680.583676) can0 1E0#000000000000F1E3
(1485778680.583926) can0 210#00000000FE830000
(1485778680.584177) can0 213#00FE00000FFF1FFF
(1485778680.584425) can0 252#0000000FFF200040
(1485778680.584551) can0 2D0#000001F678905A85
(1485778680.586059) can0 090#0000C200620A0000
(1485778680.586316) can0 0C0#0020000040000000
(1485778680.588191) can0 030#8002A180A000B207
(1485778680.588440) can0 290#0600C00100027702
(1485778680.589440) can0 010#074400000000804B
(1485778680.589940) can0 0A5#007EE77800758800
(1485778680.590189) can0 1B5#000001D66AD0FFFC
(1485778680.590441) can0 298#0000001BD82B0800
(1485778680.590941) can0 060#0000000000000000
(1485778680.591192) can0 200#F200B7A10000C000
(1485778680.591441) can0 208#7F082AE60080FF18
(1485778680.591690) can0 190#8000800080008000
(1485778680.591937) can0 218#00008F003C7DC0D8
(1485778680.593049) can0 0C8#DF873AF6E138C600
(1485778680.593800) can0 269#000005295585FF00
(1485778680.596564) can0 070#05A709F369F3F000
(1485778680.596814) can0 080#90007D00007FFEF7
(1485778680.597063) can0 090#0000C200620B0000
(1485778680.597313) can0 0A0#0000080000007FFF
(1485778680.597562) can0 0F8#000000000000104C
(1485778680.597814) can0 120#0000000000008000
(1485778680.598063) can0 130#50002000E0000000
(1485778680.598299) can0 138#007D84003800820D
(1485778680.598549) can0 030#8002A180A000B207
(1485778680.598798) can0 1A0#1F40000080000000
(1485778680.598939) can0 1B0#4100000000403000
(1485778680.599188) can0 270#5E2F042100000000
(1485778680.599434) can0 010#083400000000804B
(1485778680.599675) can0 280#C400008385294000
(1485778680.599924) can0 2D8#0444808000000000
(1485778680.600174) can0 2F0#30B00083005B9637
(1485778680.600424) can0 170#04000000D0000000
(1485778680.601676) can0 160#55FF000057D395FD
(1485778680.601945) can0 0B0#00004381E68013C3
(1485778680.602178) can0 140#00009C0000087A24
(1485778680.602427) can0 180#03000DF51803F000
(1485778680.602695) can0 190#8000800080008000
(1485778680.602927) can0 1C0#77C0000080000000
(1485778680.603177) can0 1D0#A8FFFF0000000000
(1485778680.603426) can0 150#A0AD500000000000
(1485778680.603674) can0 1E0#000000000000F2D3
(1485778680.603927) can0 210#00000000FD850000
(1485778680.604176) can0 213#00FC00010FFF2FFF
(1485778680.604426) can0 252#0000010FFF200040
(1485778680.604551) can0 260#8A82B40DB761B800
(1485778680.606051) can0 060#0000000000000000
(1485778680.606341) can0 090#0000C200620B0000
(1485778680.606570) can0 0C0#0020000040000000
(1485778680.608319) can0 030#8002A180A000B207
(1485778680.609445) can0 010#092400000000804B
(1485778680.609945) can0 0A5#007EE67800659800
(1485778680.610943) can0 0A0#0000080000007FFE
(1485778680.611696) can0 190#8000800080008000
(1485778680.612948) can0 0C8#DF873EF2E138C600
(1485778680.615950) can0 070#05A709F369F3F000
(1485778680.616196) can0 080#90007D00007FFEF7
(1485778680.616444) can0 090#0000C200620B0000
(1485778680.616697) can0 0F8#000000000000104C
(1485778680.616944) can0 120#0000000000008000
(1485778680.617195) can0 130#50002000E0000000
(1485778680.617446) can0 138#007D84003800820D
(1485778680.617678) can0 1A0#1F40000080000000
(1485778680.617926) can0 200#F200B7A20000C000
(1485778680.618176) can0 208#7F042AE60080FF18
(1485778680.618464) can0 030#8002A180A000B207
(1485778680.618690) can0 290#0600400100027702
(1485778680.619445) can0 010#0A1400000000804B
(1485778680.620438) can0 170#04000000D0000000
(1485778680.620693) can0 229#6000000000000000
(1485778680.620961) can0 060#0000000000000000
(1485778680.621195) can0 2A0#0000000030000000
(1485778680.621571) can0 2A5#00000000100FF0FF
(1485778680.621677) can0 160#55FF000057C39DFD
(1485778680.621943) can0 0B0#00004381E68013C3
(1485778680.622196) can0 140#00009C0000096A24
(1485778680.622427) can0 180#03000DF41804F000
(1485778680.622677) can0 190#8000800080008000
(1485778680.622928) can0 1C0#77C0000080000000
(1485778680.623177) can0 1D0#A8FFFF0000000000
(1485778680.623427) can0 1E0#000000000000F3C3
(1485778680.623676) can0 150#A0AD500000000000
(1485778680.623926) can0 210#00000000FC870000
(1485778680.624176) can0 213#00FC00000FFF3FFF
(1485778680.624426) can0 218#00008F003C7DC0D8
(1485778680.624675) can0 252#0000000FFF200040
(1485778680.624927) can0 269#00000529AA85FF00
(1485778680.625176) can0 2D0#000001F579905A85
(1485778680.625425) can0 2D4#00000000E5FEFFFE
(1485778680.626051) can0 090#0000C200620B0000
(1485778680.626302) can0 0A0#0000080000007FFE
(1485778680.626550) can0 0C0#0020000040000000
(1485778680.626801) can0 1B0#4100000000403000
(1485778680.627051) can0 270#5E2F042100000000
(1485778680.627302) can0 280#C400008385284000
(1485778680.628177) can0 030#800AE180E000B287
(1485778680.628427) can0 17E#C010004000278000
(1485778680.628676) can0 260#8A82B40DB761B800
(1485778680.629426) can0 010#0B0400000000804B
(1485778680.629926) can0 0A5#007EE5780055A800
(1485778680.630214) can0 1B5#000001D66AD0FFFC
(1485778680.630433) can0 298#0000001BD82B0800
(1485778680.631694) can0 190#8000800080008000
(1485778680.633198) can0 0C8#DF873AF6E138C600
(1485778680.633446) can0 310#DB4430602D450074
(1485778680.636066) can0 060#0000000000000000
(1485778680.636320) can0 070#05A709F369F3F000
(1485778680.636426) can0 080#90007D00007FFEF7
(1485778680.636697) can0 090#0000C201620D0000
(1485778680.636944) can0 0F8#000000000000104C
(1485778680.637199) can0 120#0000000000008000
(1485778680.637443) can0 130#50002000E0000000
(1485778680.637696) can0 138#007D84003800820D
(1485778680.637934) can0 1A0#1F40000080000000
(1485778680.638196) can0 030#8003A180A000B207
(1485778680.639447) can0 010#0CF400000000804B
(1485778680.640302) can0 170#04000000D0000000
(1485778680.641051) can0 0A0#0000080000007FFD
(1485778680.641339) can0 200#F200B7A20000C000
(1485778680.641571) can0 208#7F042AE60080FF18
(1485778680.641839) can0 160#55FF000057B3A5FD
(1485778680.641937) can0 0B0#00004381E68013C3
(1485778680.642197) can0 140#00009C00000A5A24
(1485778680.642444) can0 180#03000DF71803F000
(1485778680.642694) can0 190#8000800080008000
(1485778680.642946) can0 1C0#77C0000080000000
(1485778680.643197) can0 150#A0AD500000000000
(1485778680.643428) can0 1D0#A8FFFF0000000000
(1485778680.643677) can0 1E0#000000000000F4B3
(1485778680.643937) can0 210#00000000FB890000
(1485778680.644177) can0 213#00FB00000FFF4FFF
(1485778680.644426) can0 252#0000000FFF200040
(1485778680.646051) can0 090#0000C201620D0000
(1485778680.646302) can0 0C0#0020000040000000
(1485778680.646570) can0 455#0000000000000000
(1485778680.648196) can0 030#8002A180A000B207
(1485778680.648440) can0 290#8600400100027702
(1485778680.648552) can0 405#023733003B003C7D
(1485778680.649447) can0 010#0DE400000000804B
(1485778680.649945) can0 0A5#007EE4780045B800
(1485778680.650941) can0 060#0000000000000000
(1485778680.651697) can0 190#8000800080008000
(1485778680.651945) can0 218#00008F003C7DC0D8
(1485778680.653198) can0 0C8#DF873EF2E138C600
(1485778680.653314) can0 260#8A82B40DB7E1B800
(1485778680.653944) can0 269#00000529AA85FF00
(1485778680.655952) can0 070#05A709F469F4F000
(1485778680.656197) can0 080#90007D00007FFFF7
(1485778680.656446) can0 090#0000C201620D0000
(1485778680.656695) can0 0A0#0000080000007FFD
(1485778680.656943) can0 0F8#000000000000104C
(1485778680.657194) can0 120#0000000000008000
(1485778680.657445) can0 130#50002000E0000000
(1485778680.657676) can0 138#007D84003800820D
(1485778680.657927) can0 1A0#1F40000080000000
(1485778680.658177) can0 030#8002A180A000B207
(1485778680.658427) can0 1B0#4100000000403000
(1485778680.658677) can0 270#5E2F042100000000
(1485778680.658926) can0 280#C400008385284000
(1485778680.659177) can0 2D8#0444808000000000
(1485778680.659426) can0 010#0ED400000000804B
(1485778680.659678) can0 340#000000000300662F
(1485778680.660427) can0 170#04000000D0000000
(1485778680.660709) can0 229#6000000000000000
(1485778680.660945) can0 2A0#0000000030000000
(1485778680.661209) can0 2A5#00000000100FF0FF
(1485778680.661678) can0 160#55FF000057A3ADFF
(1485778680.661946) can0 0B0#00004381E68013C3
(1485778680.662178) can0 140#00009C00000B4A24
(1485778680.662426) can0 180#03000DF71804F000
(1485778680.662677) can0 190#8000800080008000
(1485778680.662928) can0 1C0#77C0000080000000
(1485778680.663177) can0 1D0#A8FFFF0000000000
(1485778680.663426) can0 1E0#000000000000F5A3
(1485778680.663677) can0 150#A0AD700000000000
(1485778680.663927) can0 210#00000000FA8B0000
(1485778680.664176) can0 213#00FA00000FFF5FFF
(1485778680.664302) can0 252#0000000FFF200040
(1485778680.664552) can0 2D0#000001F47A905A85
(1485778680.666052) can0 060#0000000000000000
(1485778680.666340) can0 090#0000C201620D0000
(1485778680.666571) can0 0C0#0020000040000000
(1485778680.666841) can0 200#F200B7A20000C000
(1485778680.667071) can0 208#7F053AF66F80FF98
(1485778680.668444) can0 030#8002A180A000B207
(1485778680.669446) can0 010#0FC400000000804B
(1485778680.669944) can0 0A5#007EE3780035C800
(1485778680.670214) can0 1B5#000001D66AD0FFFC
(1485778680.670445) can0 298#0000001BD82B0800
(1485778680.670941) can0 0A0#0000080000007FFD
(1485778680.671716) can0 190#8000800080008000
(1485778680.673085) can0 0C8#DF873AF2E138C600
(1485778680.675942) can0 070#05A709F469F4F000
(1485778680.676197) can0 080#90007D00008000F7
(1485778680.676446) can0 090#0000C201620E0000
(1485778680.676695) can0 0F8#000000000000104C
(1485778680.676946) can0 120#0000000000008000
(1485778680.677196) can0 130#50002000E0000000
(1485778680.677440) can0 138#007D84003800820D
(1485778680.677678) can0 1A0#1F40000080000000
(1485778680.678302) can0 030#8002A180A000B207
(1485778680.678551) can0 260#8A82B40DB761B800
(1485778680.678820) can0 290#0600400100027702
(1485778680.679466) can0 010#00B400000000804B
(1485778680.680439) can0 170#04000000D0000000
(1485778680.680951) can0 060#0000000000000000
(1485778680.681697) can0 160#55FF00005793B5FF
(1485778680.681964) can0 0B0#00004381E68013C3
(1485778680.682196) can0 140#00009C00000C3A24
(1485778680.682463) can0 180#03000DF41803F000
(1485778680.682698) can0 190#8000800080008000
(1485778680.682946) can0 1C0#77C0000080000000
(1485778680.683192) can0 150#A0AD500000000000
(1485778680.683428) can0 1D0#A8FFFF0000000000
(1485778680.683677) can0 1E0#000000000000F693
(1485778680.683927) can0 210#00000000F98D0000
(1485778680.684061) can0 213#00F800010FFF6FFF
(1485778680.684301) can0 218#00008F003C7DC0D8
(1485778680.684552) can0 252#0000010FFF200040
(1485778680.684926) can0 269#00000529AA85FF00
(1485778680.685060) can0 2D4#00000000E5FEFFFE
(1485778680.685302) can0 360#C0C03F003C7DB8B7
(1485778680.686052) can0 090#0000C201620E0000
(1485778680.686340) can0 0A0#0000080000007FFC
(1485778680.686553) can0 0C0#0020000040000000
(1485778680.686803) can0 1B0#4100000000403000
(1485778680.687052) can0 270#5E2F042100000000
(1485778680.687175) can0 280#C400008385274000
(1485778680.687427) can0 2F0#30B00083005B9637
(1485778680.688302) can0 030#8002A180A000B207
(1485778680.689445) can0 010#01A400000000804B
(1485778680.689951) can0 0A5#007EE2780025D800
(1485778680.690938) can0 200#F200B7A20000C000
(1485778680.691439) can0 208#7F072AE60080FF18
(1485778680.691694) can0 190#8000800080008000
(1485778680.693072) can0 0C8#DF873AF2E138C600
(1485778680.693323) can0 40A#C101474343354645
(1485778680.696069) can0 060#0000000000000000
(1485778680.696322) can0 070#05A709F369F3F000
(1485778680.696431) can0 080#90007D00007FFEF7
(1485778680.696702) can0 090#0000C201620E0000
(1485778680.696945) can0 0F8#000000000000104C
(1485778680.697196) can0 120#0000000000008000
(1485778680.697445) can0 130#50002000E0000000
(1485778680.697696) can0 138#007D84003800820D
(1485778680.697940) can0 1A0#1F40000080000000
(1485778680.698325) can0 030#800BE1A0E000B287
(1485778680.699465) can0 010#029400000000804B
(1485778680.700428) can0 170#04000000D0000000
(1485778680.700820) can0 229#6000000000000000
(1485778680.700941) can0 0A0#0000080000007FFB
(1485778680.701208) can0 2A0#0000000030000000
(1485778680.701574) can0 2A5#00000000100FF0FF
(1485778680.701678) can0 160#55FF00005783BDFD
(1485778680.701946) can0 0B0#00004381E68013C3
(1485778680.702177) can0 140#00009C00000D2A24
(1485778680.702427) can0 180#03000DF51803F000
(1485778680.702677) can0 190#8000800080008000
(1485778680.702930) can0 1C0#77C0000080000000
(1485778680.703177) can0 150#A0AD500000000000
(1485778680.703427) can0 1D0#A8FFFF0000000000
(1485778680.703677) can0 1E0#000000000000F783
(1485778680.703927) can0 210#00000000F88F0000
(1485778680.704177) can0 213#00F800000FFF7FFF
(1485778680.704427) can0 252#0000000FFF200040
(1485778680.704678) can0 260#8A82B40DB7E1B800
(1485778680.704927) can0 2D0#000001F37B905A85
(1485778680.706052) can0 090#0000C201620E0000
(1485778680.706303) can0 0C0#0020000040000000
(1485778680.708177) can0 030#8002A180A000B207
(1485778680.708428) can0 290#0600400100027702
(1485778680.709428) can0 010#038400000000804B
(1485778680.710946) can0 0A5#007EE1780015E800
(1485778680.711196) can0 060#0000000000000000
(1485778680.711463) can0 1B5#000001D66AD0FFFC
(1485778680.711561) can0 298#0000001BD82B0800
(1485778680.711946) can0 190#8000800080008000
(1485778680.712053) can0 218#00008F003C7DC0D8
(1485778680.713195) can0 0C8#DF873EF6E138C600
(1485778680.713946) can0 269#00000529AA85FF00
(1485778680.716059) can0 070#05A709F269F2F000
(1485778680.716340) can0 080#90007D00007FFCF7
(1485778680.716578) can0 090#0000C200620E0000
(1485778680.716822) can0 0A0#0000080000007FFB
(1485778680.717089) can0 0F8#000000000000104C
(1485778680.717321) can0 120#0000000000008000
(1485778680.717589) can0 130#50002000E0000000
(1485778680.717803) can0 138#007D84003800820D
(1485778680.718051) can0 1A0#1F40000080000000
(1485778680.718302) can0 1B0#4100000000403000
(1485778680.718436) can0 030#8002A180A000B207
(1485778680.718677) can0 200#F200B7A30000C000
(1485778680.718927) can0 208#7F062AE60080FF18
(1485778680.719177) can0 270#5E2F042100000000
(1485778680.719427) can0 010#047400000000804B
(1485778680.719677) can0 280#C400008485264000
(1485778680.719928) can0 2D8#0444808000000000
(1485778680.720208) can0 400#1B01020002020000
(1485778680.720427) can0 170#04000000D0000000
(1485778680.721679) can0 160#55FF00005773C5FD
(1485778680.721926) can0 0B0#00004381E68013C3
(1485778680.722177) can0 140#00009C00000E1A24
(1485778680.722427) can0 180#03000DF61804F000
(1485778680.722677) can0 190#8000800080008000
(1485778680.722929) can0 1C0#77C0000080000000
(1485778680.723178) can0 1D0#A8FFFF0000000000
(1485778680.723427) can0 150#A0AD500000000000
(1485778680.723676) can0 1E0#000000000000F873
(1485778680.723927) can0 210#00000000F7910000
(1485778680.724061) can0 213#00F700000FFF8FFF
(1485778680.724302) can0 252#0000000FFF200040
(1485778680.726054) can0 060#0000000000000000
(1485778680.726343) can0 090#0000C200620E0000
(1485778680.726571) can0 0C0#0020000040000000
(1485778680.728196) can0 030#8002A180A000B207
(1485778680.728471) can0 17E#C010004000200000
(1485778680.728554) can0 260#8A82B40DB761B800
(1485778680.729445) can0 010#056400000000804B
(1485778680.730929) can0 0A5#007EE0780005F800
(1485778680.731183) can0 0A0#0000080000007FFB
(1485778680.731697) can0 190#8000800080008000
(1485778680.733196) can0 0C8#DF873EF2E138C600
(1485778680.733305) can0 310#D94430602D450074
(1485778680.735939) can0 070#05A709F269F2F000
(1485778680.736228) can0 080#90007D00007FFCF7
(1485778680.736466) can0 090#0000C200620E0000
(1485778680.736720) can0 0F8#000000000000104C
(1485778680.736935) can0 120#0000000000008000
(1485778680.737195) can0 130#50002000E0000000
(1485778680.737465) can0 138#007D84003800820D
(1485778680.737697) can0 1A0#1F40000080000000
(1485778680.738178) can0 030#8002A180A000B207
(1485778680.738428) can0 290#8600400100027702
(1485778680.739303) can0 010#065400000000804B
(1485778680.740192) can0 170#04000000D0000000
(1485778680.740572) can0 229#6000000000000000
(1485778680.740821) can0 2A0#0000000030000000
(1485778680.741089) can0 060#0000000000000000
(1485778680.741310) can0 200#F200B7A30000C000
(1485778680.741573) can0 2A5#00000000100FF0FF
(1485778680.741679) can0 160#55FF00005763CDFD
(1485778680.741947) can0 0B0#00004381E68013C3
(1485778680.742197) can0 140#00009C00000F0A24
(1485778680.742429) can0 180#03000DF31804F000
(1485778680.742678) can0 190#8000800080008000
(1485778680.742928) can0 1C0#77C0000080000000
(1485778680.743177) can0 1D0#A8FFFF0000000000
(1485778680.743428) can0 150#A0AD500000000000
(1485778680.743678) can0 1E0#000000000000F963
(1485778680.743928) can0 208#7F0A2AE60080FF18
(1485778680.744178) can0 210#00000000F6930000
(1485778680.744427) can0 213#00F600000FFF9FFF
(1485778680.744677) can0 218#00008F003C7DC0D8
(1485778680.744927) can0 252#0000000FFF200040
(1485778680.745178) can0 269#000005295585FF00
(1485778680.745428) can0 2D0#000001F27C905A85
(1485778680.745573) can0 2D4#00000000E5FEFFFE
(1485778680.746052) can0 090#0000C200620E0000
(1485778680.746304) can0 0A0#0000080000007FFB
(1485778680.746553) can0 0C0#0020000040000000
(1485778680.746804) can0 1B0#4100000000403000
(1485778680.747053) can0 270#5E2F042100000000
(1485778680.747197) can0 280#C400008485264000
(1485778680.747430) can0 455#0000000000000000
(1485778680.748178) can0 030#8002A180A000B207
(1485778680.749447) can0 010#074400000000804B
(1485778680.750945) can0 0A5#007EEF7800F50800
(1485778680.751053) can0 1B5#000001D66AD0FFFC
(1485778680.751321) can0 298#0000001BD82B0800
(1485778680.751694) can0 190#8000800080008000
(1485778680.753200) can0 0C8#DF873AF6E138C600
(1485778680.753449) can0 260#8A82B40DB7E1B800
(1485778680.756072) can0 060#0000000000000000
(1485778680.756354) can0 070#05A709F369F3F000
(1485778680.756587) can0 080#90007D00007FFCF7
(1485778680.756682) can0 090#0000C200620E0000
(1485778680.756953) can0 0F8#000000000000104C
(1485778680.757195) can0 120#0000000000008000
(1485778680.757462) can0 130#50002000E0000000
(1485778680.757696) can0 138#007D84003800820D
(1485778680.757935) can0 1A0#1F40000080000000
(1485778680.758321) can0 030#8003A180A000B207
(1485778680.759449) can0 010#083400000000804B
(1485778680.760446) can0 170#04000000D0000000
(1485778680.761068) can0 0A0#0000080000007FFC
(1485778680.761696) can0 160#55FF00005753D5FD
(1485778680.761950) can0 0B0#00004381E68013C3
(1485778680.762215) can0 140#00009C000000FA24
(1485778680.762446) can0 180#03000DF71806F000
(1485778680.762690) can0 190#8000800080008000
(1485778680.762969) can0 1C0#77C0000080000000
(1485778680.763196) can0 1D0#A8FFFF0000000000
(1485778680.763429) can0 150#A0AD500000000000
(1485778680.763679) can0 1E0#000000000000FA53
(1485778680.763928) can0 210#00000000F5950000
(1485778680.764073) can0 213#00F400010FFFAFFF
(1485778680.764303) can0 252#0000010FFF200040
(1485778680.766053) can0 090#0000C200620E0000
(1485778680.766342) can0 0C0#0020000040000000
(1485778680.766569) can0 200#F200B7A30000C000
(1485778680.766821) can0 208#7F073AF66F80FF98
(1485778680.768448) can0 030#8002A180A000B207
(1485778680.768691) can0 290#0600400100027702
(1485778680.769445) can0 010#092400000000804B
(1485778680.770945) can0 0A5#007EEE7800E51800
(1485778680.771213) can0 060#0000000000000000
(1485778680.771693) can0 190#8000800080008000
(1485778680.771969) can0 218#00008F003C7DC0D8
(1485778680.772950) can0 0C8#DF873AF2E138C600
(1485778680.773943) can0 269#000005295585FF00
(1485778680.775939) can0 070#05A709F269F2F000
(1485778680.776199) can0 080#90007D00007FFBF7
(1485778680.776457) can0 090#0000C200620E0000
(1485778680.776697) can0 0A0#0000080000007FFC
(1485778680.776963) can0 0F8#000000000000104C
(1485778680.777197) can0 120#0000000000008000
(1485778680.777446) can0 130#50002000E0000000
(1485778680.777679) can0 138#007D84003800820D
(1485778680.777928) can0 1A0#1F40000080000000
(1485778680.778179) can0 1B0#4100000000403000
(1485778680.778444) can0 030#8002A180A000B207
(1485778680.778697) can0 260#8A82B40DB761B800
(1485778680.778929) can0 270#5E2F042100000000
(1485778680.779179) can0 280#C400008485284000
(1485778680.779428) can0 2D8#0444808000000000
(1485778680.779551) can0 010#0A1400000000804B
(1485778680.779928) can0 2F0#30B00084005B9637
(1485778680.780075) can0 340#000000000300662F
(1485778680.780429) can0 170#04000000D0000000
(1485778680.780678) can0 229#6000000000000000
(1485778680.780928) can0 2A0#0000000030000000
(1485778680.781178) can0 2A5#00000000100FF0FF
(1485778680.781679) can0 160#55FF00005743DDFD
(1485778680.781928) can0 0B0#00004381E68013C3
(1485778680.782178) can0 140#00009C000001EA24
(1485778680.782438) can0 180#03000DF51804F000
(1485778680.782678) can0 190#8000800080008000
(1485778680.782930) can0 1C0#77C0000080000000
(1485778680.783178) can0 1D0#A8FFFF0000000000
(1485778680.783428) can0 150#A0AD500000000000
(1485778680.783676) can0 1E0#000000000000FB43
(1485778680.783928) can0 210#00000000F4970000
(1485778680.784062) can0 213#00F300010FFFBFFF
(1485778680.784303) can0 252#0000010FFF200040
(1485778680.784553) can0 2D0#000001F17D905A85
(1485778680.786554) can0 060#0000000000000000
(1485778680.786946) can0 090#0000C200620F0000
(1485778680.787053) can0 0C0#0020000040000000
(1485778680.788321) can0 030#800AE180E000B287
(1485778680.789451) can0 010#0B0400000000804B
(1485778680.790947) can0 0A5#007EED7800D52800
(1485778680.791194) can0 0A0#0000080000007FFC
(1485778680.791304) can0 1B5#000001D66AD0FFFC
(1485778680.791568) can0 200#F200B7A40000C000
(1485778680.791945) can0 190#8000800080008000
(1485778680.792054) can0 208#7F052AE60080FF18
(1485778680.792320) can0 298#0000001BD82B0800
(1485778680.793072) can0 0C8#DF873EF2E138C600
(1485778680.795939) can0 070#05A709F269F2F000
(1485778680.796232) can0 080#90007D00007FFBF7
(1485778680.796466) can0 090#0000C200620F0000
(1485778680.796698) can0 0F8#000000000000104C
(1485778680.796947) can0 120#0000000000008000
(1485778680.797190) can0 130#50002000E0000000
(1485778680.797448) can0 138#007D84003800820D
(1485778680.797679) can0 1A0#1F40000080000000
(1485778680.798429) can0 030#8002A180A000B207
(1485778680.798551) can0 290#8600400100027702
(1485778680.799428) can0 010#0CF400000000804B
(1485778680.800314) can0 170#04000000D0000000
(1485778680.800939) can0 060#0000000000000000
(1485778680.801686) can0 160#55FF00005733E5FD
(1485778680.801929) can0 0B0#00004381E68013C3
(1485778680.802215) can0 140#00009C000002DA24
(1485778680.802447) can0 180#03000DF51805F000
(1485778680.802679) can0 190#8000800080008000
(1485778680.802937) can0 1C0#77C0000080000000
(1485778680.803196) can0 150#A0AD500000000000
(1485778680.803445) can0 1D0#A8FFFF0000000000
(1485778680.803680) can0 1E0#000000000000FC33
(1485778680.803928) can0 210#00000000F3990000
(1485778680.804083) can0 213#00F200010FFFCFFF
(1485778680.804304) can0 218#00008F003C7DC0D8
(1485778680.804553) can0 252#0000010FFF200040
(1485778680.804804) can0 260#8A82B40DB761B800
(1485778680.805053) can0 269#000005295585FF00
(1485778680.805304) can0 2D4#00000000E5FEFFFE
(1485778680.806053) can0 090#0000C200620F0000
(1485778680.806320) can0 0A0#0000080000007FFB
(1485778680.806575) can0 0C0#0020000040000000
(1485778680.806842) can0 1B0#4100000000403000
(1485778680.807055) can0 270#5E2F042100000000
(1485778680.807176) can0 280#C400008485284000
(1485778680.808304) can0 030#8002A180A000B207
(1485778680.809444) can0 010#0DE400000000804B
(1485778680.810948) can0 0A5#007EEC7800C53800
(1485778680.811696) can0 190#8000800080008000
(1485778680.813203) can0 0C8#DF873EF2E138C600
(1485778680.815952) can0 060#0000000000000000
(1485778680.816231) can0 070#05A709F269F2F000
(1485778680.816440) can0 080#90007D00007FF9F7
(1485778680.816698) can0 090#0000C200620F0000
(1485778680.816946) can0 0F8#000000000000104C
(1485778680.817197) can0 120#0000000000008000
(1485778680.817447) can0 130#50002000E0000000
(1485778680.817679) can0 138#007D84003800820D
(1485778680.817929) can0 1A0#1F40000080000000
(1485778680.818179) can0 200#F200B7A40000C000
(1485778680.818429) can0 030#8003A180A000B207
(1485778680.818679) can0 208#7F022AE60080FF18
(1485778680.818967) can0 40A#C102333133373000
(1485778680.819446) can0 010#0ED400000000804B
(1485778680.820197) can0 170#04000000D0000000
(1485778680.820457) can0 229#6000000000000000
(1485778680.820694) can0 2A0#0000000030000000
(1485778680.820963) can0 2A5#00000000100FF0FF
(1485778680.821197) can0 0A0#0000080000007FFB
(1485778680.821696) can0 160#55FF00005723EDFD
(1485778680.821968) can0 0B0#00004381E68013C3
(1485778680.822196) can0 140#00009C000003CA24
(1485778680.822428) can0 180#03000DF51803F000
(1485778680.822679) can0 190#8000800080008000
(1485778680.822930) can0 1C0#77C0000080000000
(1485778680.823179) can0 1D0#A8FFFF0000000000
(1485778680.823428) can0 150#A0AD500000000000
(1485778680.823682) can0 1E0#000000000000FD23
(1485778680.823929) can0 210#00000000F29B0000
(1485778680.824179) can0 213#00F100010FFFDFFF
(1485778680.824303) can0 252#0000010FFF200040
(1485778680.824554) can0 2D0#000001F07E905A85
(1485778680.826054) can0 090#0000C1FE620B0000
(1485778680.826316) can0 0C0#0020000040000000
(1485778680.828210) can0 030#8002A180A000B207
(1485778680.828446) can0 17E#C010004000200000
(1485778680.828716) can0 260#8A82B40DB7E1B800
(1485778680.828949) can0 290#0600400100027702
(1485778680.829063) can0 380#5392FCA96000C0A9
(1485778680.829318) can0 3B4#401111FF00000000
(1485778680.829575) can0 010#0FC400000000804B
(1485778680.829845) can0 435#B224B9D276EFB3C4
(1485778680.830949) can0 0A5#007EEB7800B54800
(1485778680.831216) can0 060#0000000000000000
(1485778680.831306) can0 1B5#000001D66AD0FFFC
(1485778680.831569) can0 298#0000001BD82B0800
(1485778680.831947) can0 190#8000800080008000
(1485778680.832060) can0 218#00008F003C7DC0D8
(1485778680.833198) can0 0C8#DF873AF6E138C600
(1485778680.833473) can0 310#D94430602D450074
(1485778680.833556) can0 360#C0C03F003C7DB8B7
(1485778680.834066) can0 269#00000529AA85FF00
(1485778680.836072) can0 070#05A709F369F3F000
(1485778680.836319) can0 080#90007D00007FFCF7
(1485778680.836572) can0 090#0000C1FE620B0000
(1485778680.836842) can0 0A0#0000080000007FFE
(1485778680.837080) can0 0F8#000000000000104C
(1485778680.837342) can0 120#0000000000008000
(1485778680.837555) can0 130#50002000E0000000
(1485778680.837804) can0 138#007D84003800820D
(1485778680.838053) can0 1A0#1F40000080000000
(1485778680.838179) can0 030#8002A180A000B207
(1485778680.838461) can0 1B0#4100000000403000
(1485778680.838693) can0 270#5E2F042100000000
(1485778680.838930) can0 280#C400008485284000
(1485778680.839177) can0 2D8#0444808000000000
(1485778680.839429) can0 010#00B400000000804B
(1485778680.840177) can0 170#04000000D0000000
(1485778680.840962) can0 200#F200B7A40000C000
(1485778680.841695) can0 160#55FF00005713F5FD
(1485778680.841966) can0 0B0#00004381E68013C3
(1485778680.842197) can0 140#00009C000004BA24
(1485778680.842467) can0 180#03000DF51802F000
(1485778680.842697) can0 190#8000800080008000
(1485778680.842950) can0 1C0#77C0000080000000
(1485778680.843194) can0 1D0#A8FFFF0000000000
(1485778680.843430) can0 1E0#000000000000FE13
(1485778680.843678) can0 150#A0AD500000000000
(1485778680.843929) can0 208#7F0B2AE60080FF18
(1485778680.844064) can0 210#00000000F19D0000
(1485778680.844303) can0 213#00F000010FFFEFFF
(1485778680.844554) can0 252#0000010FFF200040
(1485778680.844928) can0 581#8100FFFFFFFFFFFF
(1485778680.846053) can0 060#0000000000000000
(1485778680.846318) can0 090#0000C1FE620B0000
(1485778680.846594) can0 0C0#0020000040000000
(1485778680.846823) can0 3DA#0000000000000000
(1485778680.847091) can0 3E2#0000000000000000
(1485778680.847305) can0 3EA#0000000000006000
(1485778680.847679) can0 455#0000000000000000
(1485778680.848192) can0 030#8002A180A000B207
(1485778680.849446) can0 010#01A400000000804B
(1485778680.850949) can0 0A5#007EEA7800A55800
(1485778680.851058) can0 0A0#0000080000007FFE
(1485778680.851698) can0 190#8000800080008000
(1485778680.853200) can0 0C8#DF873EF2E138C600
(1485778680.853447) can0 260#8A82B40DB761B800
(1485778680.855940) can0 070#05A709F369F3F000
(1485778680.856191) can0 080#90007D00007FFDF7
(1485778680.856447) can0 090#0000C1FE620B0000
(1485778680.856698) can0 0F8#000000000000104C
(1485778680.856948) can0 120#0000000000008000
(1485778680.857198) can0 130#50002000E0000000
(1485778680.857430) can0 138#007D84003800820D
(1485778680.857678) can0 1A0#1F40000080000000
(1485778680.858429) can0 030#800AE180E000B287
(1485778680.858678) can0 290#0600400100027702
(1485778680.859336) can0 010#029400000000804B
(1485778680.860321) can0 170#04000000D0000000
(1485778680.860573) can0 229#6000000000000000
(1485778680.860948) can0 2A0#0000000030000000
(1485778680.861055) can0 060#0000000000000000
(1485778680.861316) can0 2A5#00000000100FF0FF
(1485778680.861697) can0 160#55FF00005703FDFD
(1485778680.861948) can0 0B0#00004381E68013C3
(1485778680.862216) can0 140#00009C000005AA24
(1485778680.862446) can0 180#03000DF51804F000
(1485778680.862679) can0 190#8000800080008000
(1485778680.862930) can0 1C0#77C0000080000000
(1485778680.863178) can0 1D0#A8FFFF0000000000
(1485778680.863430) can0 150#A0AD500000000000
(1485778680.863552) can0 1E0#000000000000FF03
(1485778680.863928) can0 210#00000000F09F0000
(1485778680.864064) can0 213#00EF00010FFFFFFF
(1485778680.864304) can0 218#00008F003C7DC0D8
(1485778680.864553) can0 252#0000010FFF200040
(1485778680.864958) can0 269#00000529AA85FF00
(1485778680.865052) can0 2D0#000001EF7F905A85
(1485778680.865313) can0 2D4#00000000E5FEFFFE
(1485778680.866055) can0 090#0000C1FE620B0000
(1485778680.866302) can0 0A0#0000080000007FFE
(1485778680.866552) can0 0C0#0020000040000000
(1485778680.866676) can0 1B0#4100000000403000
(1485778680.866927) can0 200#F200B7A40000C000
(1485778680.867177) can0 208#7F063AF66F80FF98
(1485778680.867426) can0 270#5E2F042100000000
(1485778680.867677) can0 280#C400008385274000
(1485778680.867926) can0 2F0#30B00083005B9637
(1485778680.868427) can0 030#8002A180A000B207
(1485778680.869442) can0 010#038400000000804B
(1485778680.870951) can0 0A5#007EE97800956800
(1485778680.871065) can0 1B5#000001D66AD0FFFC
(1485778680.871318) can0 298#0000001BD82B0800
(1485778680.871689) can0 190#8000800080008000
(1485778680.873189) can0 0C8#DF873AF6E138C600
(1485778680.875941) can0 060#0000000000000000
(1485778680.876215) can0 070#05A709F369F3F000
(1485778680.876440) can0 080#90007D00007FFEF7
(1485778680.876691) can0 090#0000C1FE620B0000
(1485778680.876941) can0 0F8#000000000000104C
(1485778680.877189) can0 120#0000000000008000
(1485778680.877441) can0 130#50002000E0000000
(1485778680.877677) can0 138#007D84003800820D
(1485778680.877925) can0 1A0#1F40000080000000
(1485778680.878300) can0 030#8003A180A000B207
(1485778680.878566) can0 260#8A82B40DB7E1B800
(1485778680.879316) can0 010#047400000000804B
(1485778680.880191) can0 170#04000000D0000000
(1485778680.880941) can0 0A0#0000080000007FFE
(1485778680.881692) can0 160#55FF000057F385FD
(1485778680.881929) can0 0B0#00004381E68013C3
(1485778680.882190) can0 140#00009C0000069A24
(1485778680.882427) can0 180#03000DF51804F000
(1485778680.882678) can0 190#8000800080008000
(1485778680.882929) can0 1C0#77C0000080000000
(1485778680.883050) can0 150#A0AD500000000000
(1485778680.883302) can0 1D0#A8FFFF0000000000
(1485778680.883550) can0 1E0#000000000000F0F3
(1485778680.883926) can0 210#00000000FF810000
(1485778680.884050) can0 213#00FF00000FFF0FFF
(1485778680.884300) can0 252#0000000FFF200040
(1485778680.885926) can0 090#0000C1FE620B0000
(1485778680.886315) can0 0C0#0020000040000000
(1485778680.888317) can0 030#8002A180A000B207
(1485778680.888442) can0 290#8600C00100027702
(1485778680.889439) can0 010#056400000000804B
(1485778680.890927) can0 060#0000000000000000
(1485778680.891176) can0 200#F200B7A40000C000
(1485778680.891674) can0 190#8000800080008000
(1485778680.891926) can0 0A5#007EE87800857800
(1485778680.892174) can0 208#7F082AE60080FF18
(1485778680.892426) can0 218#00008F003C7DC0D8
(1485778680.893052) can0 0C8#DF873EF2E138C600
(1485778680.894052) can0 269#00000529AA85FF00
(1485778680.895928) can0 070#05A709F469F4F000
(1485778680.896177) can0 080#90007D00008000F7
(1485778680.896428) can0 090#0000C1FE620B0000
(1485778680.896674) can0 0A0#0000080000007FFE
(1485778680.896925) can0 0F8#000000000000104C
(1485778680.897176) can0 120#0000000000008000
(1485778680.897423) can0 130#50002000E0000000
(1485778680.897677) can0 138#007D84003800820D
(1485778680.897923) can0 1A0#1F40000080000000
(1485778680.898176) can0 1B0#4100000000403000
(1485778680.898426) can0 030#8002A180A000B207
(1485778680.898675) can0 270#5E2F042100000000
(1485778680.898926) can0 280#C400008385274000
(1485778680.899175) can0 2D8#0444808000000000
(1485778680.899426) can0 340#000000000300662F
(1485778680.899676) can0 010#065400000000804B
(1485778680.900299) can0 170#04000000D0000000
(1485778680.900551) can0 229#6000000000000000
(1485778680.900925) can0 2A0#0000000030000000
(1485778680.901176) can0 2A5#00000000100FF0FF
(1485778680.901676) can0 160#55FF000057E38DFD
(1485778680.901925) can0 0B0#00004381E68013C3
(1485778680.902177) can0 140#00009C0000078A24
(1485778680.902426) can0 180#03000DF41803F000
(1485778680.902677) can0 190#8000800080008000
(1485778680.902927) can0 1C0#77C0000080000000
(1485778680.903177) can0 1D0#A8FFFF0000000000
(1485778680.903425) can0 1E0#000000000000F1E3
(1485778680.903677) can0 150#A0AD500000000000
(1485778680.903928) can0 210#00000000FE830000
(1485778680.904062) can0 213#00FD00010FFF1FFF
(1485778680.904302) can0 252#0000010FFF200040
(1485778680.904552) can0 260#8A82B40DB761B800
(1485778680.904926) can0 2D0#000001FE70905A85
(1485778680.906052) can0 060#0000000000000000
(1485778680.906305) can0 090#0000C1FF620C0000
(1485778680.906557) can0 0C0#0020000040000000
(1485778680.908179) can0 030#8002A180A000B207
(1485778680.909429) can0 010#074400000000804B
(1485778680.911056) can0 0A0#0000080000007FFD
(1485778680.911680) can0 190#8000800080008000
(1485778680.911928) can0 0A5#007EE77800758800
(1485778680.912179) can0 1B5#000001D66AD0FFFC
(1485778680.912428) can0 298#0000001BD82B0800
(1485778680.913052) can0 0C8#DF873AF2E138C600
(1485778680.915927) can0 070#05A709F369F3F000
(1485778680.916191) can0 080#90007D00007FFEF7
(1485778680.916428) can0 090#0000C1FF620C0000
(1485778680.916679) can0 0F8#000000000000104C
(1485778680.916929) can0 120#0000000000008000
(1485778680.917177) can0 130#50002000E0000000
(1485778680.917427) can0 138#007D84003800820D
(1485778680.917681) can0 1A0#1F40000080000000
(1485778680.917927) can0 200#F200B7A50000C000
(1485778680.918177) can0 208#7F092AE60080FF18
(1485778680.918427) can0 030#8002A180A000B207
(1485778680.918679) can0 290#0600400100027702
(1485778680.919430) can0 010#083400000000804B
(1485778680.920304) can0 170#04000000D0000000
(1485778680.920929) can0 060#0000000000000000
(1485778680.921679) can0 160#55FF000057D395FD
(1485778680.921929) can0 0B0#00004381E68013C3
(1485778680.922179) can0 140#00009C0000087A24
(1485778680.922429) can0 180#03000DF51804F000
(1485778680.922677) can0 190#8000800080008000
(1485778680.922927) can0 1C0#77C0000080000000
(1485778680.923177) can0 1D0#A8FFFF0000000000
(1485778680.923427) can0 150#A0AD500000000000
(1485778680.923676) can0 1E0#000000000000F2D3
(1485778680.923927) can0 210#00000000FD850000
(1485778680.924052) can0 213#00FD00000FFF2FFF
(1485778680.924302) can0 218#00008F003C7DC0D8
(1485778680.924552) can0 252#0000000FFF200040
(1485778680.924927) can0 269#000005295585FF00
(1485778680.925052) can0 2D4#00000000E5FEFFFE
(1485778680.926052) can0 090#0000C1FF620C0000
(1485778680.926179) can0 0A0#0000080000007FFD
(1485778680.926430) can0 0C0#0020000040000000
(1485778680.926679) can0 1B0#4100000000403000
(1485778680.926929) can0 270#5E2F042100000000
(1485778680.927178) can0 280#C400008385264000
(1485778680.928178) can0 030#8002A180A000B207
(1485778680.928427) can0 17E#C010004000228000
(1485778680.928677) can0 260#8A82B40DB761B800
(1485778680.929429) can0 010#092400000000804B
(1485778680.931679) can0 190#8000800080008000
(1485778680.931928) can0 0A5#007EE67800659800
(1485778680.933181) can0 0C8#DF873EF2E138C600
(1485778680.933429) can0 310#D94430602D450074
(1485778680.935928) can0 060#0000000000000000
(1485778680.936179) can0 070#05A709F369F3F000
(1485778680.936429) can0 080#90007D00007FFEF7
(1485778680.936679) can0 090#0000C1FF620C0000
(1485778680.936928) can0 0F8#000000000000104C
(1485778680.937177) can0 120#0000000000008000
(1485778680.937428) can0 130#50002000E0000000
(1485778680.937677) can0 138#007D84003800820D
(1485778680.937927) can0 1A0#1F40000080000000
(1485778680.938177) can0 030#800BE180E000B287
(1485778680.939303) can0 010#0A1400000000804B
(1485778680.940428) can0 170#04000000D0000000
(1485778680.940676) can0 229#6000000000000000
(1485778680.940928) can0 2A0#0000000030000000
(1485778680.941178) can0 0A0#0000080000007FFD
(1485778680.941427) can0 200#F200B7A50000C000
(1485778680.941678) can0 2A5#00000000100FF0FF
(1485778680.941927) can0 0B0#00004381E68013C3
(1485778680.942178) can0 140#00009C0000096A24
(1485778680.942427) can0 160#55FF000057C39DFF
(1485778680.942678) can0 180#03000DF71805F000
(1485778680.942929) can0 190#8000800080008000
(1485778680.943178) can0 1C0#77C0000080000000
(1485778680.943428) can0 150#A0AE700000000000
(1485778680.943550) can0 1D0#A8FFFF0000000000
(1485778680.943928) can0 1E0#000000000000F3C3
(1485778680.944052) can0 208#7F052AE60080FF18
(1485778680.944302) can0 210#00000000FC870000
(1485778680.944552) can0 213#00FB00010FFF3FFF
(1485778680.944802) can0 252#0000010FFF200040
(1485778680.945053) can0 2D0#000001FD71905A85
(1485778680.945302) can0 40A#C103108022898887
(1485778680.946053) can0 090#0000C1FF620C0000
(1485778680.946304) can0 0C0#0020000040000000
(1485778680.946552) can0 455#0000000000000000
(1485778680.948300) can0 030#8002A180A000B207
(1485778680.948555) can0 290#0600400100027702
(1485778680.949427) can0 010#0B0400000000804B
(1485778680.950929) can0 060#0000000000000000
(1485778680.951679) can0 190#8000800080008000
(1485778680.951930) can0 0A5#007EE5780055A800
(1485778680.952179) can0 1B5#000001D66AD0FFFC
(1485778680.952429) can0 218#00008F003C7DC0D8
(1485778680.952679) can0 298#0000001BD82B0800
(1485778680.953053) can0 0C8#DF873AF6E138C600
(1485778680.953303) can0 260#8A82B40DB7E1B800
(1485778680.954052) can0 269#000005295585FF00
(1485778680.955928) can0 070#05A709F369F3F000
(1485778680.956181) can0 080#90007D00007FFEF7
(1485778680.956429) can0 090#0000C1FF620C0000
(1485778680.956679) can0 0A0#0000080000007FFD
(1485778680.956927) can0 0F8#000000000000104C
(1485778680.957178) can0 120#0000000000008000
(1485778680.957427) can0 130#50002000E0000000
(1485778680.957678) can0 138#007D84003800820D
(1485778680.957928) can0 1A0#1F40000080000000
(1485778680.958177) can0 1B0#4100000000403000
(1485778680.958427) can0 270#5E2F042100000000
(1485778680.958677) can0 030#8002A180A000B207
(1485778680.958928) can0 280#C400008385264000
(1485778680.959177) can0 2D8#0444808000000000
(1485778680.959302) can0 2F0#30B00083005B9637
(1485778680.959554) can0 010#0CF400000000804B
(1485778680.960303) can0 170#04000000D0000000
(1485778680.961678) can0 0B0#00004381E68013C3
(1485778680.961929) can0 140#00009C00000A5A24
(1485778680.962177) can0 160#55FF000057B3A5FD
(1485778680.962313) can0 180#03000DF51804F000
(1485778680.962677) can0 190#8000800080008000
(1485778680.962953) can0 1C0#77C0000080000000
(1485778680.963056) can0 1D0#A8FFFF0000000000
(1485778680.963327) can0 150#A0AE500000000000
(1485778680.963569) can0 1E0#000000000000F4B3
(1485778680.963930) can0 210#00000000FB890000
(1485778680.964055) can0 213#00FB00000FFF4FFF
(1485778680.964303) can0 252#0000000FFF200040
(1485778680.965928) can0 060#0000000000000000
(1485778680.966361) can0 090#0000C1FF620C0000
(1485778680.966427) can0 0C0#0020000040000000
(1485778680.966719) can0 200#F200B7A50000C000
(1485778680.967447) can0 208#7F083AF66F80FF98
(1485778680.968377) can0 030#8002A180A000B207
(1485778680.968613) can0 400#1C00020200020202
(1485778680.969339) can0 010#0DE400000000804B
(1485778680.970980) can0 0A0#0000080000007FFD
(1485778680.971731) can0 190#8000800080008000
(1485778680.971996) can0 0A5#007EE4780045B800
(1485778680.973105) can0 0C8#DF873EF2E138C600
(1485778680.975973) can0 070#05A709F369F3F000
(1485778680.976238) can0 080#90007D00007FFEF7
(1485778680.976470) can0 090#0000C1FF620C0000
(1485778680.976734) can0 0F8#000000000000104C
(1485778680.976977) can0 120#0000000000008000
(1485778680.977233) can0 130#50002000E0000000
(1485778680.977431) can0 138#007D84003800820D
(1485778680.977677) can0 1A0#1F40000080000000
(1485778680.978303) can0 030#8002A180A000B207
(1485778680.978553) can0 260#8A82B40DB761B800
(1485778680.978820) can0 290#8600400100027702
(1485778680.979445) can0 010#0ED400000000804B
(1485778680.980198) can0 170#04000000D0000000
(1485778680.980479) can0 229#6000000000000000
(1485778680.980693) can0 2A0#0000000030000000
(1485778680.980946) can0 2A5#00000000100FF0FF
(1485778680.981196) can0 060#0000000000000000
(1485778680.981699) can0 160#55FF000057A3ADFD
(1485778680.981968) can0 0B0#00004381E68013C3
(1485778680.982180) can0 140#00009C00000B4A24
(1485778680.982428) can0 180#03000DF61803F000
(1485778680.982678) can0 190#8000800080008000
(1485778680.982930) can0 1C0#77C0000080000000
(1485778680.983178) can0 1D0#A8FFFF0000000000
(1485778680.983426) can0 150#A0AE500000000000
(1485778680.983553) can0 1E0#000000000000F5A3
(1485778680.983928) can0 210#00000000FA8B0000
(1485778680.984052) can0 213#00FA00000FFF5FFF
(1485778680.984303) can0 218#00008F003C7DC0D8
(1485778680.984553) can0 252#0000000FFF200040
(1485778680.984804) can0 269#000005295585FF00
(1485778680.985053) can0 2D0#000001FC72905A85
(1485778680.985301) can0 2D4#00000000E5FEFFFE
(1485778680.985553) can0 360#C0C03F003C7DB8B7
(1485778680.986053) can0 090#0000C200620C0000
(1485778680.986324) can0 0A0#0000080000007FFD
(1485778680.986555) can0 0C0#0020000040000000
(1485778680.986803) can0 1B0#4100000000403000
(1485778680.987052) can0 270#5E2F042100000000
(1485778680.987315) can0 280#C400008385264000
(1485778680.988303) can0 030#8002A180A000B207
(1485778680.989431) can0 010#0FC400000000804B
(1485778680.990982) can0 200#F200B7A50000C000
(1485778680.991731) can0 190#8000800080008000
(1485778680.991977) can0 0A5#007EE3780035C800
(1485778680.992219) can0 1B5#000001D66AD0FFFC
(1485778680.992470) can0 208#7F022AE60080FF18
(1485778680.992720) can0 298#0000001BD82B0800
(1485778680.992939) can0 0C8#DF873AF6E138C600
(1485778680.996455) can0 060#0000000000000000
(1485778680.996731) can0 070#05A709F369F3F000
(1485778680.996932) can0 080#90007D00007FFEF7
(1485778680.997178) can0 090#0000C200620C0000
(1485778680.997427) can0 0F8#000000000000104C
(1485778680.997723) can0 120#0000000000008000
(1485778680.997976) can0 130#50002000E0000000
(1485778680.998220) can0 138#007D84003800820D
(1485778680.998470) can0 030#8003A180A000B207
(1485778680.998720) can0 1A0#1F40000080000000
(1485778680.999470) can0 010#00B400000000804B
(1485778681.000198) can0 170#04000000D0000000
(1485778681.000938) can0 0A0#0000080000007FFD
(1485778681.001699) can0 0B0#00004381E68013C3
(1485778681.001967) can0 140#00009C00000C3A24
(1485778681.002069) can0 160#55FF00005793B5FD
(1485778681.002329) can0 180#03000DF71805F000
(1485778681.002579) can0 190#8000800080008000
(1485778681.002952) can0 1C0#77C0000080000000
(1485778681.003071) can0 1D0#A8FFFF0000000000
(1485778681.003317) can0 150#A0AE500000000000
(1485778681.003566) can0 1E0#000000000000F693
(1485778681.003948) can0 210#00000000F98D0000
(1485778681.004074) can0 213#00F900000FFF6FFF
(1485778681.004305) can0 252#0000000FFF200040
(1485778681.004553) can0 260#8A82B40DB7E1B800
(1485778681.005928) can0 090#0000C200620C0000
(1485778681.006210) can0 0C0#0020000040000000
(1485778681.008198) can0 030#8002A180A000B207
(1485778681.008467) can0 290#0600400100027702
(1485778681.009467) can0 010#01A400000000804B
(1485778681.010952) can0 060#0000000000000000
(1485778681.011699) can0 190#8000800080008000
(1485778681.011967) can0 0A5#007EE2780025D800
(1485778681.012219) can0 218#00008F003C7DC0D8
(1485778681.013201) can0 0C8#DF873EF2E138C600
(1485778681.014073) can0 269#000005295585FF00
(1485778681.015962) can0 070#05A709F369F3F000
(1485778681.016200) can0 080#90007D00007FFDF7
(1485778681.016447) can0 090#0000C200620D0000
(1485778681.016716) can0 0A0#0000080000007FFD
(1485778681.016948) can0 0F8#000000000000104C
(1485778681.017191) can0 120#0000000000008000
(1485778681.017451) can0 130#50002000E0000000
(1485778681.017680) can0 138#007D84003800820D
(1485778681.017928) can0 1A0#1F40000080000000
(1485778681.018178) can0 1B0#4100000000403000
(1485778681.018444) can0 030#800AE1A0E000B287
(1485778681.018717) can0 200#F200B7A60000C000
(1485778681.018949) can0 208#7F052AE60080FF18
(1485778681.019195) can0 270#5E2F042100000000
(1485778681.019303) can0 280#C400008385264000
(1485778681.019555) can0 010#029400000000804B
(1485778681.019928) can0 2D8#0444808000000000
(1485778681.020061) can0 340#000000000300662F
(1485778681.020303) can0 170#04000000D0000000
(1485778681.020553) can0 229#6000000000000000
(1485778681.020928) can0 2A0#0000000030000000
(1485778681.021178) can0 2A5#00000000100FF0FF
(1485778681.021678) can0 0B0#00004381E68013C3
(1485778681.021948) can0 140#00009C00000D2A24
(1485778681.022219) can0 160#55FF00005783BDFD
(1485778681.022431) can0 180#03000DF31803F000
(1485778681.022678) can0 190#8000800080008000
(1485778681.022930) can0 1C0#77C0000080000000
(1485778681.023178) can0 1D0#A8FFFF0000000000
(1485778681.023428) can0 150#A0AE500000000000
(1485778681.023553) can0 1E0#000000000000F783
(1485778681.023928) can0 210#00000000F88F0000
(1485778681.024054) can0 213#00F700010FFF7FFF
(1485778681.024303) can0 252#0000010FFF200040
(1485778681.024553) can0 2D0#000001FB73905A85
(1485778681.026053) can0 060#0000000000000000
(1485778681.026324) can0 090#0000C200620D0000
(1485778681.026600) can0 0C0#0020000040000000
(1485778681.028198) can0 030#8002A180A000B207
(1485778681.028470) can0 17E#C010004000200000
(1485778681.028700) can0 260#8A82B40DB761B800
(1485778681.029449) can0 010#038400000000804B
(1485778681.030951) can0 0A0#0000080000007FFC
(1485778681.031696) can0 190#8000800080008000
(1485778681.031971) can0 0A5#007EE1780015E800
(1485778681.032198) can0 1B5#000001D66AD0FFFC
(1485778681.032471) can0 298#0000001BD82B0800
(1485778681.033080) can0 0C8#DF873AF2E138C600
(1485778681.033318) can0 310#D94430602D450074
(1485778681.035952) can0 070#05A709F369F3F000
(1485778681.036217) can0 080#90007D00007FFDF7
(1485778681.036449) can0 090#0000C200620D0000
(1485778681.036680) can0 0F8#000000000000104C
(1485778681.036944) can0 120#0000000000008000
(1485778681.037192) can0 130#50002000E0000000
(1485778681.037469) can0 138#007D84003800820D
(1485778681.037681) can0 1A0#1F40000080000000
(1485778681.038178) can0 030#8002A180A000B207
(1485778681.038428) can0 290#8600400100027702
(1485778681.039335) can0 010#047400000000804B
(1485778681.040471) can0 170#04000000D0000000
(1485778681.040945) can0 060#0000000000000000
(1485778681.041200) can0 200#F200B7A60000C000
(1485778681.041698) can0 0B0#00004381E68013C3
(1485778681.041970) can0 140#00009C00000E1A24
(1485778681.042079) can0 160#55FF00005773C5FD
(1485778681.042323) can0 180#03000DF71803F000
(1485778681.042573) can0 190#8000800080008000
(1485778681.042949) can0 1C0#77C0000080000000
(1485778681.043074) can0 1D0#A8FFFF0000000000
(1485778681.043306) can0 150#A0AE500000000000
(1485778681.043553) can0 1E0#000000000000F873
(1485778681.043928) can0 208#7F072AE60080FF18
(1485778681.044054) can0 210#00000000F7910000
(1485778681.044304) can0 213#00F600010FFF8FFF
(1485778681.044553) can0 218#00008F003C7DC0D8
(1485778681.044803) can0 252#0000010FFF200040
(1485778681.045053) can0 269#00000529AA85FF00
(1485778681.045303) can0 2D4#00000000E5FEFFFE
(1485778681.046054) can0 090#0000C200620D0000
(1485778681.046189) can0 0A0#0000080000007FFC
(1485778681.046447) can0 0C0#0020000040000000
(1485778681.046681) can0 1B0#4100000000403000
(1485778681.046928) can0 270#5E2F042100000000
(1485778681.047179) can0 280#C400008385264000
(1485778681.047428) can0 2F0#30B00083005B9637
(1485778681.047678) can0 455#0000000000000000
(1485778681.048553) can0 030#8002A180A000B207
(1485778681.049445) can0 010#056400000000804B
(1485778681.051691) can0 190#8000800080008000
(1485778681.051976) can0 0A5#007EE0780005F800
(1485778681.053080) can0 0C8#DF873AF2E138C600
(1485778681.053325) can0 260#8A82B40DB761B800
(1485778681.056073) can0 060#0000000000000000
(1485778681.056342) can0 070#05A709F369F3F000
(1485778681.056576) can0 080#90007D00007FFDF7
(1485778681.056843) can0 090#0000C1FF620C0000
(1485778681.057074) can0 0F8#000000000000104C
(1485778681.057306) can0 120#0000000000008000
(1485778681.057569) can0 130#50002000E0000000
(1485778681.057806) can0 138#007D84003800820D
(1485778681.058093) can0 1A0#1F40000080000000
(1485778681.058324) can0 030#8003A180A000B207
(1485778681.059339) can0 010#065400000000804B
(1485778681.060200) can0 170#04000000D0000000
(1485778681.060452) can0 229#6000000000000000
(1485778681.060699) can0 2A0#0000000030000000
(1485778681.060970) can0 0A0#0000080000007FFC
(1485778681.061199) can0 2A5#00000000100FF0FF
(1485778681.061694) can0 0B0#00004381E68013C3
(1485778681.061967) can0 140#00009C00000F0A24
(1485778681.062197) can0 160#55FF00005763CDFD
(1485778681.062476) can0 180#03000DF61805F000
(1485778681.062555) can0 190#8000800080008000
(1485778681.062931) can0 1C0#77C0000080000000
(1485778681.063053) can0 1D0#A8FFFF0000000000
(1485778681.063303) can0 150#A0AE500000000000
(1485778681.063554) can0 1E0#000000000000F963
(1485778681.063929) can0 210#00000000F6930000
(1485778681.064054) can0 213#00F500010FFF9FFF
(1485778681.064303) can0 252#0000010FFF200040
(1485778681.064554) can0 2D0#000001FA74905A85
(1485778681.066053) can0 090#0000C1FF620C0000
(1485778681.066338) can0 0C0#0020000040000000
(1485778681.066566) can0 200#F200B7A60000C000
(1485778681.067699) can0 208#7F073AF66F80FF98
(1485778681.068327) can0 030#8002A180A000B207
(1485778681.068568) can0 290#0600400100027702
(1485778681.068848) can0 40A#C104FFFF078A0000
(1485778681.069338) can0 010#074400000000804B
(1485778681.070954) can0 060#0000000000000000
(1485778681.071699) can0 190#8000800080008000
(1485778681.071974) can0 0A5#007EEF7800F50800
(1485778681.072199) can0 1B5#000001D66AD0FFFC
(1485778681.072454) can0 218#00008F003C7DC0D8
(1485778681.072559) can0 298#0000001BD82B0800
(1485778681.073073) can0 0C8#DF873EF6E138C600
(1485778681.074086) can0 269#00000529AA85FF00
(1485778681.075954) can0 070#05A709F369F3F000
(1485778681.076201) can0 080#90007D00007FFDF7
(1485778681.076450) can0 090#0000C1FF620C0000
(1485778681.076692) can0 0A0#0000080000007FFD
(1485778681.076948) can0 0F8#000000000000104C
(1485778681.077220) can0 120#0000000000008000
(1485778681.077449) can0 130#50002000E0000000
(1485778681.077680) can0 138#007D84003800820D
(1485778681.077929) can0 1A0#1F40000080000000
(1485778681.078178) can0 1B0#4100000000403000
(1485778681.078429) can0 030#8002A180A000B207
(1485778681.078679) can0 260#8A82B40DB7E1B800
(1485778681.078929) can0 270#5E2F042100000000
(1485778681.079179) can0 280#C400008385254000
(1485778681.079304) can0 2D8#0444808000000000
(1485778681.079556) can0 010#083400000000804B
(1485778681.080304) can0 170#04000000D0000000
(1485778681.081569) can0 0B0#00004381E68013C3
(1485778681.081945) can0 140#00009C000000FA24
(1485778681.082067) can0 160#55FF00005753D5FD
(1485778681.082317) can0 180#03000DF41804F000
(1485778681.082570) can0 190#8000800080008000
(1485778681.082806) can0 1C0#77C0000080000000
(1485778681.083054) can0 1D0#A8FFFF0000000000
(1485778681.083304) can0 150#A0AE500000000000
(1485778681.083555) can0 1E0#000000000000FA53
(1485778681.083804) can0 210#00000000F5950000
(1485778681.084053) can0 213#00F400010FFFAFFF
(1485778681.084304) can0 252#0000010FFF200040
(1485778681.085929) can0 060#0000000000000000
(1485778681.086180) can0 090#0000C1FF620C0000
(1485778681.086430) can0 0C0#0020000040000000
(1485778681.088177) can0 030#8002A180A000B207
(1485778681.089429) can0 010#092400000000804B
(1485778681.090941) can0 0A0#0000080000007FFE
(1485778681.091202) can0 200#F200B7A70000C000
(1485778681.091701) can0 190#8000800080008000
(1485778681.091968) can0 0A5#007EEE7800E51800
(1485778681.092572) can0 208#7F082AE60080FF18
(1485778681.093202) can0 0C8#DF873EF2E138C600
(1485778681.095946) can0 070#05A709F369F3F000
(1485778681.096185) can0 080#90007D00007FFDF7
(1485778681.096444) can0 090#0000C1FD62070000
(1485778681.096697) can0 0F8#000000000000104C
(1485778681.096960) can0 120#0000000000008000
(1485778681.097188) can0 130#50002000E0000000
(1485778681.097428) can0 138#007D84003800820D
(1485778681.097697) can0 1A0#1F40000080000000
(1485778681.098305) can0 030#800AE180E000B287
(1485778681.098555) can0 290#0600400100027702
(1485778681.099430) can0 010#0A1400000000804B
(1485778681.100305) can0 170#04000000D0000000
(1485778681.100575) can0 229#6000000000000000
(1485778681.100818) can0 2A0#0000000030000000
(1485778681.101065) can0 060#0000000000000000
(1485778681.101306) can0 2A5#00000000100FF0FF
(1485778681.101680) can0 0B0#00004381E68013C3
(1485778681.101929) can0 140#00009C000001EA24
(1485778681.102053) can0 160#55FF00005743DDFD
(1485778681.102304) can0 180#03000DF51805F000
(1485778681.102554) can0 190#8000800080008000
(1485778681.102932) can0 1C0#77C0000080000000
(1485778681.103062) can0 1D0#A8FFFF0000000000
(1485778681.103320) can0 150#A0AE500000000000
(1485778681.103569) can0 1E0#000000000000FB43
(1485778681.103819) can0 210#00000000F4970000
(1485778681.104069) can0 213#00F300010FFFBFFF
(1485778681.104316) can0 218#00008F003C7DC0D8
(1485778681.104556) can0 252#0000010FFF200040
(1485778681.104804) can0 260#8A82B40DB761B800
(1485778681.105055) can0 269#00000529AA85FF00
(1485778681.105320) can0 2D0#000001F975905A85
(1485778681.105568) can0 2D4#00000000E5FEFFFE
(1485778681.105945) can0 090#0000C1FD62070000
(1485778681.106198) can0 0A0#0000080000008002
(1485778681.106446) can0 0C0#0020000040000000
(1485778681.106696) can0 1B0#4100000000403000
(1485778681.106945) can0 270#5E2F042100000000
(1485778681.107181) can0 280#C400008385254000
(1485778681.108179) can0 030#8002A180A000B207
(1485778681.109320) can0 010#0B0400000000804B
(1485778681.111682) can0 190#8000800080008000
(1485778681.111930) can0 0A5#007EED7800D52800
(1485778681.112209) can0 1B5#000001D66AD0FFFC
(1485778681.112445) can0 298#0000001BD82B0800
(1485778681.113089) can0 0C8#DF873AF6E138C600
(1485778681.115952) can0 060#0000000000000000
(1485778681.116202) can0 070#05A709F469F4F000
(1485778681.116448) can0 080#90007D00007FFFF7
(1485778681.116700) can0 090#0000C1FD62070000
(1485778681.116943) can0 0F8#000000000000104C
(1485778681.117182) can0 120#0000000000008000
(1485778681.117447) can0 130#50002000E0000000
(1485778681.117682) can0 138#007D84003800820D
(1485778681.117929) can0 1A0#1F40000080000000
(1485778681.118193) can0 200#F200B7A70000C000
(1485778681.118465) can0 030#8003A180A000B207
(1485778681.118680) can0 208#7F092AE60080FF18
(1485778681.119430) can0 010#0CF400000000804B
(1485778681.120181) can0 170#04000000D0000000
(1485778681.120929) can0 0A0#0000080000008002
(1485778681.121554) can0 0B0#00004381E68013C3
(1485778681.121929) can0 140#00009C000002DA24
(1485778681.122068) can0 160#55FF00005733E5FD
(1485778681.122322) can0 180#03000DF51804F000
(1485778681.122564) can0 190#8000800080008000
(1485778681.122803) can0 1C0#77C0000080000000
(1485778681.123076) can0 1D0#A8FFFF0000000000
(1485778681.123343) can0 150#A0AE500000000000
(1485778681.123567) can0 1E0#000000000000FC33
(1485778681.123820) can0 210#00000000F3990000
(1485778681.124057) can0 213#00F300000FFFCFFF
(1485778681.124320) can0 252#0000000FFF200040
(1485778681.125932) can0 090#0000C1FD62070000
(1485778681.126180) can0 0C0#0020000040000000
(1485778681.128079) can0 030#8002A180A000B207
(1485778681.128323) can0 17E#C010004000200000
(1485778681.128574) can0 260#8A82B40DB7E1B800
(1485778681.128949) can0 290#8600400100027702
(1485778681.129076) can0 380#10927CA96000C0A9
(1485778681.129337) can0 3B4#401111FF00000000
(1485778681.129604) can0 010#0DE400000000804B
(1485778681.129825) can0 435#B224B9D276EFB3C4
(1485778681.130957) can0 060#0000000000000000
(1485778681.131699) can0 190#8000800080008000
(1485778681.131968) can0 218#00008F003C7DC0D8
(1485778681.132952) can0 0A5#007EEC7800C53800
(1485778681.133220) can0 0C8#DF873EF2E138C600
(1485778681.133466) can0 310#D94430602D450074
(1485778681.133564) can0 360#C0C03F003C7DB8B7
(1485778681.134197) can0 269#000005295585FF00
(1485778681.136073) can0 070#05A709F469F4F000
(1485778681.136343) can0 080#90007D00008001F7
(1485778681.136573) can0 090#0000C1FE62070000
(1485778681.136824) can0 0A0#0000080000008002
(1485778681.136945) can0 0F8#000000000000104C
(1485778681.137324) can0 120#0000000000008000
(1485778681.137591) can0 130#50002000E0000000
(1485778681.137700) can0 138#007D84003800820D
(1485778681.137949) can0 1A0#1F40000080000000
(1485778681.138207) can0 1B0#4100000000403000
(1485778681.138450) can0 030#8002A180A000B207
(1485778681.138682) can0 270#5E2F042100000000
(1485778681.138929) can0 280#C400008285254000
(1485778681.139181) can0 2D8#0444808000000000
(1485778681.139429) can0 010#0ED400000000804B
(1485778681.139680) can0 2F0#30B00082005B9637
(1485778681.139929) can0 340#000000000300662F
(1485778681.140180) can0 170#04000000D0000000
(1485778681.140554) can0 229#6000000000000000
(1485778681.140805) can0 2A0#0000000030000000
(1485778681.141054) can0 200#F200B7A70000C000
(1485778681.141305) can0 2A5#00000000100FF0FF
(1485778681.141554) can0 0B0#00004381E68013C3
(1485778681.141930) can0 140#00009C000003CA24
(1485778681.142055) can0 160#55FF00005723EDFD
(1485778681.142303) can0 180#03000DF41805F000
(1485778681.142555) can0 190#8000800080008000
(1485778681.142804) can0 1C0#77C0000080000000
(1485778681.143055) can0 1D0#A8FFFF0000000000
(1485778681.143305) can0 1E0#000000000000FD23
(1485778681.143553) can0 150#A0AE500000000000
(1485778681.143805) can0 208#7F0B2AE60080FF18
(1485778681.144054) can0 210#00000000F29B0000
(1485778681.144305) can0 213#00F200000FFFDFFF
(1485778681.144554) can0 252#0000000FFF200040
(1485778681.144805) can0 2D0#000001F876905A85
(1485778681.145930) can0 060#0000000000000000
(1485778681.146182) can0 090#0000C1FE62070000
(1485778681.146429) can0 0C0#0020000040000000
(1485778681.146680) can0 455#0000000000000000
(1485778681.148430) can0 030#8002A180A000B207
(1485778681.148679) can0 405#1246453331333730
(1485778681.149430) can0 010#0FC400000000804B
(1485778681.150950) can0 0A0#0000080000008002
(1485778681.151698) can0 190#8000800080008000
(1485778681.152983) can0 0A5#007EEB7800B54800
(1485778681.153054) can0 0C8#DF873AF2E138C600
(1485778681.153360) can0 1B5#000001D66AD0FFFC
(1485778681.153599) can0 260#8A82B40DB761B800
(1485778681.153826) can0 298#0000001BD82B0800
(1485778681.155949) can0 070#05A709F469F4F000
(1485778681.156265) can0 080#90007D00008002F7
(1485778681.156475) can0 090#0000C1FE62070000
(1485778681.156702) can0 0F8#000000000000104C
(1485778681.156950) can0 120#0000000000008000
(1485778681.157219) can0 130#50002000E0000000
(1485778681.157431) can0 138#007D84003800820D
(1485778681.157699) can0 1A0#1F40000080000000
(1485778681.158335) can0 030#8002A180A000B207
(1485778681.158573) can0 290#0600400100027702
(1485778681.159445) can0 010#00B400000000804B
(1485778681.160199) can0 170#04000000D0000000
(1485778681.160954) can0 060#0000000000000000
(1485778681.161587) can0 0B0#00004381E68013C3
(1485778681.161824) can0 140#00009C000004BA24
(1485778681.162075) can0 160#55FF00005713F5FF
(1485778681.162327) can0 180#03000DF41805F000
(1485778681.162595) can0 190#8000800080008000
(1485778681.162855) can0 1C0#77C0000080000000
(1485778681.163076) can0 1D0#A8FFFF0000000000
(1485778681.163307) can0 150#A0AE500000000000
(1485778681.163555) can0 1E0#000000000000FE13
(1485778681.163804) can0 210#00000000F19D0000
(1485778681.164060) can0 213#00F100000FFFEFFF
(1485778681.164304) can0 218#00008F003C7DC0D8
(1485778681.164555) can0 252#0000000FFF200040
(1485778681.164804) can0 269#000005295585FF00
(1485778681.165057) can0 2D4#00000000E5FEFFFE
(1485778681.165930) can0 090#0000C1FE62070000
(1485778681.166182) can0 0A0#0000080000008002
(1485778681.166430) can0 0C0#0020000040000000
(1485778681.166679) can0 1B0#4100000000403000
(1485778681.166930) can0 200#F200B7A70000C000
(1485778681.167189) can0 270#5E2F042100000000
(1485778681.167430) can0 280#C400008285274000
(1485778681.168180) can0 208#7F0A3AF66F80FF98
(1485778681.168429) can0 030#8002A180A000B207
(1485778681.169429) can0 010#01A400000000804B
(1485778681.171680) can0 190#8000800080008000
(1485778681.172952) can0 0A5#007EEA7800A55800
(1485778681.173072) can0 0C8#DF873EF2E138C600
(1485778681.176067) can0 060#0000000000000000
(1485778681.176340) can0 070#05A709F469F4F000
(1485778681.176428) can0 080#90007D00008001F7
(1485778681.176738) can0 090#0000C1FF62070000
(1485778681.176939) can0 0F8#000000000000104C
(1485778681.177213) can0 120#0000000000008000
(1485778681.177455) can0 130#50002000E0000000
(1485778681.177703) can0 138#007D84003800820D
(1485778681.177950) can0 1A0#1F40000080000000
(1485778681.178326) can0 030#8003A180A000B207
(1485778681.178595) can0 260#8A82B40DB7E1B800
(1485778681.179450) can0 010#029400000000804B
(1485778681.180078) can0 170#04000000D0000000
(1485778681.180439) can0 229#6000000000000000
(1485778681.180720) can0 2A0#0000000030000000
(1485778681.180966) can0 2A5#00000000100FF0FF
(1485778681.181219) can0 0A0#0000080000008002
(1485778681.181572) can0 0B0#00004381E68013C3
(1485778681.181950) can0 140#00009C000005AA24
(1485778681.182075) can0 160#55FF00005703FDFD
(1485778681.182306) can0 180#03000DF51805F000
(1485778681.182555) can0 190#8000800080008000
(1485778681.182805) can0 1C0#77C0000080000000
(1485778681.183055) can0 1D0#A8FFFF0000000000
(1485778681.183305) can0 150#A0AE500000000000
(1485778681.183555) can0 1E0#000000000000FF03
(1485778681.183805) can0 210#00000000F09F0000
(1485778681.184056) can0 213#00EF00010FFFFFFF
(1485778681.184305) can0 252#0000010FFF200040
(1485778681.184554) can0 2D0#000001F777905A85
(1485778681.185930) can0 090#0000C1FF62070000
(1485778681.186179) can0 0C0#0020000040000000
(1485778681.188430) can0 030#800AE180E000B287
(1485778681.188555) can0 290#0600C00100027702
(1485778681.189339) can0 010#038400000000804B
(1485778681.190951) can0 060#0000000000000000
(1485778681.191219) can0 200#F200B7A70000C000
(1485778681.191702) can0 190#8000800080008000
(1485778681.191947) can0 218#00008F003C7DC0D8
(1485778681.192950) can0 0A5#007EE97800956800
(1485778681.193071) can0 1B5#000001D66AD0FFFC
(1485778681.193329) can0 0C8#DF873AF6E138C600
(1485778681.193596) can0 208#7F062AE60080FF18
(1485778681.193844) can0 298#0000001BD82B0800
(1485778681.194075) can0 40A#C105089C09000A8D
(1485778681.194319) can0 269#000005295585FF00
(1485778681.195951) can0 070#05A709F369F3F000
(1485778681.196196) can0 080#90007D00007FFFF7
(1485778681.196464) can0 090#0000C1FF62070000
(1485778681.196681) can0 0A0#0000080000008002
(1485778681.196932) can0 0F8#000000000000104C
(1485778681.197180) can0 120#0000000000008000
(1485778681.197483) can0 130#50002000E0000000
(1485778681.197695) can0 138#007D84003800820D
(1485778681.197972) can0 1A0#1F40000080000000
(1485778681.198182) can0 1B0#4100000000403000
(1485778681.198430) can0 030#8002A180A000B207
(1485778681.198680) can0 270#5E2F042100000000
(1485778681.198930) can0 280#C400008285274000
(1485778681.199180) can0 2D8#0444808000000000
(1485778681.199430) can0 010#047400000000804B
(1485778681.200305) can0 170#04000000D0000000
(1485778681.201575) can0 0B0#00004381E68013C3
(1485778681.201807) can0 140#00009C0000069A24
(1485778681.202055) can0 160#55FF000057F385FD
(1485778681.202317) can0 180#03000DF51804F000
(1485778681.202556) can0 190#8000800080008000
(1485778681.202805) can0 1C0#77C0000080000000
(1485778681.203055) can0 1D0#A8FFFF0000000000
(1485778681.203305) can0 1E0#000000000000F0F3
(1485778681.203555) can0 150#A0AD700000000000
(1485778681.203805) can0 210#00000000FF810000
(1485778681.204057) can0 213#00FF00000FFF0FFF
(1485778681.204306) can0 252#0000000FFF200040
(1485778681.204430) can0 260#8A82B40DB761B800
(1485778681.205944) can0 060#0000000000000000
(1485778681.206202) can0 090#0000C1FF62070000
(1485778681.206450) can0 0C0#0020000040000000
(1485778681.208087) can0 030#8002A180A000B207
(1485778681.209450) can0 010#056400000000804B
(1485778681.210943) can0 0A0#0000080000008002
(1485778681.211734) can0 190#8000800080008000
(1485778681.212986) can0 0A5#007EE87800857800
(1485778681.213054) can0 0C8#DF873EF2E138C600
(1485778681.216001) can0 070#05A709F469F4F000
(1485778681.216246) can0 080#90007D00008000F7
(1485778681.216503) can0 090#0000C20062080000
(1485778681.216727) can0 0F8#000000000000104C
(1485778681.216990) can0 120#0000000000008000
(1485778681.217252) can0 130#50002000E0000000
(1485778681.217483) can0 138#007D84003800820D
(1485778681.217683) can0 1A0#1F40000080000000
(1485778681.217930) can0 200#F200B7A80000C000
(1485778681.218181) can0 208#7F082AE60080FF18
(1485778681.218430) can0 030#8002A180A000B207
(1485778681.218563) can0 290#8600400100027702
(1485778681.218950) can0 400#1D00000200010001
(1485778681.219448) can0 010#065400000000804B
(1485778681.220083) can0 170#04000000D0000000
(1485778681.220315) can0 229#6000000000000000
(1485778681.220570) can0 2A0#0000000030000000
(1485778681.220931) can0 2A5#00000000100FF0FF
(1485778681.221070) can0 060#0000000000000000
(1485778681.221556) can0 0B0#00004381E68013C3
(1485778681.221951) can0 140#00009C0000078A24
(1485778681.222079) can0 160#55FF000057E38DFD
(1485778681.222308) can0 180#03000DF71804F000
(1485778681.222555) can0 190#8000800080008000
(1485778681.222933) can0 1C0#77C0000080000000
(1485778681.223062) can0 1D0#A8FFFF0000000000
(1485778681.223306) can0 150#A0AD500000000000
(1485778681.223555) can0 1E0#000000000000F1E3
(1485778681.223807) can0 210#00000000FE830000
(1485778681.224056) can0 213#00FD00010FFF1FFF
(1485778681.224305) can0 218#00008F003C7DC0D8
(1485778681.224556) can0 252#0000010FFF200040
(1485778681.224805) can0 269#00000529AA85FF00
(1485778681.225056) can0 2D0#000001F678905A85
(1485778681.225306) can0 2D4#00000000E5FEFFFE
(1485778681.226433) can0 090#0000C20062080000
(1485778681.226680) can0 0A0#0000080000008001
(1485778681.226931) can0 0C0#0020000040000000
(1485778681.227180) can0 1B0#4100000000403000
(1485778681.227431) can0 270#5E2F042100000000
(1485778681.227680) can0 280#C400008285274000
(1485778681.227931) can0 2F0#30B00082005B9637
(1485778681.228180) can0 030#8002A180A000B207
(1485778681.228430) can0 17E#C010004000278000
(1485778681.228681) can0 260#8A82B40DB661B800
(1485778681.229430) can0 010#074400000000804B
(1485778681.231682) can0 190#8000800080008000
(1485778681.232932) can0 0A5#007EE77800758800
(1485778681.233107) can0 1B5#000001D66AD0FFFC
(1485778681.233321) can0 0C8#DF873AF6E138C600
(1485778681.233597) can0 298#0000001BD82B0800
(1485778681.233826) can0 310#DB4430602D450074
(1485778681.235956) can0 060#0000000000000000
(1485778681.236194) can0 070#05A709F469F4F000
(1485778681.236476) can0 080#90007D00008001F7
(1485778681.236697) can0 090#0000C20062080000
(1485778681.236933) can0 0F8#000000000000104C
(1485778681.237180) can0 120#0000000000008000
(1485778681.237447) can0 130#50002000E0000000
(1485778681.237719) can0 138#007D84003800820D
(1485778681.237974) can0 1A0#1F40000080000000
(1485778681.238307) can0 030#8003A180A000B207
(1485778681.239341) can0 010#083400000000804B
(1485778681.240327) can0 170#04000000D0000000
(1485778681.240950) can0 0A0#0000080000008001
(1485778681.241201) can0 200#F200B7A80000C000
(1485778681.241575) can0 0B0#00004381E68013C3
(1485778681.241847) can0 140#00009C0000087A24
(1485778681.242099) can0 160#55FF000057D395FD
(1485778681.242345) can0 180#03000DF31804F000
(1485778681.242598) can0 190#8000800080008000
(1485778681.242816) can0 1C0#77C0000080000000
(1485778681.243058) can0 1D0#A8FFFF0000000000
(1485778681.243306) can0 150#A0AD500000000000
(1485778681.243576) can0 1E0#000000000000F2D3
(1485778681.243682) can0 208#7F062AE60080FF18
(1485778681.243945) can0 210#00000000FD850000
(1485778681.244183) can0 213#00FD00000FFF2FFF
(1485778681.244431) can0 252#0000000FFF200040
(1485778681.246056) can0 090#0000C1FF62080000
(1485778681.246346) can0 0C0#0020000040000000
(1485778681.246596) can0 455#0000000000000000
(1485778681.248324) can0 030#8002A180A000B207
(1485778681.248595) can0 290#0600400100027702
(1485778681.249341) can0 010#092400000000804B
(1485778681.250951) can0 060#0000000000000000
(1485778681.251701) can0 190#8000800080008000
(1485778681.251945) can0 218#00008F003C7DC0D8
(1485778681.252952) can0 0A5#007EE67800659800
(1485778681.253070) can0 0C8#DF873EF2E138C600
(1485778681.253324) can0 260#8A82B40DB6E1B800
(1485778681.254193) can0 269#00000529AA85FF00
(1485778681.255953) can0 070#05A709F469F4F000
(1485778681.256222) can0 080#90007D00008003F7
(1485778681.256474) can0 090#0000C1FF62080000
(1485778681.256721) can0 0A0#0000080000008001
(1485778681.256954) can0 0F8#000000000000104C
(1485778681.257201) can0 120#0000000000008000
(1485778681.257433) can0 130#50002000E0000000
(1485778681.257701) can0 138#007D84003800820D
(1485778681.257932) can0 1A0#1F40000080000000
(1485778681.258181) can0 1B0#4100000000403000
(1485778681.258469) can0 030#800AE180E000B287
(1485778681.258699) can0 270#5E2F042100000000
(1485778681.258935) can0 280#C400008285274000
(1485778681.259066) can0 2D8#0444808000000000
(1485778681.259306) can0 340#000000000300662F
(1485778681.259557) can0 010#0A1400000000804B
(1485778681.260057) can0 170#04000000D0000000
(1485778681.260307) can0 229#6000000000000000
(1485778681.260556) can0 2A0#0000000030000000
(1485778681.260932) can0 2A5#00000000100FF0FF
(1485778681.261575) can0 0B0#00004381E68013C3
(1485778681.261845) can0 140#00009C0000096A24
(1485778681.262078) can0 160#55FF000057C39DFD
(1485778681.262308) can0 180#03000DF31804F000
(1485778681.262555) can0 190#8000800080008000
(1485778681.262806) can0 1C0#77C0000080000000
(1485778681.263055) can0 1D0#A8FFFF0000000000
(1485778681.263306) can0 150#A0AD500000000000
(1485778681.263555) can0 1E0#000000000000F3C3
(1485778681.263807) can0 210#00000000FC870000
(1485778681.264056) can0 213#00FC00000FFF3FFF
(1485778681.264305) can0 252#0000000FFF200040
(1485778681.264431) can0 2D0#000001F579905A85
(1485778681.265930) can0 060#0000000000000000
(1485778681.266197) can0 090#0000C1FF62080000
(1485778681.266452) can0 0C0#0020000040000000
(1485778681.266700) can0 200#F200B7A80000C000
(1485778681.268215) can0 208#7F063AF66F80FF98
(1485778681.268450) can0 030#8002A180A000B207
(1485778681.268702) can0 388#0000414279421600
(1485778681.269308) can0 010#0B0400000000804B
(1485778681.270943) can0 0A0#0000080000008001
(1485778681.271700) can0 190#8000800080008000
(1485778681.272945) can0 0A5#007EE5780055A800
(1485778681.273069) can0 0C8#DF873AF2E138C600
(1485778681.273325) can0 1B5#000001D66AD0FFFC
(1485778681.273573) can0 298#0000001BD82B0800
(1485778681.275951) can0 070#05A709F469F4F000
(1485778681.276222) can0 080#90007D00008003F7
(1485778681.276473) can0 090#0000C1FF62080000
(1485778681.276725) can0 0F8#000000000000104C
(1485778681.276943) can0 120#0000000000008000
(1485778681.277199) can0 130#50002000E0000000
(1485778681.277434) can0 138#007D84003800820D
(1485778681.277681) can0 1A0#1F40000080000000
(1485778681.278326) can0 030#8002A180A000B207
(1485778681.278596) can0 260#8A82B40DB761B800
(1485778681.278822) can0 290#8600400100027702
(1485778681.279449) can0 010#0CF400000000804B
(1485778681.280207) can0 170#04000000D0000000
(1485778681.280949) can0 060#0000000000000000
(1485778681.281578) can0 0B0#00004381E68013C3
(1485778681.281846) can0 140#00009C00000A5A24
(1485778681.282097) can0 160#55FF000057B3A5FD
(1485778681.282346) can0 180#03000DF71803F000
(1485778681.282596) can0 190#8000800080008000
(1485778681.282815) can0 1C0#77C0000080000000
(1485778681.283095) can0 1D0#A8FFFF0000000000
(1485778681.283307) can0 04A#02000018000000C0
(1485778681.283431) can0 04B#00D8D8D8D8D8C000
(1485778681.283681) can0 150#A0AD500000000000
(1485778681.283931) can0 1E0#000000000000F4B3
(1485778681.284181) can0 210#00000000FB890000
(1485778681.284431) can0 213#00FB00000FFF4FFF
(1485778681.284690) can0 218#00008F003C7DC0D8
(1485778681.284931) can0 252#0000000FFF200040
(1485778681.285182) can0 269#00000529AA85FF00
(1485778681.285431) can0 2D4#00000000E5FEFFFE
(1485778681.285681) can0 360#C0C03F003C7DB8B7
(1485778681.286056) can0 090#0000C20062080000
(1485778681.286308) can0 0A0#0000080000008001
(1485778681.286556) can0 0C0#0020000040000000
(1485778681.286806) can0 1B0#4100000000403000
(1485778681.287056) can0 270#5E2F042100000000
(1485778681.287306) can0 280#C400008285264000
(1485778681.288306) can0 030#8002A180A000B207
(1485778681.289431) can0 010#0DE400000000804B
(1485778681.290951) can0 200#F200B7A80000C000
(1485778681.291695) can0 190#8000800080008000
(1485778681.292954) can0 0A5#007EE4780045B800
(1485778681.293070) can0 0C8#DF873EF2E138C600
(1485778681.293322) can0 208#7F042AE60080FF18
(1485778681.295954) can0 060#0000000000000000
(1485778681.296222) can0 070#05A709F569F5F000
(1485778681.296475) can0 080#90007D00008004F7
(1485778681.296727) can0 090#0000C20062080000
(1485778681.296978) can0 0F8#000000000000104C
(1485778681.297218) can0 120#0000000000008000
(1485778681.297434) can0 130#50002000E0000000
(1485778681.297681) can0 138#007D84003800820D
(1485778681.297931) can0 1A0#1F40000080000000
(1485778681.298181) can0 030#8003A180A000B207
(1485778681.299321) can0 010#0ED400000000804B
(1485778681.300194) can0 170#04000000D0000000
(1485778681.300451) can0 229#6000000000000000
(1485778681.300699) can0 2A0#0000000030000000
(1485778681.300948) can0 0A0#0000080000008001
(1485778681.301210) can0 2A5#00000000100FF0FF
(1485778681.301566) can0 0B0#00004381E68013C3
(1485778681.301848) can0 140#00009C00000B4A24
(1485778681.302079) can0 160#55FF000057A3ADFD
(1485778681.302308) can0 180#03000DF51805F000
(1485778681.302556) can0 190#8000800080008000
(1485778681.302806) can0 1C0#77C0000080000000
(1485778681.303057) can0 1D0#A8FFFF0000000000
(1485778681.303306) can0 150#A0AD500000000000
(1485778681.303556) can0 1E0#000000000000F5A3
(1485778681.303806) can0 210#00000000FA8B0000
(1485778681.303931) can0 213#00F900010FFF5FFF
(1485778681.304182) can0 252#0000010FFF200040
(1485778681.304431) can0 260#8A82B40DB6E1B800
(1485778681.304681) can0 2D0#000001F47A905A85
(1485778681.305932) can0 090#0000C20062080000
(1485778681.306195) can0 0C0#0020000040000000
(1485778681.308201) can0 030#8002A180A000B207
(1485778681.308450) can0 290#0600400100027702
(1485778681.309340) can0 010#0FC400000000804B
(1485778681.310953) can0 060#0000000000000000
(1485778681.311702) can0 190#8000800080008000
(1485778681.311973) can0 218#00008F003C7DC0D8
(1485778681.312952) can0 0A5#007EE3780035C800
(1485778681.313080) can0 1B5#000001D66AD0FFFC
(1485778681.313346) can0 0C8#DF873AF6E138C600
(1485778681.313576) can0 298#0000001BD82B0800
(1485778681.314318) can0 269#00000529AA85FF00
(1485778681.315951) can0 070#05A709F469F4F000
(1485778681.316222) can0 080#90007D00008002F7
(1485778681.316452) can0 090#0000C20062080000
(1485778681.316720) can0 0A0#0000080000008000
(1485778681.316953) can0 0F8#000000000000104C
