(1485778778.018306) can0 030#8003A180A000B207
(1485778778.018559) can0 0C0#0020000040000000
(1485778778.018807) can0 1D0#A8FFFF0000000000
(1485778778.019056) can0 1E0#000000000000F963
(1485778778.019305) can0 210#00000000F6930000
(1485778778.019556) can0 213#00F600000FFF9FFF
(1485778778.019805) can0 010#0657000000008048
(1485778778.020056) can0 252#0000000FFF200040
(1485778778.020305) can0 2D0#000001F27C905A85
(1485778778.020556) can0 208#7F072AE60080FF18
(1485778778.023305) can0 150#A070500000000000
(1485778778.023556) can0 060#0000000000000000
(1485778778.026811) can0 0B0#00004381E68011C3
(1485778778.027054) can0 140#0000BC010001EA24
(1485778778.027304) can0 190#8000800080008000
(1485778778.027564) can0 218#00008F003C7DC0D8
(1485778778.028058) can0 070#05A709F269F2F000
(1485778778.028306) can0 030#8002A180A000B207
(1485778778.028556) can0 080#90007D00007FFBF7
(1485778778.028806) can0 090#0000C20062030000
(1485778778.029056) can0 0A0#0000080000007FFA
(1485778778.029306) can0 0F8#000000000000104F
(1485778778.029556) can0 120#0000000000008000
(1485778778.029681) can0 010#0747000000008048
(1485778778.029931) can0 130#50002000E0000000
(1485778778.030180) can0 138#007D8400780081FF
(1485778778.030434) can0 17E#C010004000200000
(1485778778.030684) can0 1A0#1F40000080000000
(1485778778.030934) can0 1B0#4100000000403000
(1485778778.031183) can0 260#8882CD0DB5E1B800
(1485778778.031433) can0 270#5E2F042100000000
(1485778778.031683) can0 280#C400008185254000
(1485778778.031933) can0 290#8600400100027702
(1485778778.032184) can0 170#04000000D0000000
(1485778778.032442) can0 2D8#0444808000000000
(1485778778.032684) can0 229#6000000000000000
(1485778778.032933) can0 380#5394FCA96000C0A9
(1485778778.033181) can0 0A5#007EE4780045B800
(1485778778.033432) can0 200#F200B7470000C000
(1485778778.033556) can0 0C8#DF873EF6E138C600
(1485778778.033932) can0 2A0#0000000030000000
(1485778778.034057) can0 310#D94430602D450074
(1485778778.034306) can0 2A5#00000000100FF0FF
(1485778778.034556) can0 360#C0C03F003C7DB8B7
(1485778778.034806) can0 3B4#401111FF00000000
(1485778778.035058) can0 435#B243B9D276EFB3C4
(1485778778.035431) can0 269#000005295585FF00
(1485778778.037059) can0 160#55FF00005753D5FF
(1485778778.037309) can0 180#03000DF61805F000
(1485778778.037557) can0 190#8000800080008000
(1485778778.037807) can0 1C0#77C0000080000000
(1485778778.038058) can0 060#0000000000000000
(1485778778.038306) can0 090#0000C20062030000
(1485778778.038557) can0 0C0#0020000040000000
(1485778778.038806) can0 030#8002A180A000B207
(1485778778.039058) can0 1D0#A8FFFF0000000000
(1485778778.039307) can0 1E0#000000000000FA53
(1485778778.039558) can0 010#0837000000008048
(1485778778.039810) can0 210#00000000F5950000
(1485778778.040056) can0 213#00F500000FFFAFFF
(1485778778.040307) can0 252#0000000FFF200040
(1485778778.043058) can0 0A0#0000080000007FFA
(1485778778.043307) can0 150#A070500000000000
(1485778778.044057) can0 455#0000000000000000
(1485778778.045808) can0 208#7F073AF66F80FF98
(1485778778.046809) can0 0B0#00004381E68011C3
(1485778778.046932) can0 140#0000BC010002DA24
(1485778778.047183) can0 190#8000800080008000
(1485778778.047934) can0 070#05A709F269F2F000
(1485778778.048183) can0 080#90007D00007FFBF7
(1485778778.048433) can0 030#8002A180A000B207
(1485778778.048682) can0 090#0000C20062030000
(1485778778.048932) can0 0F8#000000000000104F
(1485778778.049181) can0 120#0000000000008000
(1485778778.049432) can0 130#50002000E0000000
(1485778778.049682) can0 010#0927000000008048
(1485778778.049931) can0 138#007D8400780081FF
(1485778778.050181) can0 1A0#1F40000080000000
(1485778778.052181) can0 170#04000000D0000000
(1485778778.052934) can0 060#0000000000000000
(1485778778.053182) can0 0A5#007EE3780035C800
(1485778778.053431) can0 0C8#DF873AF2E138C600
(1485778778.053680) can0 1B5#000001D66AD0FFFC
(1485778778.053933) can0 260#8882CD0DB561B800
(1485778778.054181) can0 298#0000001BD82B0800
(1485778778.057065) can0 160#55FF00005743DDFF
(1485778778.057306) can0 180#03000DF51804F000
(1485778778.057556) can0 190#8000800080008000
(1485778778.057805) can0 1C0#77C0000080000000
(1485778778.058056) can0 090#0000C20062030000
(1485778778.058320) can0 0A0#0000080000007FFA
(1485778778.058559) can0 030#800AE180E000B287
(1485778778.058820) can0 0C0#0020000040000000
(1485778778.059070) can0 1B0#4100000000403000
(1485778778.059318) can0 1D0#A8FFFF0000000000
(1485778778.059559) can0 1E0#000000000000FB43
(1485778778.059807) can0 010#0A17000000008048
(1485778778.060056) can0 200#F200B7470000C000
(1485778778.060306) can0 210#00000000F4970000
(1485778778.060557) can0 213#00F400000FFFBFFF
(1485778778.060681) can0 218#00008F003C7DC0D8
(1485778778.060930) can0 252#0000000FFF200040
(1485778778.061182) can0 270#5E2F042100000000
(1485778778.061431) can0 280#C400008185254000
(1485778778.061682) can0 290#0600400100027702
(1485778778.061931) can0 2D0#000001F17D905A85
(1485778778.062182) can0 2D4#00000000E5FEFFFE
(1485778778.062429) can0 2F0#30B00081005F963A
(1485778778.063309) can0 150#A070500000000000
(1485778778.065557) can0 269#000005295585FF00
(1485778778.066809) can0 0B0#00004381E68011C3
(1485778778.067098) can0 140#0000BC010003CA24
(1485778778.067354) can0 190#8000800080008000
(1485778778.068105) can0 060#0000000000000000
(1485778778.068352) can0 070#05A709F269F2F000
(1485778778.068579) can0 030#8002A180A000B207
(1485778778.068821) can0 080#90007D00007FFAF7
(1485778778.069072) can0 090#0000C1FF62010000
(1485778778.069309) can0 0F8#000000000000104F
(1485778778.069558) can0 120#0000000000008000
(1485778778.069808) can0 010#0B07000000008048
(1485778778.070058) can0 130#50002000E0000000
(1485778778.070181) can0 138#007D8400780081FF
(1485778778.070432) can0 1A0#1F40000080000000
(1485778778.070681) can0 208#7F082AE60080FF18
(1485778778.070932) can0 40A#FF0900002C142400
(1485778778.072181) can0 170#04000000D0000000
(1485778778.072444) can0 229#6000000000000000
(1485778778.072695) can0 2A0#0000000030000000
(1485778778.072948) can0 0A5#007EE2780025D800
(1485778778.073234) can0 0A0#0000080000007FFA
(1485778778.073479) can0 0C8#DF873EF2E138C600
(1485778778.073731) can0 2A5#00000000100FF0FF
(1485778778.077059) can0 160#55FF00005733E5FF
(1485778778.077308) can0 180#03000DF41804F000
(1485778778.077556) can0 190#8000800080008000
(1485778778.077856) can0 1C0#77C0000080000000
(1485778778.078107) can0 090#0000C1FF62010000
(1485778778.078356) can0 0C0#0020000040000000
(1485778778.078607) can0 030#8003A180A000B207
(1485778778.078821) can0 1D0#A8FFFF0000000000
(1485778778.079071) can0 1E0#000000000000FC33
(1485778778.079322) can0 210#00000000F3990000
(1485778778.079562) can0 213#00F300000FFFCFFF
(1485778778.079807) can0 010#0CF7000000008048
(1485778778.080057) can0 252#0000000FFF200040
(1485778778.080182) can0 260#8882CD0DB5E1B800
(1485778778.082936) can0 060#0000000000000000
(1485778778.083207) can0 200#F200B7470000C000
(1485778778.083434) can0 150#A070500000000000
(1485778778.086823) can0 0B0#00004381E68011C3
(1485778778.087071) can0 140#0000BC010004BA24
(1485778778.087319) can0 190#8000800080008000
(1485778778.087572) can0 218#00008F003C7DC0D8
(1485778778.087946) can0 070#05A709F269F2F000
(1485778778.088189) can0 080#90007D00007FFBF7
(1485778778.088435) can0 030#8002A180A000B207
(1485778778.088695) can0 090#0000C1FF62010000
(1485778778.088944) can0 0A0#0000080000007FFC
(1485778778.089192) can0 0F8#000000000000104F
(1485778778.089430) can0 120#0000000000008000
(1485778778.089679) can0 010#0DE7000000008048
(1485778778.089931) can0 130#50002000E0000000
(1485778778.090179) can0 138#007D8400780081FF
(1485778778.090429) can0 1A0#1F40000080000000
(1485778778.090680) can0 1B0#4100000000403000
(1485778778.090931) can0 270#5E2F042100000000
(1485778778.091180) can0 280#C400008185254000
(1485778778.091429) can0 290#0600C00100027702
(1485778778.091555) can0 2D8#0444808000000000
(1485778778.091929) can0 340#000000000300662F
(1485778778.092054) can0 170#04000000D0000000
(1485778778.092930) can0 0A5#007EE1780015E800
(1485778778.093194) can0 1B5#000001D66AD0FFFC
(1485778778.093444) can0 0C8#DF873AF6E138C600
(1485778778.093681) can0 298#0000001BD82B0800
(1485778778.095429) can0 269#00000529AA85FF00
(1485778778.095944) can0 208#7F092AE60080FF18
(1485778778.097071) can0 160#55FF00005723EDFF
(1485778778.097321) can0 180#03000DF61804F000
(1485778778.097570) can0 190#8000800080008000
(1485778778.097819) can0 1C0#77C0000080000000
(1485778778.098069) can0 060#0000000000000000
(1485778778.098317) can0 090#0000C1FF62010000
(1485778778.098573) can0 030#8002A180A000B207
(1485778778.098810) can0 0C0#0020000040000000
(1485778778.099068) can0 1D0#A8FFFF0000000000
(1485778778.099305) can0 1E0#000000000000FD23
(1485778778.099558) can0 210#00000000F29B0000
(1485778778.099819) can0 010#0ED7000000008048
(1485778778.100069) can0 213#00F200000FFFDFFF
(1485778778.100320) can0 252#0000000FFF200040
(1485778778.100567) can0 2D0#000001F07E905A85
(1485778778.103095) can0 0A0#0000080000007FFC
(1485778778.103319) can0 150#A070500000000000
(1485778778.103569) can0 260#8882CD0DB561B800
(1485778778.106806) can0 0B0#00004381E68011C3
(1485778778.107054) can0 140#0000BC010005AA24
(1485778778.107318) can0 190#8000800080008000
(1485778778.107942) can0 070#05A709F269F2F000
(1485778778.108180) can0 030#8002A180A000B207
(1485778778.108439) can0 080#90007D00007FFBF7
(1485778778.108701) can0 090#0000C1FF62000000
(1485778778.108945) can0 0F8#000000000000104F
(1485778778.109182) can0 120#0000000000008000
(1485778778.109434) can0 130#50002000E0000000
(1485778778.109695) can0 010#0FC7000000008048
(1485778778.109938) can0 138#007D8400780081FE
(1485778778.110190) can0 1A0#1F40000080000000
(1485778778.110439) can0 200#F200B7480000C000
(1485778778.112057) can0 170#04000000D0000000
(1485778778.112322) can0 229#6000000000000000
(1485778778.112573) can0 2A0#0000000030000000
(1485778778.112811) can0 2A5#00000000100FF0FF
(1485778778.113078) can0 060#0000000000000000
(1485778778.113320) can0 0A5#007EE0780005F800
(1485778778.113559) can0 0C8#DF873EF2E138C600
(1485778778.117075) can0 160#55FF00005713F5FF
(1485778778.117323) can0 180#03000DF41805F000
(1485778778.117573) can0 190#8000800080008000
(1485778778.117822) can0 1C0#77C0000080000000
(1485778778.118116) can0 090#0000C1FF62000000
(1485778778.118412) can0 030#8002A180A000B207
(1485778778.118596) can0 0A0#0000080000007FFB
(1485778778.118809) can0 0C0#0020000040000000
(1485778778.119057) can0 1B0#4100000000403000
(1485778778.119308) can0 1D0#A8FFFF0000000000
(1485778778.119578) can0 1E0#000000000000FE13
(1485778778.119821) can0 010#00B7000000008048
(1485778778.120060) can0 210#00000000F19D0000
(1485778778.120304) can0 213#00F100000FFFEFFF
(1485778778.120557) can0 218#00008F003C7DC0D8
(1485778778.120683) can0 252#0000000FFF200040
(1485778778.120931) can0 208#7F072AE60080FF18
(1485778778.121182) can0 270#5E2F042100000000
(1485778778.121432) can0 280#C400008185254000
(1485778778.121682) can0 290#8600400100027702
(1485778778.121932) can0 2D4#00000000E5FEFFFE
(1485778778.123432) can0 150#A070500000000000
(1485778778.125564) can0 269#00000529AA85FF00
(1485778778.126824) can0 0B0#00004381E68011C3
(1485778778.126974) can0 140#0000BC0100069A24
(1485778778.127196) can0 190#8000800080008000
(1485778778.127945) can0 060#0000000000000000
(1485778778.128197) can0 030#8002A180A000B207
(1485778778.128447) can0 070#05A709F269F2F000
(1485778778.128698) can0 080#90007D00007FFBF7
(1485778778.128945) can0 090#0000C1FF62000000
(1485778778.129204) can0 0F8#000000000000104F
(1485778778.129448) can0 120#0000000000008000
(1485778778.129685) can0 010#01A7000000008048
(1485778778.129932) can0 130#50002000E0000000
(1485778778.130182) can0 138#007D8400780081FE
(1485778778.130432) can0 17E#C010004000228000
(1485778778.130682) can0 1A0#1F40000080000000
(1485778778.130931) can0 260#8882CD0DB561B800
(1485778778.132182) can0 170#04000000D0000000
(1485778778.132935) can0 0A0#0000080000007FFC
(1485778778.133184) can0 0A5#007EEF7800F50800
(1485778778.133432) can0 0C8#DF873AF2E138C600
(1485778778.133683) can0 1B5#000001D66AD0FFFC
(1485778778.133947) can0 200#F200B7480000C000
(1485778778.134202) can0 298#0000001BD82B0800
(1485778778.134312) can0 310#D94430602D450074
(1485778778.137077) can0 160#55FF00005703FDFF
(1485778778.137317) can0 180#03000DF41805F000
(1485778778.137565) can0 190#8000800080008000
(1485778778.137816) can0 1C0#77C0000080000000
(1485778778.138066) can0 090#0000C1FF62000000
(1485778778.138307) can0 0C0#0020000040000000
(1485778778.138557) can0 1D0#A8FFFF0000000000
(1485778778.138807) can0 030#800BE180E000B287
(1485778778.139073) can0 1E0#000000000000FF03
(1485778778.139321) can0 210#00000000F09F0000
(1485778778.139563) can0 213#00F000000FFFFFFF
(1485778778.139808) can0 010#0297000000008048
(1485778778.140073) can0 252#0000000FFF200040
(1485778778.140348) can0 2D0#000001EF7F905A85
(1485778778.143072) can0 060#0000000000000000
(1485778778.143345) can0 150#A070500000000000
(1485778778.144203) can0 455#0000000000000000
(1485778778.146077) can0 208#7F093AF66F80FF98
(1485778778.146827) can0 0B0#00004381E68011C3
(1485778778.147070) can0 140#0000BC0100078A24
(1485778778.147321) can0 190#8000800080008000
(1485778778.147446) can0 218#00008F003C7DC0D8
(1485778778.147964) can0 070#05A709F369F3F000
(1485778778.148199) can0 080#90007D00007FFCF7
(1485778778.148448) can0 030#8002A180A000B207
(1485778778.148697) can0 090#0000C1FE61FF0000
(1485778778.148945) can0 0A0#0000080000007FFD
(1485778778.149194) can0 0F8#000000000000104F
(1485778778.149448) can0 120#0000000000008000
(1485778778.149701) can0 010#0387000000008048
(1485778778.149935) can0 130#50002000E0000000
(1485778778.150183) can0 138#007D8400780081FE
(1485778778.150435) can0 1A0#1F40000080000000
(1485778778.150682) can0 1B0#4100000000403000
(1485778778.150932) can0 270#5E2F042100000000
(1485778778.151183) can0 280#C400008185254000
(1485778778.151432) can0 290#0600400100027702
(1485778778.151559) can0 2D8#0444808000000000
(1485778778.151932) can0 2F0#30B00081005F963A
(1485778778.152057) can0 170#04000000D0000000
(1485778778.152308) can0 405#1135585847434335
(1485778778.152557) can0 229#6000000000000000
(1485778778.152934) can0 2A0#0000000030000000
(1485778778.153057) can0 0A5#007EEE7800E51800
(1485778778.153307) can0 0C8#DF873EF6E138C600
(1485778778.153557) can0 260#8882CD0DB5E1B800
(1485778778.153807) can0 2A5#00000000100FF0FF
(1485778778.155432) can0 269#00000529AA85FF00
(1485778778.157070) can0 160#55FF000057F385FF
(1485778778.157325) can0 180#03000DF71803F000
(1485778778.157567) can0 190#8000800080008000
(1485778778.157823) can0 1C0#77C0000080000000
(1485778778.158071) can0 060#0000000000000000
(1485778778.158328) can0 090#0000C1FE61FF0000
(1485778778.158560) can0 030#8002A180A000B207
(1485778778.158807) can0 0C0#0020000040000000
(1485778778.159069) can0 1D0#A8FFFF0000000000
(1485778778.159310) can0 1E0#000000000000F0F3
(1485778778.159574) can0 200#F200B7480000C000
(1485778778.159810) can0 010#0477000000008048
(1485778778.160057) can0 210#00000000FF810000
(1485778778.160308) can0 213#00FF00000FFF0FFF
(1485778778.160557) can0 252#0000000FFF200040
(1485778778.162935) can0 0A0#0000080000007FFD
(1485778778.163308) can0 150#A070500000000000
(1485778778.166707) can0 0B0#00004381E68011C3
(1485778778.166952) can0 140#0000BC0100087A24
(1485778778.167196) can0 190#8000800080008000
(1485778778.167961) can0 070#05A709F369F3F000
(1485778778.168200) can0 080#90007D00007FFCF7
(1485778778.168453) can0 030#8002A180A000B207
(1485778778.168685) can0 090#0000C1FE61FF0000
(1485778778.168965) can0 0F8#000000000000104F
(1485778778.169198) can0 120#0000000000008000
(1485778778.169434) can0 130#50002000E0000000
(1485778778.169702) can0 010#0567000000008048
(1485778778.169934) can0 138#007D8400780081FE
(1485778778.170183) can0 1A0#1F40000080000000
(1485778778.170934) can0 208#7F072AE60080FF18
(1485778778.172058) can0 170#04000000D0000000
(1485778778.172962) can0 060#0000000000000000
(1485778778.173204) can0 0A5#007EED7800D52800
(1485778778.173447) can0 0C8#DF873AF2E138C600
(1485778778.173703) can0 1B5#000001D66AD0FFFC
(1485778778.173951) can0 298#0000001BD82B0800
(1485778778.177062) can0 160#55FF000057E38DFF
(1485778778.177309) can0 180#03000DF51804F000
(1485778778.177557) can0 190#8000800080008000
(1485778778.177829) can0 1C0#77C0000080000000
(1485778778.178060) can0 090#0000C1FE61FF0000
(1485778778.178309) can0 0A0#0000080000007FFD
(1485778778.178557) can0 030#8002A180A000B207
(1485778778.178808) can0 0C0#0020000040000000
(1485778778.179068) can0 1B0#4100000000403000
(1485778778.179307) can0 1D0#A8FFFF0000000000
(1485778778.179560) can0 1E0#000000000000F1E3
(1485778778.179807) can0 010#0657000000008048
(1485778778.180084) can0 210#00000000FE830000
(1485778778.180329) can0 213#00FE00000FFF1FFF
(1485778778.180455) can0 218#00008F003C7DC0D8
(1485778778.180698) can0 252#0000000FFF200040
(1485778778.180946) can0 260#8882CD0DB561B800
(1485778778.181200) can0 270#5E2F042100000000
(1485778778.181447) can0 280#C400008085254000
(1485778778.181699) can0 290#8600400100027702
(1485778778.181947) can0 2D0#000001FE70905A85
(1485778778.182184) can0 2D4#00000000E5FEFFFE
(1485778778.182933) can0 200#F200B7480000C000
(1485778778.183558) can0 150#A070500000000000
(1485778778.183807) can0 360#C0C03F003C7DB8B7
(1485778778.185557) can0 269#000005295585FF00
(1485778778.186809) can0 0B0#00004381E68011C3
(1485778778.187081) can0 140#0000BC0100096A24
(1485778778.187205) can0 190#8000800080008000
(1485778778.187948) can0 060#0000000000000000
(1485778778.188204) can0 030#8002A180A000B207
(1485778778.188453) can0 070#05A709F369F3F000
(1485778778.188705) can0 080#90007D00007FFDF7
(1485778778.188958) can0 090#0000C1FF61FE0000
(1485778778.189201) can0 0F8#000000000000104F
(1485778778.189456) can0 120#0000000000008000
(1485778778.189685) can0 010#0747000000008048
(1485778778.189933) can0 130#50002000E0000000
(1485778778.190182) can0 138#007D8400780081FD
(1485778778.190433) can0 1A0#1F40000080000000
(1485778778.192078) can0 170#04000000D0000000
(1485778778.192310) can0 229#6000000000000000
(1485778778.192557) can0 2A0#0000000030000000
(1485778778.192932) can0 2A5#00000000100FF0FF
(1485778778.193057) can0 0A0#0000080000007FFD
(1485778778.193328) can0 0A5#007EEC7800C53800
(1485778778.193578) can0 0C8#DF873EF2E138C600
(1485778778.193810) can0 40A#FF0A011200321088
(1485778778.196205) can0 208#7F052AE60080FF18
(1485778778.197075) can0 160#55FF000057D395FF
(1485778778.197330) can0 180#03000DF51804F000
(1485778778.197579) can0 190#8000800080008000
(1485778778.197829) can0 1C0#77C0000080000000
(1485778778.198058) can0 090#0000C1FF61FE0000
(1485778778.198322) can0 0C0#0020000040000000
(1485778778.198561) can0 030#8003A180A000B207
(1485778778.198807) can0 1D0#A8FFFF0000000000
(1485778778.199058) can0 1E0#000000000000F2D3
(1485778778.199308) can0 210#00000000FD850000
(1485778778.199560) can0 213#00FD00000FFF2FFF
(1485778778.199808) can0 010#0837000000008048
(1485778778.200057) can0 252#0000000FFF200040
(1485778778.202950) can0 060#0000000000000000
(1485778778.203329) can0 150#A070500000000000
(1485778778.203595) can0 260#8882CD0DB5E1B800
(1485778778.206708) can0 0B0#00004381E68011C3
(1485778778.206953) can0 140#0000BC01000A5A24
(1485778778.207220) can0 190#8000800080008000
(1485778778.207454) can0 218#00008F003C7DC0D8
(1485778778.207971) can0 070#05A709F369F3F000
(1485778778.208202) can0 080#90007D00007FFDF7
(1485778778.208453) can0 030#8002A180A000B207
(1485778778.208685) can0 090#0000C1FF61FE0000
(1485778778.208932) can0 0A0#0000080000007FFD
(1485778778.209182) can0 0F8#000000000000104F
(1485778778.209433) can0 120#0000000000008000
(1485778778.209683) can0 010#0927000000008048
(1485778778.209934) can0 130#50002000E0000000
(1485778778.210183) can0 138#007D8400780081FD
(1485778778.210432) can0 1A0#1F40000080000000
(1485778778.210683) can0 1B0#4100000000403000
(1485778778.210932) can0 200#F200B7490000C000
(1485778778.211183) can0 270#5E2F042100000000
(1485778778.211433) can0 280#C400008085254000
(1485778778.211557) can0 290#0600400100027702
(1485778778.211948) can0 2D8#0444808000000000
(1485778778.212074) can0 340#000000000300662F
(1485778778.212324) can0 170#04000000D0000000
(1485778778.213325) can0 0C8#DF873AF6E138C600
(1485778778.213953) can0 0A5#007EEB7800B54800
(1485778778.214224) can0 1B5#000001D66AD0FFFC
(1485778778.214454) can0 298#0000001BD82B0800
(1485778778.215579) can0 269#000005295585FF00
(1485778778.217061) can0 160#55FF000057C39DFF
(1485778778.217347) can0 180#03000DF51803F000
(1485778778.217598) can0 190#8000800080008000
(1485778778.217850) can0 1C0#77C0000080000000
(1485778778.218060) can0 060#0000000000000000
(1485778778.218308) can0 090#0000C1FF61FE0000
(1485778778.218574) can0 030#8002A180A000B207
(1485778778.218811) can0 0C0#0020000040000000
(1485778778.219058) can0 1D0#A8FFFF0000000000
(1485778778.219324) can0 1E0#000000000000F3C3
(1485778778.219573) can0 210#00000000FC870000
(1485778778.219849) can0 010#0A17000000008048
(1485778778.220061) can0 213#00FC00000FFF3FFF
(1485778778.220308) can0 252#0000000FFF200040
(1485778778.220558) can0 2D0#000001FD71905A85
(1485778778.220682) can0 400#1500000202020001
(1485778778.221183) can0 208#7F052AE60080FF18
(1485778778.222934) can0 0A0#0000080000007FFD
(1485778778.223453) can0 150#A070500000000000
(1485778778.226720) can0 0B0#00004381E68011C3
(1485778778.226963) can0 140#0000BC01000B4A24
(1485778778.227202) can0 190#8000800080008000
(1485778778.228072) can0 070#05A709F369F3F000
(1485778778.228341) can0 080#90007D00007FFEF7
(1485778778.228441) can0 030#800AE180E000B287
(1485778778.228708) can0 090#0000C1FE61FD0000
(1485778778.228946) can0 0F8#000000000000104F
(1485778778.229198) can0 120#0000000000008000
(1485778778.229448) can0 130#50002000E0000000
(1485778778.229703) can0 010#0B07000000008048
(1485778778.229950) can0 138#007D8400780081FD
(1485778778.230197) can0 17E#C010004000200000
(1485778778.230436) can0 1A0#1F40000080000000
(1485778778.230683) can0 260#8882CD0DB561B800
(1485778778.232183) can0 170#04000000D0000000
(1485778778.232455) can0 229#6000000000000000
(1485778778.232698) can0 2A0#0000000030000000
(1485778778.232946) can0 2A5#00000000100FF0FF
(1485778778.233199) can0 060#0000000000000000
(1485778778.233448) can0 0C8#DF873EF2E138C600
(1485778778.233686) can0 200#F200B7490000C000
(1485778778.233933) can0 310#D94430602D450074
(1485778778.234183) can0 0A5#007EEA7800A55800
(1485778778.237060) can0 160#55FF000057B3A5FF
(1485778778.237328) can0 180#03000DF41804F000
(1485778778.237573) can0 190#8000800080008000
(1485778778.237822) can0 1C0#77C0000080000000
(1485778778.238100) can0 1D0#A8FFFF0000000000
(1485778778.238328) can0 1E0#000000000000F4B3
(1485778778.238574) can0 030#8002A180A000B207
(1485778778.238810) can0 090#0000C1FE61FD0000
(1485778778.239059) can0 0A0#0000080000007FFE
(1485778778.239308) can0 0C0#0020000040000000
(1485778778.239574) can0 1B0#4100000000403000
(1485778778.239849) can0 010#0CF7000000008048
(1485778778.239934) can0 210#00000000FB890000
(1485778778.240308) can0 213#00FB00000FFF4FFF
(1485778778.240433) can0 218#00008F003C7DC0D8
(1485778778.240683) can0 252#0000000FFF200040
(1485778778.240933) can0 270#5E2F042100000000
(1485778778.241184) can0 280#C400008085254000
(1485778778.241433) can0 290#0600400100027702
(1485778778.241683) can0 2D4#00000000E5FEFFFE
(1485778778.241933) can0 2F0#30B00080005F963A
(1485778778.243309) can0 150#A070500000000000
(1485778778.244203) can0 455#0000000000000000
(1485778778.245560) can0 269#000005295585FF00
(1485778778.246331) can0 208#7F073AF66F80FF98
(1485778778.246703) can0 0B0#00004381E68011C3
(1485778778.246979) can0 140#0000BC01000C3A24
(1485778778.247207) can0 190#8000800080008000
(1485778778.247948) can0 060#0000000000000000
(1485778778.248204) can0 070#05A709F369F3F000
(1485778778.248472) can0 030#8002A180A000B207
(1485778778.248704) can0 080#90007D00007FFEF7
(1485778778.248974) can0 090#0000C1FE61FD0000
(1485778778.249185) can0 0F8#000000000000104F
(1485778778.249434) can0 120#0000000000008000
(1485778778.249683) can0 010#0DE7000000008048
(1485778778.249953) can0 130#50002000E0000000
(1485778778.250186) can0 138#007D8400780081FD
(1485778778.250434) can0 1A0#1F40000080000000
(1485778778.252058) can0 170#04000000D0000000
(1485778778.252936) can0 0A0#0000080000007FFE
(1485778778.253183) can0 0C8#DF873AF2E138C600
(1485778778.253433) can0 260#8882CD0DB561B800
(1485778778.253933) can0 0A5#007EE97800956800
(1485778778.254201) can0 1B5#000001D66AD0FFFC
(1485778778.254481) can0 298#0000001BD82B0800
(1485778778.257080) can0 160#55FF000057A3ADFF
(1485778778.257347) can0 180#03000DF51804F000
(1485778778.257579) can0 190#8000800080008000
(1485778778.257826) can0 1C0#77C0000080000000
(1485778778.258078) can0 1D0#A8FFFF0000000000
(1485778778.258312) can0 1E0#000000000000F5A3
(1485778778.258559) can0 030#8003A180A000B207
(1485778778.258822) can0 090#0000C1FF61FC0000
(1485778778.259098) can0 0C0#0020000040000000
(1485778778.259311) can0 200#F200B7490000C000
(1485778778.259601) can0 210#00000000FA8B0000
(1485778778.259713) can0 010#0ED7000000008048
(1485778778.259936) can0 213#00FA00000FFF5FFF
(1485778778.260183) can0 252#0000000FFF200040
(1485778778.260433) can0 2D0#000001FC72905A85
(1485778778.263060) can0 060#0000000000000000
(1485778778.263348) can0 150#A070500000000000
(1485778778.266698) can0 0B0#00004381E68011C3
(1485778778.266952) can0 140#0000BC01000D2A24
(1485778778.267204) can0 190#8000800080008000
(1485778778.267481) can0 218#00008F003C7DC0D8
(1485778778.268077) can0 070#05A709F369F3F000
(1485778778.268348) can0 080#90007D00007FFEF7
(1485778778.268448) can0 030#8002A180A000B207
(1485778778.268828) can0 090#0000C1FF61FC0000
(1485778778.268953) can0 0A0#0000080000007FFE
(1485778778.269218) can0 0F8#000000000000104F
(1485778778.269474) can0 120#0000000000008000
(1485778778.269703) can0 010#0FC7000000008048
(1485778778.269961) can0 130#50002000E0000000
(1485778778.270203) can0 138#007D8400780081FD
(1485778778.270435) can0 1A0#1F40000080000000
(1485778778.270684) can0 1B0#4100000000403000
(1485778778.270933) can0 270#5E2F042100000000
(1485778778.271184) can0 280#C400008085254000
(1485778778.271434) can0 208#7F072AE60080FF18
(1485778778.271683) can0 290#8600400100027702
(1485778778.271934) can0 2D8#0444808000000000
(1485778778.272183) can0 170#04000000D0000000
(1485778778.272434) can0 229#6000000000000000
(1485778778.272683) can0 2A0#0000000030000000
(1485778778.272936) can0 2A5#00000000100FF0FF
(1485778778.273433) can0 0C8#DF873EF6E138C600
(1485778778.273933) can0 0A5#007EE87800857800
(1485778778.275559) can0 269#000005295585FF00
(1485778778.277081) can0 160#55FF00005793B5FF
(1485778778.277348) can0 180#03000DF61805F000
(1485778778.277577) can0 190#8000800080008000
(1485778778.277823) can0 1C0#77C0000080000000
(1485778778.278099) can0 1D0#A8FFFF0000000000
(1485778778.278353) can0 060#0000000000000000
(1485778778.278609) can0 030#8002A180A000B207
(1485778778.278811) can0 090#0000C1FF61FC0000
(1485778778.279058) can0 0C0#0020000040000000
(1485778778.279309) can0 1E0#000000000000F693
(1485778778.279561) can0 210#00000000F98D0000
(1485778778.279849) can0 010#00B7000000008048
(1485778778.280078) can0 213#00F900000FFF6FFF
(1485778778.280311) can0 252#0000000FFF200040
(1485778778.280433) can0 260#8882CD0DB5E1B800
(1485778778.282936) can0 0A0#0000080000007FFE
(1485778778.283204) can0 200#F200B7490000C000
(1485778778.283480) can0 150#A06F700000000000
(1485778778.286705) can0 0B0#00004381E68011C3
(1485778778.286954) can0 140#0000BC01000E1A24
(1485778778.287226) can0 190#8000800080008000
(1485778778.287962) can0 070#05A709F369F3F000
(1485778778.288203) can0 080#90007D00007FFEF7
(1485778778.288478) can0 030#8002A180A000B207
(1485778778.288688) can0 090#0000C1FF61FC0000
(1485778778.288933) can0 0F8#000000000000104F
(1485778778.289202) can0 120#0000000000008000
(1485778778.289436) can0 130#50002000E0000000
(1485778778.289720) can0 010#01A7000000008048
(1485778778.289955) can0 138#007D8400780081FC
(1485778778.290185) can0 1A0#1F40000080000000
(1485778778.292199) can0 170#04000000D0000000
(1485778778.292954) can0 060#0000000000000000
(1485778778.293335) can0 0C8#DF873AF2E138C600
(1485778778.293956) can0 0A5#007EE77800758800
(1485778778.294227) can0 1B5#000001D66AD0FFFC
(1485778778.294455) can0 298#0000001BD82B0800
(1485778778.296446) can0 208#7F062AE60080FF18
(1485778778.297079) can0 160#55FF00005783BDFF
(1485778778.297329) can0 180#03000DF61804F000
(1485778778.297603) can0 190#8000800080008000
(1485778778.297829) can0 1C0#77C0000080000000
(1485778778.298080) can0 090#0000C1FF61FD0000
(1485778778.298311) can0 0A0#0000080000007FFE
(1485778778.298599) can0 030#800AE1A0E000B287
(1485778778.298830) can0 0C0#0020000040000000
(1485778778.299076) can0 1B0#4100000000403000
(1485778778.299311) can0 1D0#A8FFFF0000000000
(1485778778.299568) can0 1E0#000000000000F783
(1485778778.299812) can0 010#0297000000008048
(1485778778.300060) can0 210#00000000F88F0000
(1485778778.300194) can0 213#00F800000FFF7FFF
(1485778778.300433) can0 218#00008F003C7DC0D8
(1485778778.300684) can0 252#0000000FFF200040
(1485778778.300934) can0 270#5E2F042100000000
(1485778778.301185) can0 280#C400008085254000
(1485778778.301434) can0 290#0600400100027702
(1485778778.301683) can0 2D0#000001FB73905A85
(1485778778.301934) can0 2D4#00000000E5FEFFFE
(1485778778.303435) can0 150#A06F500000000000
(1485778778.303684) can0 260#8882CD0DB561B800
(1485778778.305684) can0 269#00000529AA85FF00
(1485778778.306686) can0 0B0#00004381E68011C3
(1485778778.306942) can0 140#0000BC01000F0A24
(1485778778.307204) can0 190#8000800080008000
(1485778778.308079) can0 060#0000000000000000
(1485778778.308348) can0 030#8002A180A000B207
(1485778778.308574) can0 070#05A709F369F3F000
(1485778778.308848) can0 080#90007D00007FFEF7
(1485778778.308947) can0 090#0000C1FF61FD0000
(1485778778.309214) can0 0F8#000000000000104F
(1485778778.309470) can0 120#0000000000008000
(1485778778.309828) can0 010#0387000000008048
(1485778778.309953) can0 130#50002000E0000000
(1485778778.310202) can0 138#007D8400780081FC
(1485778778.310453) can0 1A0#1F40000080000000
(1485778778.310699) can0 200#F200B7490000C000
(1485778778.311951) can0 170#04000000D0000000
(1485778778.312329) can0 229#6000000000000000
(1485778778.312582) can0 2A0#0000000030000000
(1485778778.312824) can0 2A5#00000000100FF0FF
(1485778778.313099) can0 0A0#0000080000007FFD
(1485778778.313311) can0 0C8#DF873EF2E138C600
(1485778778.313935) can0 0A5#007EE67800659800
(1485778778.317081) can0 160#55FF00005773C5FF
(1485778778.317348) can0 180#03000DF51804F000
(1485778778.317608) can0 190#8000800080008000
(1485778778.317811) can0 1C0#77C0000080000000
(1485778778.318061) can0 090#0000C1FF61FD0000
(1485778778.318328) can0 0C0#0020000040000000
(1485778778.318575) can0 030#8003A180A000B207
(1485778778.318852) can0 1D0#A8FFFF0000000000
(1485778778.319060) can0 1E0#000000000000F873
(1485778778.319309) can0 210#00000000F7910000
(1485778778.319560) can0 213#00F700000FFF8FFF
(1485778778.319684) can0 010#0477000000008048
(1485778778.319960) can0 252#0000000FFF200040
(1485778778.320203) can0 40A#C0003E212C0E3C3B
(1485778778.321447) can0 208#7F062AE60080FF18
(1485778778.322973) can0 060#0000000000000000
(1485778778.323329) can0 150#A06F500000000000
(1485778778.326704) can0 0B0#00004381E68011C3
(1485778778.326954) can0 140#0000BC010000FA24
(1485778778.327203) can0 190#8000800080008000
(1485778778.327475) can0 218#00008F003C7DC0D8
(1485778778.327961) can0 070#05A709F369F3F000
(1485778778.328202) can0 080#90007D00007FFDF7
(1485778778.328457) can0 090#0000C1FF61FD0000
(1485778778.328724) can0 030#8002A180A000B207
(1485778778.328937) can0 0A0#0000080000007FFD
(1485778778.329184) can0 0F8#000000000000104F
(1485778778.329434) can0 120#0000000000008000
(1485778778.329703) can0 010#0567000000008048
(1485778778.329974) can0 130#50002000E0000000
(1485778778.330187) can0 138#007D8400780081FC
(1485778778.330434) can0 17E#C010004000200000
(1485778778.330685) can0 1A0#1F40000080000000
(1485778778.330934) can0 1B0#4100000000403000
(1485778778.331059) can0 260#8882CD0DB5E1B800
(1485778778.331309) can0 270#5E2F042100000000
(1485778778.331559) can0 280#C400008085254000
(1485778778.331934) can0 290#0600400100027702
(1485778778.332059) can0 2D8#0444808000000000
(1485778778.332309) can0 170#04000000D0000000
(1485778778.332560) can0 2F0#30B00080005F963A
(1485778778.332811) can0 340#000000000300662F
(1485778778.333061) can0 200#F200B7490000C000
(1485778778.333309) can0 380#10947CA96000C0A9
(1485778778.333560) can0 0C8#DF873AF6E138C600
(1485778778.333809) can0 310#D94430602D450074
(1485778778.333934) can0 0A5#007EE5780055A800
(1485778778.334185) can0 1B5#000001D66AD0FFFC
(1485778778.334434) can0 298#0000001BD82B0800
(1485778778.334684) can0 360#C0C03F003C7DB8B7
(1485778778.334934) can0 3B4#401111FF00000000
(1485778778.335184) can0 435#B243B9D276EFB3C4
(1485778778.335684) can0 269#00000529AA85FF00
(1485778778.337061) can0 160#55FF00005763CDFF
(1485778778.337329) can0 180#03000DF71803F000
(1485778778.337560) can0 190#8000800080008000
(1485778778.337810) can0 1C0#77C0000080000000
(1485778778.338059) can0 060#0000000000000000
(1485778778.338309) can0 090#0000C20061FE0000
(1485778778.338559) can0 030#8002A180A000B207
(1485778778.338810) can0 0C0#0020000040000000
(1485778778.339059) can0 1D0#A8FFFF0000000000
(1485778778.339312) can0 1E0#000000000000F963
(1485778778.339561) can0 210#00000000F6930000
(1485778778.339809) can0 010#0657000000008048
(1485778778.340059) can0 213#00F600000FFF9FFF
(1485778778.340320) can0 252#0000000FFF200040
(1485778778.340559) can0 2D0#000001FA74905A85
(1485778778.343062) can0 0A0#0000080000007FFC
(1485778778.343309) can0 150#A06F500000000000
(1485778778.344060) can0 455#0000000000000000
(1485778778.346560) can0 208#7F063AF66F80FF98
(1485778778.346840) can0 0B0#00004381E68011C3
(1485778778.347081) can0 140#0000BC010001EA24
(1485778778.347329) can0 190#8000800080008000
(1485778778.347600) can0 388#0000414279421600
(1485778778.348080) can0 070#05A709F369F3F000
(1485778778.348327) can0 080#90007D00007FFDF7
(1485778778.348599) can0 030#8002A180A000B207
(1485778778.348686) can0 090#0000C20061FE0000
(1485778778.348968) can0 0F8#000000000000104F
(1485778778.349328) can0 120#0000000000008000
(1485778778.349448) can0 130#50002000E0000000
(1485778778.349703) can0 010#0747000000008048
(1485778778.349937) can0 138#007D8400780081FC
(1485778778.350184) can0 1A0#1F40000080000000
(1485778778.352060) can0 170#04000000D0000000
(1485778778.352457) can0 229#6000000000000000
(1485778778.352722) can0 2A0#0000000030000000
(1485778778.352958) can0 2A5#00000000100FF0FF
(1485778778.353203) can0 060#0000000000000000
(1485778778.353448) can0 0C8#DF873EF2E138C600
(1485778778.353575) can0 260#8882CD0DB561B800
(1485778778.353937) can0 0A5#007EE4780045B800
(1485778778.357080) can0 160#55FF00005753D5FD
(1485778778.357328) can0 180#03000DF31804F000
(1485778778.357608) can0 190#8000800080008000
(1485778778.357831) can0 1C0#77C0000080000000
(1485778778.358096) can0 090#0000C20061FE0000
(1485778778.358323) can0 0A0#0000080000007FFC
(1485778778.358600) can0 030#8002A180A000B207
(1485778778.358812) can0 0C0#0020000040000000
(1485778778.359060) can0 1B0#4100000000403000
(1485778778.359309) can0 1D0#A8FFFF0000000000
(1485778778.359605) can0 1E0#000000000000FA53
(1485778778.359855) can0 010#0837000000008048
(1485778778.359935) can0 200#F200B7490000C000
(1485778778.360184) can0 210#00000000F5950000
(1485778778.360434) can0 213#00F500000FFFAFFF
(1485778778.360685) can0 218#00008F003C7DC0D8
(1485778778.360935) can0 252#0000000FFF200040
(1485778778.361184) can0 270#5E2F042100000000
(1485778778.361435) can0 280#C400008085254000
(1485778778.361684) can0 290#8600400100027702
(1485778778.361935) can0 2D4#00000000E5FEFFFE
(1485778778.363311) can0 150#A06F500000000000
(1485778778.365688) can0 269#00000529AA85FF00
(1485778778.366686) can0 0B0#00004381E68011C3
(1485778778.366974) can0 140#0000BC010002DA24
(1485778778.367205) can0 190#8000800080008000
(1485778778.367948) can0 060#0000000000000000
(1485778778.368193) can0 070#05A709F369F3F000
(1485778778.368453) can0 030#8002A180A000B207
(1485778778.368706) can0 080#90007D00007FFCF7
(1485778778.368954) can0 090#0000C20061FE0000
(1485778778.369187) can0 0F8#000000000000104F
(1485778778.369435) can0 120#0000000000008000
(1485778778.369704) can0 010#0927000000008048
(1485778778.369973) can0 130#50002000E0000000
(1485778778.370187) can0 138#007D8400780081FC
(1485778778.370436) can0 1A0#1F40000080000000
(1485778778.371559) can0 208#7F062AE60080FF18
(1485778778.371963) can0 170#04000000D0000000
(1485778778.372954) can0 0A0#0000080000007FFC
(1485778778.373469) can0 0C8#DF873AF2E138C600
(1485778778.373970) can0 0A5#007EE3780035C800
(1485778778.374202) can0 1B5#000001D66AD0FFFC
(1485778778.374473) can0 298#0000001BD82B0800
(1485778778.377082) can0 160#55FF00005743DDFD
(1485778778.377323) can0 180#03000DF71804F000
(1485778778.377600) can0 190#8000800080008000
(1485778778.377830) can0 1C0#77C0000080000000
(1485778778.378078) can0 090#0000C1FF61FD0000
(1485778778.378312) can0 0C0#0020000040000000
(1485778778.378559) can0 030#8003A180A000B207
(1485778778.378849) can0 1D0#A8FFFF0000000000
(1485778778.379080) can0 1E0#000000000000FB43
(1485778778.379330) can0 210#00000000F4970000
(1485778778.379442) can0 213#00F400000FFFBFFF
(1485778778.379684) can0 010#0A17000000008048
(1485778778.379935) can0 252#0000000FFF200040
(1485778778.380184) can0 260#8882CD0DB5E1B800
(1485778778.380435) can0 2D0#000001F975905A85
(1485778778.383061) can0 060#0000000000000000
(1485778778.383325) can0 200#F200B7490000C000
(1485778778.383599) can0 150#A06F500000000000
(1485778778.386704) can0 0B0#00004381E68011C3
(1485778778.386974) can0 140#0000BC010003CA24
(1485778778.387225) can0 190#8000800080008000
(1485778778.387482) can0 218#00008F003C7DC0D8
(1485778778.387970) can0 070#05A709F369F3F000
(1485778778.388205) can0 030#800AE180E000B287
(1485778778.388438) can0 080#90007D00007FFCF7
(1485778778.388700) can0 090#0000C1FF61FD0000
(1485778778.388947) can0 0A0#0000080000007FFD
(1485778778.389187) can0 0F8#000000000000104F
(1485778778.389446) can0 120#0000000000008000
(1485778778.389688) can0 010#0B07000000008048
(1485778778.389935) can0 130#50002000E0000000
(1485778778.390185) can0 138#007D8400780081FC
(1485778778.390440) can0 1A0#1F40000080000000
(1485778778.390684) can0 1B0#4100000000403000
(1485778778.390935) can0 270#5E2F042100000000
(1485778778.391184) can0 280#C400008085254000
(1485778778.391435) can0 290#0600C00100027702
(1485778778.391684) can0 2D8#0444808000000000
(1485778778.392185) can0 170#04000000D0000000
(1485778778.392434) can0 229#6000000000000000
(1485778778.392685) can0 2A0#0000000030000000
(1485778778.392936) can0 2A5#00000000100FF0FF
(1485778778.393434) can0 0C8#DF873EF6E138C600
(1485778778.393936) can0 0A5#007EE2780025D800
(1485778778.395718) can0 269#000005295585FF00
(1485778778.396699) can0 208#7F042AE60080FF18
(1485778778.397079) can0 160#55FF00005733E5FF
(1485778778.397354) can0 180#03000DF61804F000
(1485778778.397580) can0 190#8000800080008000
(1485778778.397852) can0 1C0#77C0000080000000
(1485778778.398074) can0 060#0000000000000000
(1485778778.398350) can0 090#0000C1FF61FD0000
(1485778778.398580) can0 030#8002A180A000B207
(1485778778.398813) can0 0C0#0020000040000000
(1485778778.399060) can0 1D0#A8FFFF0000000000
(1485778778.399309) can0 1E0#000000000000FC33
(1485778778.399576) can0 210#00000000F3990000
(1485778778.399812) can0 010#0CF7000000008048
(1485778778.400060) can0 213#00F300000FFFCFFF
(1485778778.400310) can0 252#0000000FFF200040
(1485778778.400434) can0 405#0167212C0E3D089C
(1485778778.402941) can0 0A0#0000080000007FFC
(1485778778.403329) can0 150#A06F500000000000
(1485778778.403603) can0 260#8882CD0DB661B800
(1485778778.406704) can0 0B0#00004381E68011C3
(1485778778.406957) can0 140#0000BC010004BA24
(1485778778.407199) can0 190#8000800080008000
(1485778778.407961) can0 070#05A709F369F3F000
(1485778778.408206) can0 080#90007D00007FFCF7
(1485778778.408474) can0 030#8002A180A000B207
(1485778778.408708) can0 090#0000C1FF61FD0000
(1485778778.408949) can0 0F8#000000000000104F
(1485778778.409186) can0 120#0000000000008000
(1485778778.409435) can0 130#50002000E0000000
(1485778778.409728) can0 010#0DE7000000008048
(1485778778.409957) can0 138#007D8400780081FB
(1485778778.410187) can0 1A0#1F40000080000000
(1485778778.410474) can0 200#F200B74B0000C000
(1485778778.411954) can0 170#04000000D0000000
(1485778778.412982) can0 060#0000000000000000
(1485778778.413326) can0 0C8#DF873AF2E138C600
(1485778778.413953) can0 0A5#007EE1780015E800
(1485778778.414226) can0 1B5#000001D66AD0FFFC
(1485778778.414455) can0 298#0000001BD82B0800
(1485778778.417077) can0 160#55FF00005723EDFF
(1485778778.417326) can0 180#03000DF41803F000
(1485778778.417601) can0 190#8000800080008000
(1485778778.417831) can0 1C0#77C0000080000000
(1485778778.418103) can0 090#0000C20061FF0000
(1485778778.418311) can0 0A0#0000080000007FFB
(1485778778.418560) can0 030#8002A180A000B207
(1485778778.418825) can0 0C0#0020000040000000
(1485778778.419062) can0 1B0#4100000000403000
(1485778778.419185) can0 1D0#A8FFFF0000000000
(1485778778.419435) can0 1E0#000000000000FD23
(1485778778.419715) can0 010#0ED7000000008048
(1485778778.419968) can0 210#00000000F29B0000
(1485778778.420205) can0 213#00F200000FFFDFFF
(1485778778.420455) can0 218#00008F003C7DC0D8
(1485778778.420699) can0 252#0000000FFF200040
(1485778778.420986) can0 270#5E2F042100000000
(1485778778.421193) can0 280#C400008085254000
(1485778778.421437) can0 290#8600400100027702
(1485778778.421685) can0 2D0#000001F876905A85
(1485778778.421936) can0 208#7F092AE60080FF18
(1485778778.422208) can0 2D4#00000000E5FEFFFE
(1485778778.422449) can0 2F0#30B00080005F963A
(1485778778.423437) can0 150#A06F500000000000
(1485778778.425809) can0 269#000005295585FF00
(1485778778.426708) can0 0B0#00004381E68011C3
(1485778778.426951) can0 140#0000BC010005AA24
(1485778778.427201) can0 190#8000800080008000
(1485778778.428081) can0 060#0000000000000000
(1485778778.428325) can0 030#8002A180A000B207
(1485778778.428575) can0 070#05A709F369F3F000
(1485778778.428841) can0 080#90007D00007FFCF7
(1485778778.429073) can0 090#0000C20061FF0000
(1485778778.429313) can0 0F8#000000000000104F
(1485778778.429563) can0 120#0000000000008000
(1485778778.429825) can0 010#0FC7000000008048
(1485778778.429951) can0 130#50002000E0000000
(1485778778.430198) can0 138#007D8400780081FB
(1485778778.430449) can0 17E#C010004000278000
(1485778778.430704) can0 1A0#1F40000080000000
(1485778778.430955) can0 260#8882CD0DB561B800
(1485778778.432204) can0 170#04000000D0000000
(1485778778.432455) can0 229#6000000000000000
(1485778778.432700) can0 2A0#0000000030000000
(1485778778.432937) can0 0A0#0000080000007FFB
(1485778778.433205) can0 200#F200B74B0000C000
(1485778778.433443) can0 0C8#DF873EF2E138C600
(1485778778.433724) can0 2A5#00000000100FF0FF
(1485778778.433937) can0 310#DB4430602D450074
(1485778778.434186) can0 0A5#007EE0780005F800
(1485778778.437061) can0 160#55FF00005713F5FF
(1485778778.437331) can0 180#03000DF51804F000
(1485778778.437604) can0 190#8000800080008000
(1485778778.437815) can0 1C0#77C0000080000000
(1485778778.438060) can0 090#0000C20061FF0000
(1485778778.438349) can0 0C0#0020000040000000
(1485778778.438580) can0 030#8003A180A000B207
(1485778778.438847) can0 1D0#A8FFFF0000000000
(1485778778.439075) can0 1E0#000000000000FE13
(1485778778.439186) can0 210#00000000F19D0000
(1485778778.439434) can0 213#00F100000FFFEFFF
(1485778778.439685) can0 010#00B7000000008048
(1485778778.439935) can0 252#0000000FFF200040
(1485778778.442938) can0 060#0000000000000000
(1485778778.443198) can0 150#A06F500000000000
(1485778778.443454) can0 40A#FF0B210404204220
(1485778778.444573) can0 455#0000000000000000
(1485778778.446706) can0 0B0#00004381E68011C3
(1485778778.446975) can0 140#0000BC0100069A24
(1485778778.447200) can0 190#8000800080008000
(1485778778.447328) can0 208#7F083AF66F80FF98
(1485778778.447586) can0 218#00008F003C7DC0D8
(1485778778.447955) can0 070#05A709F269F2F000
(1485778778.448204) can0 080#90007D00007FFBF7
(1485778778.448475) can0 030#8002A180A000B207
(1485778778.448688) can0 090#0000C20061FF0000
(1485778778.448935) can0 0A0#0000080000007FFB
(1485778778.449186) can0 0F8#000000000000104F
(1485778778.449435) can0 120#0000000000008000
(1485778778.449686) can0 010#01A7000000008048
(1485778778.449935) can0 130#50002000E0000000
(1485778778.450185) can0 138#007D8400780081FB
(1485778778.450436) can0 1A0#1F40000080000000
(1485778778.450685) can0 1B0#4100000000403000
(1485778778.450936) can0 270#5E2F042100000000
(1485778778.451061) can0 280#C400008085254000
(1485778778.451310) can0 290#0600400100027702
(1485778778.451561) can0 2D8#0444808000000000
(1485778778.451934) can0 340#000000000300662F
(1485778778.452185) can0 170#04000000D0000000
(1485778778.453310) can0 0C8#DF873AF6E138C600
(1485778778.453447) can0 260#8882CD0DB5E1B800
(1485778778.454950) can0 0A5#007EEF7800F50800
(1485778778.455206) can0 1B5#000001D66AD0FFFC
(1485778778.455477) can0 298#0000001BD82B0800
(1485778778.455705) can0 269#000005295585FF00
(1485778778.457078) can0 160#55FF00005703FDFF
(1485778778.457346) can0 180#03000DF71805F000
(1485778778.457600) can0 190#8000800080008000
(1485778778.457813) can0 1C0#77C0000080000000
(1485778778.458060) can0 060#0000000000000000
(1485778778.458311) can0 090#0000C1FF61FD0000
(1485778778.458580) can0 030#8002A180A000B207
(1485778778.458851) can0 0C0#0020000040000000
(1485778778.459079) can0 1D0#A8FFFF0000000000
(1485778778.459312) can0 1E0#000000000000FF03
(1485778778.459560) can0 200#F200B74B0000C000
(1485778778.459696) can0 010#0297000000008048
(1485778778.459935) can0 210#00000000F09F0000
(1485778778.460185) can0 213#00F000000FFFFFFF
(1485778778.460435) can0 252#0000000FFF200040
(1485778778.460686) can0 2D0#000001F777905A85
(1485778778.462938) can0 0A0#0000080000007FFC
(1485778778.463457) can0 150#A06F500000000000
(1485778778.466709) can0 0B0#00004381E68011C3
(1485778778.466957) can0 140#0000BC0100078A24
(1485778778.467206) can0 190#8000800080008000
(1485778778.467955) can0 070#05A709F269F2F000
(1485778778.468224) can0 080#90007D00007FFBF7
(1485778778.468457) can0 030#800AE180E000B287
(1485778778.468708) can0 090#0000C1FF61FD0000
(1485778778.468948) can0 0F8#000000000000104F
(1485778778.469188) can0 120#0000000000008000
(1485778778.469436) can0 130#50002000E0000000
(1485778778.469705) can0 010#0387000000008048
(1485778778.469974) can0 138#007D8400780081FB
(1485778778.470188) can0 1A0#1F40000080000000
(1485778778.470435) can0 400#1600000000000001
(1485778778.471962) can0 208#7F092AE60080FF18
(1485778778.472087) can0 170#04000000D0000000
(1485778778.472332) can0 229#6000000000000000
(1485778778.472706) can0 2A0#0000000030000000
(1485778778.472956) can0 2A5#00000000100FF0FF
(1485778778.473224) can0 060#0000000000000000
(1485778778.473333) can0 0C8#DF873EF2E138C600
(1485778778.474950) can0 0A5#007EEE7800E51800
(1485778778.477081) can0 160#55FF000057F385FF
(1485778778.477348) can0 180#03000DF41804F000
(1485778778.477579) can0 190#8000800080008000
(1485778778.477832) can0 1C0#77C0000080000000
(1485778778.478074) can0 090#0000C1FF61FD0000
(1485778778.478350) can0 0A0#0000080000007FFC
(1485778778.478582) can0 030#8002A180A000B207
(1485778778.478814) can0 0C0#0020000040000000
(1485778778.479060) can0 1B0#4100000000403000
(1485778778.479311) can0 1D0#A8FFFF0000000000
(1485778778.479573) can0 1E0#000000000000F0F3
(1485778778.479702) can0 010#0477000000008048
(1485778778.479938) can0 210#00000000FF810000
(1485778778.480185) can0 213#00FF00000FFF0FFF
(1485778778.480436) can0 218#00008F003C7DC0D8
(1485778778.480685) can0 252#0000000FFF200040
(1485778778.480936) can0 260#8882CD0DB561B800
(1485778778.481192) can0 270#5E2F042100000000
(1485778778.481436) can0 280#C400008085254000
(1485778778.481686) can0 290#0600400100027702
(1485778778.481935) can0 2D4#00000000E5FEFFFE
(1485778778.482936) can0 200#F200B74B0000C000
(1485778778.483312) can0 150#A06F500000000000
(1485778778.483560) can0 360#C0C03F003C7DB8B7
(1485778778.485810) can0 269#00000529AA85FF00
(1485778778.486709) can0 0B0#00004381E68011C3
(1485778778.486962) can0 140#0000BC0100087A24
(1485778778.487207) can0 190#8000800080008000
(1485778778.487960) can0 060#0000000000000000
(1485778778.488224) can0 070#05A709F269F2F000
(1485778778.488457) can0 030#8002A180A000B207
(1485778778.488697) can0 080#90007D00007FFBF7
(1485778778.488957) can0 090#0000C1FF61FD0000
(1485778778.489188) can0 0F8#000000000000104F
(1485778778.489435) can0 120#0000000000008000
(1485778778.489705) can0 010#0567000000008048
(1485778778.489975) can0 130#50002000E0000000
(1485778778.490187) can0 138#007D8400780081FB
(1485778778.490436) can0 1A0#1F40000080000000
(1485778778.491936) can0 170#04000000D0000000
(1485778778.493332) can0 0C8#DF873AF2E138C600
(1485778778.493580) can0 0A0#0000080000007FFC
(1485778778.494957) can0 0A5#007EED7800D52800
(1485778778.495226) can0 1B5#000001D66AD0FFFC
(1485778778.495477) can0 298#0000001BD82B0800
(1485778778.496973) can0 208#7F0C2AE60080FF18
(1485778778.497205) can0 160#55FF000057E38DFF
(1485778778.497451) can0 180#03000DF61804F000
(1485778778.497699) can0 190#8000800080008000
(1485778778.497939) can0 090#0000C1FE61FB0000
(1485778778.498201) can0 0C0#0020000040000000
(1485778778.498439) can0 030#8003A180A000B207
(1485778778.498700) can0 1C0#77C0000080000000
(1485778778.498957) can0 1D0#A8FFFF0000000000
(1485778778.499188) can0 1E0#000000000000F1E3
(1485778778.499436) can0 210#00000000FE830000
(1485778778.499687) can0 010#0657000000008048
(1485778778.499936) can0 213#00FE00000FFF1FFF
(1485778778.500186) can0 252#0000000FFF200040
(1485778778.500436) can0 2D0#000001F678905A85
(1485778778.502938) can0 060#0000000000000000
(1485778778.503328) can0 150#A06F500000000000
(1485778778.503564) can0 260#8882CD0DB5E1B800
(1485778778.506687) can0 0B0#00004381E68011C3
(1485778778.506936) can0 140#0000BC0100096A24
(1485778778.507186) can0 190#8000800080008000
(1485778778.507309) can0 218#00008F003C7DC0D8
(1485778778.507958) can0 070#05A709F369F3F000
(1485778778.508231) can0 080#90007D00007FFCF7
(1485778778.508455) can0 030#8002A180A000B207
(1485778778.508727) can0 090#0000C1FE61FB0000
(1485778778.508954) can0 0A0#0000080000007FFD
(1485778778.509229) can0 0F8#000000000000104F
(1485778778.509457) can0 120#0000000000008000
(1485778778.509688) can0 010#0747000000008048
(1485778778.509936) can0 130#50002000E0000000
(1485778778.510185) can0 138#007D8400780081FB
(1485778778.510437) can0 1A0#1F40000080000000
(1485778778.510686) can0 1B0#4100000000403000
(1485778778.510936) can0 200#F200B74C0000C000
(1485778778.511060) can0 270#5E2F042100000000
(1485778778.511311) can0 280#C400008085254000
(1485778778.511561) can0 290#8600400100027702
(1485778778.511936) can0 2D8#0444808000000000
(1485778778.512062) can0 2F0#30B00080005F963A
(1485778778.512311) can0 170#04000000D0000000
(1485778778.512562) can0 229#6000000000000000
(1485778778.512938) can0 2A0#0000000030000000
(1485778778.513061) can0 2A5#00000000100FF0FF
(1485778778.513311) can0 0C8#DF873EF6E138C600
(1485778778.514937) can0 0A5#007EEC7800C53800
(1485778778.515832) can0 269#00000529AA85FF00
(1485778778.517082) can0 160#55FF000057D395FF
(1485778778.517347) can0 180#03000DF71805F000
(1485778778.517581) can0 190#8000800080008000
(1485778778.517856) can0 1C0#77C0000080000000
(1485778778.518085) can0 060#0000000000000000
(1485778778.518330) can0 090#0000C1FE61FB0000
(1485778778.518571) can0 0C0#0020000040000000
(1485778778.518813) can0 030#8002A180A000B207
(1485778778.519061) can0 1D0#A8FFFF0000000000
(1485778778.519311) can0 1E0#000000000000F2D3
(1485778778.519562) can0 210#00000000FD850000
(1485778778.519701) can0 010#0837000000008048
(1485778778.520082) can0 213#00FD00000FFF2FFF
(1485778778.520201) can0 252#0000000FFF200040
(1485778778.521962) can0 208#7F0A2AE60080FF18
(1485778778.522957) can0 0A0#0000080000007FFD
(1485778778.523351) can0 150#A06F500000000000
(1485778778.526706) can0 0B0#00004381E68011C3
(1485778778.526935) can0 140#0000BC01000A5A24
(1485778778.527061) can0 190#8000800080008000
(1485778778.527956) can0 070#05A709F369F3F000
(1485778778.528212) can0 080#90007D00007FFCF7
(1485778778.528445) can0 030#8002A180A000B207
(1485778778.528724) can0 090#0000C1FE61FB0000
(1485778778.528974) can0 0F8#000000000000104F
(1485778778.529226) can0 120#0000000000008000
(1485778778.529452) can0 130#50002000E0000000
(1485778778.529691) can0 010#0927000000008048
(1485778778.529937) can0 138#007D8400780081FB
(1485778778.530187) can0 17E#C010004000200000
(1485778778.530320) can0 1A0#1F40000080000000
(1485778778.530576) can0 260#8882CD0DB561B800
(1485778778.531953) can0 170#04000000D0000000
(1485778778.532973) can0 060#0000000000000000
(1485778778.533208) can0 200#F200B74C0000C000
(1485778778.533456) can0 0C8#DF873AF2E138C600
(1485778778.533706) can0 310#D94430602D450074
(1485778778.534956) can0 0A5#007EEB7800B54800
(1485778778.535229) can0 1B5#000001D66AD0FFFC
(1485778778.535481) can0 298#0000001BD82B0800
(1485778778.537081) can0 160#55FF000057C39DFF
(1485778778.537347) can0 180#03000DF51803F000
(1485778778.537564) can0 190#8000800080008000
(1485778778.537811) can0 1C0#77C0000080000000
(1485778778.538082) can0 090#0000C20061FD0000
(1485778778.538329) can0 0A0#0000080000007FFC
(1485778778.538563) can0 030#800AE180E000B287
(1485778778.538851) can0 0C0#0020000040000000
(1485778778.539082) can0 1B0#4100000000403000
(1485778778.539325) can0 1D0#A8FFFF0000000000
(1485778778.539603) can0 1E0#000000000000F3C3
(1485778778.539706) can0 010#0A17000000008048
(1485778778.539952) can0 210#00000000FC870000
(1485778778.540201) can0 213#00FC00000FFF3FFF
(1485778778.540452) can0 218#00008F003C7DC0D8
(1485778778.540701) can0 252#0000000FFF200040
(1485778778.540953) can0 270#5E2F042100000000
(1485778778.541206) can0 280#C400008085254000
(1485778778.541451) can0 290#0600400100027702
(1485778778.541702) can0 2D0#000001F579905A85
(1485778778.541939) can0 2D4#00000000E5FEFFFE
(1485778778.543314) can0 150#A06F500000000000
(1485778778.544937) can0 455#0000000000000000
(1485778778.545826) can0 269#00000529AA85FF00
(1485778778.546708) can0 0B0#00004381E68011C3
(1485778778.546974) can0 140#0000BC01000B4A24
(1485778778.547084) can0 190#8000800080008000
(1485778778.547457) can0 208#7F093AF66F80FF98
(1485778778.547958) can0 060#0000000000000000
(1485778778.548205) can0 070#05A709F369F3F000
(1485778778.548450) can0 030#8002A180A000B207
(1485778778.548706) can0 080#90007D00007FFCF7
(1485778778.548982) can0 090#0000C20061FD0000
(1485778778.549208) can0 0F8#000000000000104F
(1485778778.549483) can0 120#0000000000008000
(1485778778.549689) can0 010#0B07000000008048
(1485778778.549937) can0 130#50002000E0000000
(1485778778.550187) can0 138#007D8400780081FB
(1485778778.550436) can0 1A0#1F40000080000000
(1485778778.552077) can0 170#04000000D0000000
(1485778778.552323) can0 229#6000000000000000
(1485778778.552580) can0 2A0#0000000030000000
(1485778778.552959) can0 2A5#00000000100FF0FF
(1485778778.553086) can0 0A0#0000080000007FFC
(1485778778.553332) can0 0C8#DF873EF2E138C600
(1485778778.553604) can0 260#8882CD0DB561B800
(1485778778.554957) can0 0A5#007EEA7800A55800
(1485778778.557081) can0 160#55FF000057B3A5FF
(1485778778.557333) can0 180#03000DF51805F000
(1485778778.557606) can0 190#8000800080008000
(1485778778.557832) can0 1C0#77C0000080000000
(1485778778.558108) can0 090#0000C20061FD0000
(1485778778.558312) can0 0C0#0020000040000000
(1485778778.558562) can0 030#8003A180A000B207
(1485778778.558852) can0 1D0#A8FFFF0000000000
(1485778778.558962) can0 1E0#000000000000F4B3
(1485778778.559207) can0 200#F200B74C0000C000
(1485778778.559440) can0 210#00000000FB890000
(1485778778.559688) can0 010#0CF7000000008048
(1485778778.559936) can0 213#00FB00000FFF4FFF
(1485778778.560187) can0 252#0000000FFF200040
(1485778778.562062) can0 04A#02000018000000C0
(1485778778.562333) can0 04B#00D8D8D8D8D8C000
(1485778778.562960) can0 060#0000000000000000
(1485778778.563473) can0 150#A06F700000000000
(1485778778.566581) can0 0B0#00004381E68011C3
(1485778778.566957) can0 140#0000BC01000C3A24
(1485778778.567085) can0 190#8000800080008000
(1485778778.567331) can0 218#00008F003C7DC0D8
(1485778778.567957) can0 070#05A709F369F3F000
(1485778778.568207) can0 080#90007D00007FFCF7
(1485778778.568445) can0 030#8002A180A000B207
(1485778778.568726) can0 090#0000C20061FD0000
(1485778778.568959) can0 0A0#0000080000007FFB
(1485778778.569233) can0 0F8#000000000000104F
(1485778778.569477) can0 120#0000000000008000
(1485778778.569689) can0 010#0DE7000000008048
(1485778778.569937) can0 130#50002000E0000000
(1485778778.570186) can0 138#007D8400780081FB
(1485778778.570437) can0 1A0#1F40000080000000
(1485778778.570563) can0 1B0#4100000000403000
(1485778778.570939) can0 270#5E2F042100000000
(1485778778.571091) can0 280#C400008085254000
(1485778778.571314) can0 290#0600400100027702
(1485778778.571563) can0 2D8#0444808000000000
(1485778778.571936) can0 340#000000000300662F
(1485778778.572080) can0 40A#FF0C070100018048
(1485778778.572315) can0 170#04000000D0000000
(1485778778.572562) can0 208#7F032AE60080FF18
(1485778778.573439) can0 0C8#DF873AF2E138C600
(1485778778.574957) can0 0A5#007EE97800956800
(1485778778.575226) can0 1B5#000001D66AD0FFFC
(1485778778.575479) can0 298#0000001BD82B0800
(1485778778.575832) can0 269#00000529AA85FF00
(1485778778.577084) can0 160#55FF000057A3ADFF
(1485778778.577353) can0 180#03000DF71805F000
(1485778778.577576) can0 190#8000800080008000
(1485778778.577851) can0 1C0#77C0000080000000
(1485778778.578104) can0 060#0000000000000000
(1485778778.578314) can0 090#0000C20061FD0000
(1485778778.578562) can0 030#8002A180A000B207
(1485778778.578827) can0 0C0#0020000040000000
(1485778778.579064) can0 1D0#A8FFFF0000000000
(1485778778.579311) can0 1E0#000000000000F5A3
(1485778778.579563) can0 210#00000000FA8B0000
(1485778778.579687) can0 010#0ED7000000008048
(1485778778.579937) can0 213#00FA00000FFF5FFF
(1485778778.580188) can0 252#0000000FFF200040
(1485778778.580437) can0 260#8882CD0DB5E1B800
(1485778778.580691) can0 2D0#000001F47A905A85
(1485778778.582949) can0 0A0#0000080000007FFB
(1485778778.583195) can0 200#F200B74C0000C000
(1485778778.583445) can0 150#A06F500000000000
(1485778778.586584) can0 0B0#00004381E68011C3
(1485778778.586951) can0 140#0000BC01000D2A24
(1485778778.587083) can0 190#8000800080008000
(1485778778.587954) can0 070#05A709F269F2F000
(1485778778.588201) can0 080#90007D00007FFBF7
(1485778778.588453) can0 030#8002A180A000B207
(1485778778.588702) can0 090#0000C20061FD0000
(1485778778.588953) can0 0F8#000000000000104F
(1485778778.589202) can0 120#0000000000008000
(1485778778.589453) can0 130#50002000E0000000
(1485778778.589703) can0 010#0FC7000000008048
(1485778778.589939) can0 138#007D8400780081FA
(1485778778.590187) can0 1A0#1F40000080000000
(1485778778.591942) can0 170#04000000D0000000
(1485778778.592208) can0 229#6000000000000000
(1485778778.592478) can0 2A0#0000000030000000
(1485778778.592688) can0 2A5#00000000100FF0FF
(1485778778.592959) can0 060#0000000000000000
(1485778778.593324) can0 0C8#DF873EF2E138C600
(1485778778.594958) can0 0A5#007EE87800857800
(1485778778.597083) can0 160#55FF00005793B5FF
(1485778778.597325) can0 180#03000DF51805F000
(1485778778.597602) can0 190#8000800080008000
(1485778778.597856) can0 1C0#77C0000080000000
(1485778778.598082) can0 090#0000C20061FD0000
(1485778778.598353) can0 0A0#0000080000007FFB
(1485778778.598563) can0 030#8002A180A000B207
(1485778778.598687) can0 0C0#0020000040000000
(1485778778.598964) can0 1B0#4100000000403000
(1485778778.599188) can0 1D0#A8FFFF0000000000
(1485778778.599440) can0 1E0#000000000000F693
(1485778778.599702) can0 010#00B7000000008048
(1485778778.599956) can0 208#7F0D2AE60080FF18
(1485778778.600200) can0 210#00000000F98D0000
(1485778778.600451) can0 213#00F900000FFF6FFF
(1485778778.600701) can0 218#00008F003C7DC0D8
(1485778778.600938) can0 252#0000000FFF200040
(1485778778.601187) can0 270#5E2F042100000000
(1485778778.601437) can0 280#C400008085254000
(1485778778.601687) can0 290#8600400100027702
(1485778778.601936) can0 2D4#00000000E5FEFFFE
(1485778778.602203) can0 2F0#30B00080005F963A
(1485778778.603466) can0 150#A06F500000000000
(1485778778.603701) can0 260#8882D20DB561B800
(1485778778.605975) can0 269#000005295585FF00
(1485778778.606587) can0 0B0#00004381E68011C3
(1485778778.606850) can0 140#0000BC01000E1A24
(1485778778.607083) can0 190#8000800080008000
(1485778778.607959) can0 060#0000000000000000
(1485778778.608231) can0 070#05A709F269F2F000
(1485778778.608456) can0 030#8002A180A000B207
(1485778778.608700) can0 080#90007D00007FFBF7
(1485778778.608939) can0 090#0000C20061FD0000
(1485778778.609203) can0 0F8#000000000000104F
(1485778778.609439) can0 120#0000000000008000
(1485778778.609722) can0 010#01A7000000008048
(1485778778.609957) can0 130#50002000E0000000
(1485778778.610188) can0 138#007D8400780081FA
(1485778778.610437) can0 1A0#1F40000080000000
(1485778778.610686) can0 200#F200B74C0000C000
(1485778778.612062) can0 170#04000000D0000000
(1485778778.612939) can0 0A0#0000080000007FFB
(1485778778.613313) can0 0C8#DF873AF2E138C600
(1485778778.614937) can0 0A5#007EE77800758800
(1485778778.615208) can0 1B5#000001D66AD0FFFC
(1485778778.615448) can0 298#0000001BD82B0800
(1485778778.617082) can0 160#55FF00005783BDFF
(1485778778.617333) can0 180#03000DF51804F000
(1485778778.617607) can0 190#8000800080008000
(1485778778.617833) can0 1C0#77C0000080000000
(1485778778.618081) can0 090#0000C1FF61FC0000
(1485778778.618352) can0 0C0#0020000040000000
(1485778778.618462) can0 030#8003A180A000B207
(1485778778.618833) can0 1D0#A8FFFF0000000000
(1485778778.618962) can0 1E0#000000000000F783
(1485778778.619209) can0 210#00000000F88F0000
(1485778778.619439) can0 213#00F800000FFF7FFF
(1485778778.619687) can0 010#0297000000008048
(1485778778.619937) can0 252#0000000FFF200040
(1485778778.620188) can0 2D0#000001F37B905A85
(1485778778.622312) can0 208#7F0A2AE60080FF18
(1485778778.622946) can0 060#0000000000000000
(1485778778.623227) can0 150#A06F500000000000
(1485778778.626581) can0 0B0#00004381E68011C3
(1485778778.626957) can0 140#0000BC01000F0A24
(1485778778.627085) can0 190#8000800080008000
(1485778778.627346) can0 218#00008F003C7DC0D8
(1485778778.627960) can0 070#05A709F269F2F000
(1485778778.628227) can0 080#90007D00007FFBF7
(1485778778.628456) can0 030#800AE1A0E000B287
(1485778778.628726) can0 090#0000C1FF61FC0000
(1485778778.628957) can0 0A0#0000080000007FFC
(1485778778.629199) can0 0F8#000000000000104F
(1485778778.629481) can0 120#0000000000008000
(1485778778.629690) can0 010#0387000000008048
(1485778778.629938) can0 130#50002000E0000000
(1485778778.630063) can0 138#007D8400780081FA
(1485778778.630312) can0 17E#C010004000200000
(1485778778.630590) can0 1A0#1F40000080000000
(1485778778.630939) can0 1B0#4100000000403000
(1485778778.631062) can0 260#8882D20DB6E1B800
(1485778778.631313) can0 270#5E2F042100000000
(1485778778.631562) can0 280#C400008085254000
(1485778778.631813) can0 290#0600400100027702
(1485778778.632062) can0 170#04000000D0000000
(1485778778.632313) can0 2D8#0444808000000000
(1485778778.632562) can0 229#6000000000000000
(1485778778.632815) can0 380#5394FCA96000C0A9
(1485778778.633062) can0 200#F200B74C0000C000
(1485778778.633312) can0 2A0#0000000030000000
(1485778778.633563) can0 0C8#DF873EF6E138C600
(1485778778.633812) can0 2A5#00000000100FF0FF
(1485778778.633938) can0 310#D94430602D450074
(1485778778.634188) can0 360#C0C03F003C7DBCB7
(1485778778.634437) can0 3B4#401111FF00000000
(1485778778.634688) can0 435#B243B9D276EFB3C4
(1485778778.635953) can0 269#000005295585FF00
(1485778778.636076) can0 0A5#007EE67800659800
(1485778778.637065) can0 160#55FF00005773C5FF
(1485778778.637356) can0 180#03000DF51805F000
(1485778778.637608) can0 190#8000800080008000
(1485778778.637846) can0 1C0#77C0000080000000
(1485778778.638077) can0 060#0000000000000000
(1485778778.638315) can0 090#0000C1FF61FC0000
(1485778778.638563) can0 030#8002A180A000B207
(1485778778.638812) can0 0C0#0020000040000000
(1485778778.639062) can0 1D0#A8FFFF0000000000
(1485778778.639313) can0 1E0#000000000000F873
(1485778778.639564) can0 210#00000000F7910000
(1485778778.639813) can0 010#0477000000008048
(1485778778.639937) can0 213#00F700000FFF8FFF
(1485778778.640187) can0 252#0000000FFF200040
(1485778778.642939) can0 0A0#0000080000007FFB
(1485778778.643206) can0 150#A06F500000000000
(1485778778.644209) can0 455#0000000000000000
(1485778778.646588) can0 0B0#00004381E68011C3
(1485778778.646831) can0 140#0000BC010000FA24
(1485778778.647082) can0 190#8000800080008000
(1485778778.647461) can0 208#7F0A3AF66F80FF98
(1485778778.647952) can0 070#05A709F269F2F000
(1485778778.648226) can0 080#90007D00007FFBF7
(1485778778.648477) can0 030#8002A180A000B207
(1485778778.648728) can0 090#0000C1FF61FC0000
(1485778778.648980) can0 0F8#000000000000104F
(1485778778.649190) can0 120#0000000000008000
(1485778778.649437) can0 130#50002000E0000000
(1485778778.649727) can0 010#0567000000008048
(1485778778.649940) can0 138#007D8400780081FA
(1485778778.650188) can0 1A0#1F40000080000000
(1485778778.650312) can0 405#023933003B003C7D
(1485778778.651937) can0 170#04000000D0000000
(1485778778.652959) can0 060#0000000000000000
(1485778778.653457) can0 0C8#DF873AF2E138C600
(1485778778.653580) can0 260#8882D20DB561B800
(1485778778.655958) can0 0A5#007EE5780055A800
(1485778778.656228) can0 1B5#000001D66AD0FFFC
(1485778778.656483) can0 298#0000001BD82B0800
(1485778778.657080) can0 160#55FF00005763CDFF
(1485778778.657352) can0 180#03000DF41805F000
(1485778778.657602) can0 190#8000800080008000
(1485778778.657834) can0 1C0#77C0000080000000
(1485778778.658071) can0 090#0000C20061FE0000
(1485778778.658315) can0 0A0#0000080000007FFA
(1485778778.658562) can0 030#8002A180A000B207
(1485778778.658696) can0 0C0#0020000040000000
(1485778778.658973) can0 1B0#4100000000403000
(1485778778.659205) can0 1D0#A8FFFF0000000000
(1485778778.659441) can0 1E0#000000000000F963
(1485778778.659689) can0 010#0657000000008048
(1485778778.659937) can0 200#F200B74C0000C000
(1485778778.660187) can0 210#00000000F6930000
(1485778778.660437) can0 213#00F600000FFF9FFF
(1485778778.660688) can0 218#00008F003C7DC0D8
(1485778778.660937) can0 252#0000000FFF200040
(1485778778.661188) can0 270#5E2F042100000000
(1485778778.661437) can0 280#C400008085254000
(1485778778.661688) can0 290#8600400100027702
(1485778778.661937) can0 2D0#000001F27C905A85
(1485778778.662187) can0 2D4#00000000E5FEFFFE
(1485778778.663440) can0 150#A06F500000000000
(1485778778.665937) can0 269#000005295585FF00
(1485778778.666565) can0 0B0#00004381E68011C3
(1485778778.666957) can0 140#0000BC010001EA24
(1485778778.667086) can0 190#8000800080008000
(1485778778.667953) can0 060#0000000000000000
(1485778778.668228) can0 030#8002A180A000B207
(1485778778.668459) can0 070#05A709F269F2F000
(1485778778.668732) can0 080#90007D00007FFBF7
(1485778778.668959) can0 090#0000C20061FE0000
(1485778778.669231) can0 0F8#000000000000104F
(1485778778.669459) can0 120#0000000000008000
(1485778778.669725) can0 010#0747000000008048
(1485778778.669938) can0 130#50002000E0000000
(1485778778.670187) can0 138#007D8400780081FA
(1485778778.670438) can0 1A0#1F40000080000000
(1485778778.671947) can0 170#04000000D0000000
(1485778778.672227) can0 229#6000000000000000
(1485778778.672459) can0 2A0#0000000030000000
(1485778778.672730) can0 208#7F072AE60080FF18
(1485778778.672958) can0 0A0#0000080000007FFA
(1485778778.673233) can0 2A5#00000000100FF0FF
(1485778778.673465) can0 0C8#DF873EF2E138C600
(1485778778.675938) can0 0A5#007EE4780045B800
(1485778778.677064) can0 160#55FF00005753D5FD
(1485778778.677313) can0 180#03000DF51805F000
(1485778778.677596) can0 190#8000800080008000
(1485778778.677833) can0 1C0#77C0000080000000
(1485778778.678078) can0 090#0000C20061FE0000
(1485778778.678355) can0 0C0#0020000040000000
(1485778778.678584) can0 030#8003A180A000B207
(1485778778.678712) can0 1D0#A8FFFF0000000000
(1485778778.678962) can0 1E0#000000000000FA53
(1485778778.679202) can0 210#00000000F5950000
(1485778778.679440) can0 213#00F500000FFFAFFF
(1485778778.679688) can0 010#0837000000008048
(1485778778.679937) can0 252#0000000FFF200040
(1485778778.680188) can0 260#8882D20DB5E1B800
(1485778778.682939) can0 060#0000000000000000
(1485778778.683208) can0 200#F200B74C0000C000
(1485778778.683481) can0 150#A06F500000000000
(1485778778.686587) can0 0B0#00004381E68011C3
(1485778778.686852) can0 140#0000BC010002DA24
(1485778778.687102) can0 190#8000800080008000
(1485778778.687352) can0 218#00008F003C7DC0D8
(1485778778.687946) can0 070#05A709F269F2F000
(1485778778.688229) can0 080#90007D00007FFBF7
(1485778778.688441) can0 030#8002A180A000B207
(1485778778.688688) can0 090#0000C20061FE0000
(1485778778.688958) can0 0A0#0000080000007FFA
(1485778778.689194) can0 0F8#000000000000104F
(1485778778.689478) can0 120#0000000000008000
(1485778778.689733) can0 010#0927000000008048
(1485778778.689980) can0 130#50002000E0000000
(1485778778.690079) can0 138#007D8400780081FA
(1485778778.690315) can0 1A0#1F40000080000000
(1485778778.690563) can0 1B0#4100000000403000
(1485778778.690943) can0 270#5E2F042100000000
(1485778778.691067) can0 280#C400008085254000
(1485778778.691313) can0 290#0600C00100027702
(1485778778.691563) can0 2D8#0444808000000000
(1485778778.691813) can0 2F0#30B00080005F963A
(1485778778.692062) can0 340#000000000300662F
(1485778778.692313) can0 170#04000000D0000000
(1485778778.693440) can0 0C8#DF873AF6E138C600
(1485778778.693707) can0 40A#FF0D220032150003
(1485778778.695958) can0 269#00000529AA85FF00
(1485778778.696065) can0 0A5#007EE3780035C800
(1485778778.696328) can0 1B5#000001D66AD0FFFC
(1485778778.696586) can0 298#0000001BD82B0800
(1485778778.697083) can0 160#55FF00005743DDFF
(1485778778.697352) can0 180#03000DF61803F000
(1485778778.697604) can0 190#8000800080008000
(1485778778.697853) can0 1C0#77C0000080000000
(1485778778.698076) can0 060#0000000000000000
(1485778778.698352) can0 090#0000C1FF61FD0000
(1485778778.698565) can0 030#8002A180A000B207
(1485778778.698813) can0 0C0#0020000040000000
(1485778778.699062) can0 1D0#A8FFFF0000000000
(1485778778.699313) can0 1E0#000000000000FB43
(1485778778.699442) can0 208#7F062AE60080FF18
(1485778778.699688) can0 010#0A17000000008048
(1485778778.699939) can0 210#00000000F4970000
(1485778778.700188) can0 213#00F400000FFFBFFF
(1485778778.700438) can0 252#0000000FFF200040
(1485778778.700688) can0 2D0#000001F17D905A85
(1485778778.703061) can0 0A0#0000080000007FFB
(1485778778.703458) can0 150#A06F500000000000
(1485778778.703729) can0 260#8882D20DB561B800
(1485778778.706585) can0 0B0#00004381E68011C3
(1485778778.706853) can0 140#0000BC010003CA24
(1485778778.707087) can0 190#8000800080008000
(1485778778.707959) can0 070#05A709F269F2F000
(1485778778.708232) can0 080#90007D00007FFBF7
(1485778778.708459) can0 030#800AE180E000B287
(1485778778.708730) can0 090#0000C1FF61FD0000
(1485778778.708939) can0 0F8#000000000000104F
(1485778778.709188) can0 120#0000000000008000
(1485778778.709437) can0 130#50002000E0000000
(1485778778.709727) can0 010#0B07000000008048
(1485778778.709959) can0 138#007D8400780081F9
(1485778778.710071) can0 1A0#1F40000080000000
(1485778778.710338) can0 200#F200B74D0000C000
(1485778778.712085) can0 170#04000000D0000000
(1485778778.712333) can0 229#6000000000000000
(1485778778.712585) can0 2A0#0000000030000000
(1485778778.712961) can0 2A5#00000000100FF0FF
(1485778778.713087) can0 060#0000000000000000
(1485778778.713327) can0 0C8#DF873EF2E138C600
(1485778778.715982) can0 0A5#007EE2780025D800
(1485778778.717095) can0 160#55FF00005733E5FD
(1485778778.717335) can0 180#03000DF41805F000
(1485778778.717603) can0 190#8000800080008000
(1485778778.717853) can0 1C0#77C0000080000000
(1485778778.718104) can0 090#0000C1FF61FD0000
(1485778778.718357) can0 0A0#0000080000007FFB
(1485778778.718566) can0 030#8002A180A000B207
(1485778778.718814) can0 0C0#0020000040000000
(1485778778.718938) can0 1B0#4100000000403000
(1485778778.719188) can0 1D0#A8FFFF0000000000
(1485778778.719439) can0 1E0#000000000000FC33
(1485778778.719705) can0 010#0CF7000000008048
(1485778778.719951) can0 210#00000000F3990000
(1485778778.720204) can0 213#00F300000FFFCFFF
(1485778778.720451) can0 218#00008F003C7DC0D8
(1485778778.720691) can0 252#0000000FFF200040
(1485778778.720938) can0 270#5E2F042100000000
(1485778778.721189) can0 280#C400008085254000
(1485778778.721438) can0 290#0600400100027702
(1485778778.721688) can0 2D4#00000000E5FEFFFE
(1485778778.721938) can0 400#1700000100010000
(1485778778.722563) can0 208#7F092AE60080FF18
(1485778778.723328) can0 150#A06F500000000000
(1485778778.725941) can0 269#00000529AA85FF00
(1485778778.726586) can0 0B0#00004381E68011C3
(1485778778.726825) can0 140#0000BC010004BA24
(1485778778.727084) can0 190#8000800080008000
(1485778778.727960) can0 060#0000000000000000
(1485778778.728202) can0 070#05A709F269F2F000
(1485778778.728480) can0 030#8002A180A000B207
(1485778778.728725) can0 080#90007D00007FFBF7
(1485778778.728960) can0 090#0000C1FF61FD0000
(1485778778.729190) can0 0F8#000000000000104F
(1485778778.729438) can0 120#0000000000008000
(1485778778.729703) can0 010#0DE7000000008048
(1485778778.729952) can0 130#50002000E0000000
(1485778778.730064) can0 138#007D8400780081F9
(1485778778.730313) can0 17E#C010004000228000
(1485778778.730564) can0 1A0#1F40000080000000
(1485778778.730939) can0 260#8882D20DB661B800
(1485778778.731938) can0 170#04000000D0000000
(1485778778.732965) can0 0A0#0000080000007FFB
(1485778778.733197) can0 200#F200B74D0000C000
(1485778778.733480) can0 0C8#DF873AF2E138C600
(1485778778.733708) can0 310#D94430602D450074
(1485778778.735959) can0 0A5#007EE1780015E800
(1485778778.736233) can0 1B5#000001D66AD0FFFC
(1485778778.736462) can0 298#0000001BD82B0800
(1485778778.737080) can0 160#55FF00005723EDFD
(1485778778.737357) can0 180#03000DF51803F000
(1485778778.737566) can0 190#8000800080008000
(1485778778.737814) can0 1C0#77C0000080000000
(1485778778.738077) can0 090#0000C1FE61FB0000
(1485778778.738329) can0 0C0#0020000040000000
(1485778778.738566) can0 030#8003A180A000B207
(1485778778.738853) can0 1D0#A8FFFF0000000000
(1485778778.738961) can0 1E0#000000000000FD23
(1485778778.739191) can0 210#00000000F29B0000
(1485778778.739439) can0 213#00F200000FFFDFFF
(1485778778.739689) can0 010#0ED7000000008048
(1485778778.739938) can0 252#0000000FFF200040
(1485778778.740188) can0 2D0#000001F07E905A85
(1485778778.742940) can0 060#0000000000000000
(1485778778.743218) can0 150#A06F500000000000
(1485778778.744209) can0 455#0000000000000000
(1485778778.746568) can0 0B0#00004381E68011C3
(1485778778.746853) can0 140#0000BC010005AA24
(1485778778.747105) can0 190#8000800080008000
(1485778778.747327) can0 218#00008F003C7DC0D8
(1485778778.747714) can0 208#7F053AF66F80FF98
(1485778778.747956) can0 070#05A709F269F2F000
(1485778778.748221) can0 080#90007D00007FFBF7
(1485778778.748460) can0 030#8002A180A000B207
(1485778778.748690) can0 090#0000C1FE61FB0000
(1485778778.748939) can0 0A0#0000080000007FFC
(1485778778.749210) can0 0F8#000000000000104F
(1485778778.749451) can0 120#0000000000008000
(1485778778.749711) can0 010#0FC7000000008048
(1485778778.749941) can0 130#50002000E0000000
(1485778778.750189) can0 138#007D8400780081F9
(1485778778.750438) can0 1A0#1F40000080000000
(1485778778.750689) can0 1B0#4100000000403000
(1485778778.750939) can0 270#5E2F042100000000
(1485778778.751189) can0 280#C400008085254000
(1485778778.751438) can0 290#8600400100027502
(1485778778.751688) can0 2D8#0444808000000000
(1485778778.751939) can0 170#04000000D0000000
(1485778778.752188) can0 229#6000000000000000
(1485778778.752439) can0 2A0#0000000030000000
(1485778778.752688) can0 2A5#00000000100FF0FF
(1485778778.753564) can0 0C8#DF873EF6E138C600
(1485778778.753814) can0 260#8882D20DB5E1B800
(1485778778.755939) can0 269#00000529AA85FF00
(1485778778.756064) can0 0A5#007EE0780005F800
(1485778778.757084) can0 160#55FF00005713F5FF
(1485778778.757354) can0 180#03000DF61805F000
(1485778778.757585) can0 190#8000800080008000
(1485778778.757854) can0 1C0#77C0000080000000
(1485778778.758083) can0 060#0000000000000000
(1485778778.758337) can0 090#0000C1FE61FB0000
(1485778778.758566) can0 030#8002A180A000B207
(1485778778.758814) can0 0C0#0020000040000000
(1485778778.759063) can0 1D0#A8FFFF0000000000
(1485778778.759188) can0 1E0#000000000000FE13
(1485778778.759453) can0 200#F200B74D0000C000
(1485778778.759689) can0 010#00B7000000008048
(1485778778.759939) can0 210#00000000F19D0000
(1485778778.760188) can0 213#00F100000FFFEFFF
(1485778778.760439) can0 252#0000000FFF200040
(1485778778.762941) can0 0A0#0000080000007FFC
(1485778778.763459) can0 150#A06F500000000000
(1485778778.766585) can0 0B0#00004381E68011C3
(1485778778.766834) can0 140#0000BC0100069A24
(1485778778.767107) can0 190#8000800080008000
(1485778778.767979) can0 070#05A709F269F2F000
(1485778778.768208) can0 080#90007D00007FFBF7
(1485778778.768483) can0 030#8002A180A000B207
(1485778778.768709) can0 090#0000C1FE61FB0000
(1485778778.768976) can0 0F8#000000000000104F
(1485778778.769192) can0 120#0000000000008000
(1485778778.769439) can0 130#50002000E0000000
(1485778778.769690) can0 010#01A7000000008048
(1485778778.769954) can0 138#007D8400780081F9
(1485778778.770083) can0 1A0#1F40000080000000
(1485778778.772072) can0 170#04000000D0000000
(1485778778.772722) can0 208#7F072AE60080FF18
(1485778778.772961) can0 060#0000000000000000
(1485778778.773334) can0 0C8#DF873AF2E138C600
(1485778778.775963) can0 0A5#007EEF7800F50800
(1485778778.776209) can0 1B5#000001D66AD0FFFC
(1485778778.776485) can0 298#0000001BD82B0800
(1485778778.777083) can0 160#55FF00005703FDFD
(1485778778.777351) can0 180#03000DF41803F000
(1485778778.777604) can0 190#8000800080008000
(1485778778.777826) can0 1C0#77C0000080000000
(1485778778.778104) can0 090#0000C1FF61FA0000
(1485778778.778316) can0 0A0#0000080000007FFC
(1485778778.778564) can0 030#8002A180A000B207
(1485778778.778814) can0 0C0#0020000040000000
(1485778778.778948) can0 1B0#4100000000403000
(1485778778.779190) can0 1D0#A8FFFF0000000000
(1485778778.779438) can0 1E0#000000000000FF03
(1485778778.779689) can0 010#0297000000008048
(1485778778.779939) can0 210#00000000F09F0000
(1485778778.780189) can0 213#00F000000FFFFFFF
(1485778778.780438) can0 218#00008F003C7DC0D8
(1485778778.780689) can0 252#0000000FFF200040
(1485778778.780938) can0 260#8882D20DB561B800
(1485778778.781190) can0 270#5E2F042100000000
(1485778778.781439) can0 280#C400008085244000
(1485778778.781689) can0 290#0600400100027502
(1485778778.781939) can0 2D0#000001EF7F905A85
(1485778778.782187) can0 2D4#00000000E5FEFFFE
(1485778778.782439) can0 2F0#30B00080005F963A
(1485778778.782941) can0 200#F200B74D0000C000
(1485778778.783439) can0 150#A06F500000000000
(1485778778.783689) can0 360#C0C03F003C7DB8B7
(1485778778.785949) can0 269#000005295585FF00
(1485778778.786589) can0 0B0#00004381E68011C3
(1485778778.786853) can0 140#0000BC0100078A24
(1485778778.787104) can0 190#8000800080008000
(1485778778.788209) can0 030#800AE180E000B287
(1485778778.788459) can0 060#0000000000000000
(1485778778.788709) can0 070#05A709F369F3F000
(1485778778.788958) can0 080#90007D00007FFCF7
(1485778778.789208) can0 090#0000C1FF61FA0000
(1485778778.789442) can0 0F8#000000000000104F
(1485778778.789689) can0 010#0387000000008048
(1485778778.789939) can0 120#0000000000008000
(1485778778.790189) can0 130#50002000E0000000
(1485778778.790440) can0 138#007D8400780081F8
(1485778778.790689) can0 1A0#1F40000080000000
(1485778778.791948) can0 170#04000000D0000000
(1485778778.792229) can0 229#6000000000000000
(1485778778.792442) can0 2A0#0000000030000000
(1485778778.792689) can0 2A5#00000000100FF0FF
(1485778778.792941) can0 0A0#0000080000007FFC
(1485778778.793315) can0 0C8#DF873EF2E138C600
(1485778778.795939) can0 0A5#007EEE7800E51800
(1485778778.797085) can0 160#55FF000057F385FD
(1485778778.797355) can0 180#03000DF51805F000
(1485778778.797608) can0 190#8000800080008000
(1485778778.797827) can0 1C0#77C0000080000000
(1485778778.798104) can0 090#0000C1FF61FA0000
(1485778778.798335) can0 0C0#0020000040000000
(1485778778.798462) can0 030#8003A180A000B207
(1485778778.798710) can0 1D0#A8FFFF0000000000
(1485778778.798958) can0 1E0#000000000000F0F3
(1485778778.799209) can0 208#7F032AE60080FF18
(1485778778.799442) can0 210#00000000FF810000
(1485778778.799690) can0 010#0477000000008048
(1485778778.799939) can0 213#00FF00000FFF0FFF
(1485778778.800189) can0 252#0000000FFF200040
(1485778778.802956) can0 060#0000000000000000
(1485778778.803330) can0 150#A06F500000000000
(1485778778.803608) can0 260#8882D20DB6E1B800
(1485778778.806583) can0 0B0#00004381E68011C3
(1485778778.806854) can0 140#0000BC0100087A24
(1485778778.807084) can0 190#8000800080008000
(1485778778.807355) can0 218#00008F003C7DC0D8
(1485778778.808333) can0 030#8002A180A000B207
(1485778778.808608) can0 070#05A709F369F3F000
(1485778778.808836) can0 080#90007D00007FFCF7
(1485778778.808941) can0 090#0000C1FF61FB0000
(1485778778.809341) can0 0A0#0000080000007FFC
(1485778778.809457) can0 0F8#000000000000104F
(1485778778.809728) can0 010#0567000000008048
(1485778778.810080) can0 120#0000000000008000
(1485778778.810204) can0 130#50002000E0000000
(1485778778.810454) can0 138#007D8400780081F8
(1485778778.810705) can0 1A0#1F40000080000000
(1485778778.810955) can0 1B0#4100000000403000
(1485778778.811209) can0 200#F200B74E0000C000
(1485778778.811442) can0 270#5E2F042100000000
(1485778778.811689) can0 280#C400008085244000
(1485778778.811939) can0 290#0600400100027502
(1485778778.812189) can0 170#04000000D0000000
(1485778778.812440) can0 2D8#0444808000000000
(1485778778.812689) can0 340#000000000300662F
(1485778778.813192) can0 0C8#DF873AF6E138C600
(1485778778.815942) can0 269#000005295585FF00
(1485778778.816079) can0 0A5#007EED7800D52800
(1485778778.816346) can0 1B5#000001D66AD0FFFC
(1485778778.816585) can0 298#0000001BD82B0800
(1485778778.817085) can0 160#55FF000057E38DFF
(1485778778.817354) can0 180#03000DF51803F000
(1485778778.817606) can0 190#8000800080008000
(1485778778.817854) can0 1C0#77C0000080000000
(1485778778.818083) can0 060#0000000000000000
(1485778778.818317) can0 090#0000C1FF61FB0000
(1485778778.818564) can0 030#8002A180A000B207
(1485778778.818815) can0 0C0#0020000040000000
(1485778778.818940) can0 1D0#A8FFFF0000000000
(1485778778.819189) can0 1E0#000000000000F1E3
(1485778778.819440) can0 210#00000000FE830000
(1485778778.819689) can0 010#0657000000008048
(1485778778.819940) can0 213#00FE00000FFF1FFF
(1485778778.820189) can0 252#0000000FFF200040
(1485778778.820439) can0 2D0#000001FE70905A85
(1485778778.820689) can0 40A#FF0E00880881D044
(1485778778.822941) can0 208#7F062AE60080FF18
(1485778778.823065) can0 0A0#0000080000007FFC
(1485778778.823337) can0 150#A06F500000000000
(1485778778.826577) can0 0B0#00004381E68011C3
(1485778778.826859) can0 140#0000BC0100096A24
(1485778778.827085) can0 190#8000800080008000
(1485778778.828213) can0 070#05A709F369F3F000
(1485778778.828472) can0 030#8002A180A000B207
(1485778778.828709) can0 080#90007D00007FFCF7
(1485778778.828943) can0 090#0000C1FF61FB0000
(1485778778.829206) can0 0F8#000000000000104F
(1485778778.829460) can0 120#0000000000008000
(1485778778.829564) can0 010#0747000000008048
(1485778778.829959) can0 130#50002000E0000000
(1485778778.830085) can0 138#007D8400780081F8
(1485778778.830334) can0 17E#C010004000200000
(1485778778.830567) can0 1A0#1F40000080000000
(1485778778.830814) can0 260#8882D20DB561B800
(1485778778.832065) can0 170#04000000D0000000
(1485778778.832335) can0 229#6000000000000000
(1485778778.832585) can0 2A0#0000000030000000
(1485778778.832825) can0 2A5#00000000100FF0FF
(1485778778.833104) can0 060#0000000000000000
(1485778778.833317) can0 0C8#DF873EF2E138C600
(1485778778.833564) can0 200#F200B74E0000C000
(1485778778.833815) can0 310#D94430602D450074
(1485778778.835939) can0 0A5#007EEC7800C53800
(1485778778.837087) can0 160#55FF000057D395FD
(1485778778.837335) can0 180#03000DF31804F000
(1485778778.837576) can0 190#8000800080008000
(1485778778.837856) can0 1C0#77C0000080000000
(1485778778.838088) can0 090#0000C1FF61FB0000
(1485778778.838354) can0 0A0#0000080000007FFC
(1485778778.838463) can0 030#8002A180A000B207
(1485778778.838720) can0 0C0#0020000040000000
(1485778778.838941) can0 1B0#4100000000403000
(1485778778.839190) can0 1D0#A8FFFF0000000000
(1485778778.839439) can0 1E0#000000000000F2D3
(1485778778.839690) can0 010#0837000000008048
(1485778778.839939) can0 210#00000000FD850000
(1485778778.840190) can0 213#00FD00000FFF2FFF
(1485778778.840439) can0 218#00008F003C7DC0D8
(1485778778.840690) can0 252#0000000FFF200040
(1485778778.840939) can0 270#5E2F042100000000
(1485778778.841189) can0 280#C400008085244000
(1485778778.841440) can0 290#8600400100027502
(1485778778.841689) can0 2D4#00000000E5FEFFFE
(1485778778.843319) can0 581#8100FFFFFFFFFFFF
(1485778778.843565) can0 150#A06F700000000000
(1485778778.844315) can0 3DA#0000000000000000
(1485778778.844689) can0 3E2#0000000000000000
(1485778778.844952) can0 3EA#0000000000006000
(1485778778.845335) can0 455#0000000000000000
(1485778778.845961) can0 269#000005295585FF00
(1485778778.846587) can0 0B0#00004381E68011C3
(1485778778.846713) can0 140#0000BC01000A5A24
(1485778778.847083) can0 190#8000800080008000
(1485778778.847972) can0 060#0000000000000000
(1485778778.848211) can0 070#05A709F369F3F000
(1485778778.848480) can0 030#8002A180A000B207
(1485778778.848711) can0 080#90007D00007FFCF7
(1485778778.848982) can0 090#0000C1FF61F90000
(1485778778.849211) can0 0F8#000000000000104F
(1485778778.849483) can0 120#0000000000008000
(1485778778.849692) can0 010#0927000000008048
(1485778778.849940) can0 130#50002000E0000000
(1485778778.850064) can0 138#007D8400780081F8
(1485778778.850314) can0 1A0#1F40000080000000
(1485778778.850565) can0 208#7F063AF66F80FF98
(1485778778.851955) can0 170#04000000D0000000
(1485778778.852962) can0 0A0#0000080000007FFC
(1485778778.853331) can0 0C8#DF873AF2E138C600
(1485778778.853586) can0 260#8882D20DB561B800
(1485778778.855943) can0 0A5#007EEB7800B54800
(1485778778.856208) can0 1B5#000001D66AD0FFFC
(1485778778.856449) can0 298#0000001BD82B0800
(1485778778.857083) can0 160#55FF000057C39DFD
(1485778778.857350) can0 180#03000DF61804F000
(1485778778.857607) can0 190#8000800080008000
(1485778778.857859) can0 1C0#77C0000080000000
(1485778778.857957) can0 090#0000C1FF61F90000
(1485778778.858208) can0 0C0#0020000040000000
(1485778778.858460) can0 030#800BE180E000B287
(1485778778.858707) can0 1D0#A8FFFF0000000000
(1485778778.858958) can0 1E0#000000000000F3C3
(1485778778.859210) can0 200#F200B74E0000C000
(1485778778.859480) can0 210#00000000FC870000
(1485778778.859692) can0 010#0A17000000008048
(1485778778.859940) can0 213#00FC00000FFF3FFF
(1485778778.860189) can0 252#0000000FFF200040
(1485778778.860439) can0 2D0#000001FD71905A85
(1485778778.862942) can0 060#0000000000000000
(1485778778.863335) can0 150#A06F500000000000
(1485778778.866576) can0 0B0#00004381E68011C3
(1485778778.866854) can0 140#0000BC01000B4A24
(1485778778.867104) can0 190#8000800080008000
(1485778778.867355) can0 218#00008F003C7DC0D8
(1485778778.867960) can0 070#05A709F369F3F000
(1485778778.868230) can0 080#90007D00007FFCF7
(1485778778.868455) can0 030#8002A180A000B207
(1485778778.868579) can0 090#0000C1FF61F90000
(1485778778.868957) can0 0A0#0000080000007FFD
(1485778778.869230) can0 0F8#000000000000104F
(1485778778.869328) can0 120#0000000000008000
(1485778778.869585) can0 010#0B07000000008048
(1485778778.869959) can0 130#50002000E0000000
(1485778778.870088) can0 138#007D8400780081F8
(1485778778.870337) can0 1A0#1F40000080000000
(1485778778.870578) can0 1B0#4100000000403000
(1485778778.870960) can0 270#5E2F042100000000
(1485778778.871085) can0 280#C400007F85244000
(1485778778.871330) can0 290#0600400100027502
(1485778778.871578) can0 2D8#0444808000000000
(1485778778.871829) can0 2F0#30B0007F005F963A
(1485778778.872080) can0 170#04000000D0000000
(1485778778.872327) can0 229#6000000000000000
(1485778778.872580) can0 2A0#0000000030000000
(1485778778.872832) can0 2A5#00000000100FF0FF
(1485778778.873067) can0 208#7F092AE60080FF18
(1485778778.873439) can0 0C8#DF873EF6E138C600
(1485778778.875941) can0 269#000005295585FF00
(1485778778.876940) can0 0A5#007EEA7800A55800
(1485778778.877210) can0 160#55FF000057B3A5FD
(1485778778.877485) can0 180#03000DF51804F000
(1485778778.877711) can0 190#8000800080008000
(1485778778.877987) can0 1C0#77C0000080000000
(1485778778.878209) can0 060#0000000000000000
(1485778778.878338) can0 030#8002A180A000B207
(1485778778.878578) can0 090#0000C1FF61F90000
(1485778778.878960) can0 0C0#0020000040000000
(1485778778.879089) can0 1D0#A8FFFF0000000000
(1485778778.879335) can0 1E0#000000000000F4B3
(1485778778.879569) can0 010#0CF7000000008048
(1485778778.879940) can0 210#00000000FB890000
(1485778778.880066) can0 213#00FB00000FFF4FFF
(1485778778.880315) can0 252#0000000FFF200040
(1485778778.880566) can0 260#8882D20DB6E1B800
(1485778778.882944) can0 0A0#0000080000007FFD
(1485778778.883229) can0 200#F200B74F0000C000
(1485778778.883460) can0 150#A06F500000000000
(1485778778.886475) can0 0B0#00004381E68011C3
(1485778778.886709) can0 140#0000BC01000C3A24
(1485778778.887104) can0 190#8000800080008000
(1485778778.887961) can0 070#05A709F369F3F000
(1485778778.888210) can0 030#8002A180A000B207
(1485778778.888479) can0 080#90007D00007FFCF7
(1485778778.888712) can0 090#0000C1FF61FA0000
(1485778778.888960) can0 0F8#000000000000104F
(1485778778.889209) can0 120#0000000000008000
(1485778778.889442) can0 130#50002000E0000000
(1485778778.889730) can0 010#0DE7000000008048
(1485778778.889942) can0 138#007D8400780081F8
(1485778778.890190) can0 1A0#1F40000080000000
(1485778778.891940) can0 170#04000000D0000000
(1485778778.892968) can0 060#0000000000000000
(1485778778.893335) can0 0C8#DF873AF2E138C600
(1485778778.896957) can0 0A5#007EE97800956800
(1485778778.897226) can0 160#55FF000057A3ADFD
(1485778778.897479) can0 180#03000DF41804F000
(1485778778.897731) can0 190#8000800080008000
(1485778778.897979) can0 1B5#000001D66AD0FFFC
(1485778778.898078) can0 090#0000C1FF61FA0000
(1485778778.898338) can0 0A0#0000080000007FFC
(1485778778.898585) can0 030#8002A180A000B207
(1485778778.898958) can0 0C0#0020000040000000
(1485778778.899079) can0 1B0#4100000000403000
(1485778778.899333) can0 1C0#77C0000080000000
(1485778778.899587) can0 010#0ED7000000008048
(1485778778.899958) can0 1D0#A8FFFF0000000000
(1485778778.900082) can0 1E0#000000000000F5A3
(1485778778.900317) can0 208#7F0A2AE60080FF18
(1485778778.900565) can0 210#00000000FA8B0000
(1485778778.900815) can0 213#00FA00000FFF5FFF
(1485778778.901064) can0 218#00008F003C7DC0D8
(1485778778.901344) can0 252#0000000FFF200040
(1485778778.901566) can0 270#5E2F042100000000
(1485778778.901815) can0 280#C400007F85244000
(1485778778.902066) can0 290#8600400100027502
(1485778778.903518) can0 298#0000001BD82B0800
(1485778778.903524) can0 2D0#000001FC72905A85
(1485778778.903527) can0 2D4#00000000E5FEFFFE
(1485778778.903530) can0 405#0000000000000000
(1485778778.903532) can0 150#A06F500000000000
(1485778778.903666) can0 260#8882D20DB561B800
(1485778778.906077) can0 269#00000529AA85FF00
(1485778778.906576) can0 0B0#00004381E68011C3
(1485778778.906705) can0 140#0000BC01000D2A24
(1485778778.907081) can0 190#8000800080008000
(1485778778.907961) can0 060#0000000000000000
(1485778778.908227) can0 070#05A709F369F3F000
(1485778778.908443) can0 030#8002A180A000B207
(1485778778.908729) can0 080#90007D00007FFCF7
(1485778778.908955) can0 090#0000C1FF61FA0000
(1485778778.909206) can0 0F8#000000000000104F
(1485778778.909442) can0 120#0000000000008000
(1485778778.909707) can0 010#0FC7000000008048
(1485778778.909955) can0 130#50002000E0000000
(1485778778.910066) can0 138#007D8400780081F8
(1485778778.910331) can0 1A0#1F40000080000000
(1485778778.910579) can0 200#F200B74F0000C000
(1485778778.911831) can0 170#04000000D0000000
(1485778778.912096) can0 229#6000000000000000
(1485778778.912334) can0 2A0#0000000030000000
(1485778778.912576) can0 2A5#00000000100FF0FF
(1485778778.912969) can0 0A0#0000080000007FFC
(1485778778.913222) can0 0C8#DF873EF2E138C600
(1485778778.916961) can0 0A5#007EE87800857800
(1485778778.917229) can0 160#55FF00005793B5FF
(1485778778.917482) can0 180#03000DF51805F000
(1485778778.917591) can0 190#8000800080008000
(1485778778.917960) can0 1C0#77C0000080000000
(1485778778.918075) can0 090#0000C1FF61FA0000
(1485778778.918318) can0 030#8003A180A000B207
(1485778778.918565) can0 0C0#0020000040000000
(1485778778.918960) can0 1D0#A8FFFF0000000000
(1485778778.919065) can0 1E0#000000000000F693
(1485778778.919316) can0 210#00000000F98D0000
(1485778778.919594) can0 010#00B7000000008048
(1485778778.919961) can0 213#00F900000FFF6FFF
(1485778778.920079) can0 252#0000000FFF200040
(1485778778.922965) can0 060#0000000000000000
(1485778778.923229) can0 208#7F072AE60080FF18
(1485778778.923460) can0 150#A06F500000000000
(1485778778.926454) can0 0B0#00004381E68011C3
(1485778778.926707) can0 140#0000BC01000E1A24
(1485778778.927086) can0 190#8000800080008000
(1485778778.927357) can0 218#00008F003C7DC0D8
(1485778778.927961) can0 070#05A709F369F3F000
(1485778778.928208) can0 080#90007D00007FFCF7
(1485778778.928442) can0 030#8002A180A000B207
(1485778778.928581) can0 090#0000C1FF61F90000
(1485778778.928959) can0 0A0#0000080000007FFC
(1485778778.929193) can0 0F8#000000000000104F
(1485778778.929315) can0 120#0000000000008000
(1485778778.929730) can0 010#01A7000000008048
(1485778778.929959) can0 130#50002000E0000000
(1485778778.930091) can0 138#007D8400780081F8
(1485778778.930324) can0 17E#C010004000200000
(1485778778.930583) can0 1A0#1F40000080000000
(1485778778.930943) can0 1B0#4100000000403000
(1485778778.931065) can0 260#8882D20DB5E1B800
(1485778778.931315) can0 270#5E2F042100000000
(1485778778.931566) can0 280#C400007F85244000
(1485778778.931815) can0 290#0600400100027502
(1485778778.932081) can0 170#04000000D0000000
(1485778778.932326) can0 2D8#0444808000000000
(1485778778.932568) can0 340#000000000300662F
(1485778778.932821) can0 380#10947CA96000C0A9
(1485778778.933080) can0 200#F200B74F0000C000
(1485778778.933330) can0 3B4#401111FF00000000
(1485778778.933457) can0 0C8#DF873AF6E138C600
(1485778778.933693) can0 310#D94430602D450074
(1485778778.933941) can0 360#C0C03F003C7DB8B7
(1485778778.934190) can0 435#B243B9D276EFB3C4
(1485778778.936066) can0 269#00000529AA85FF00
(1485778778.936963) can0 0A5#007EE77800758800
(1485778778.937236) can0 160#55FF00005783BDFF
(1485778778.937464) can0 180#03000DF61805F000
(1485778778.937737) can0 190#8000800080008000
(1485778778.937960) can0 1B5#000001D66AD0FFFC
(1485778778.938072) can0 060#0000000000000000
(1485778778.938316) can0 090#0000C1FF61F90000
(1485778778.938565) can0 030#800AE1A0E000B287
(1485778778.938961) can0 0C0#0020000040000000
(1485778778.939072) can0 1C0#77C0000080000000
(1485778778.939315) can0 1D0#A8FFFF0000000000
(1485778778.939584) can0 010#0297000000008048
(1485778778.939955) can0 1E0#000000000000F783
(1485778778.940080) can0 210#00000000F88F0000
(1485778778.940327) can0 213#00F800000FFF7FFF
(1485778778.940567) can0 252#0000000FFF200040
(1485778778.940816) can0 298#0000001BD82B0800
(1485778778.941065) can0 2D0#000001FB73905A85
(1485778778.942941) can0 0A0#0000080000007FFD
(1485778778.943566) can0 150#A06F500000000000
(1485778778.943816) can0 40A#FF0F000A20025853
(1485778778.944066) can0 455#0000000000000000
(1485778778.946444) can0 0B0#00004381E68011C3
(1485778778.946705) can0 140#0000BC01000F0A24
(1485778778.947086) can0 190#8000800080008000
(1485778778.947960) can0 070#05A709F369F3F000
(1485778778.948204) can0 080#90007D00007FFCF7
(1485778778.948327) can0 030#8002A180A000B207
(1485778778.948593) can0 090#0000C1FF61F90000
(1485778778.948960) can0 0F8#000000000000104F
(1485778778.949087) can0 120#0000000000008000
(1485778778.949318) can0 130#50002000E0000000
(1485778778.949568) can0 010#0387000000008048
(1485778778.949941) can0 138#007D8400780081F8
(1485778778.950065) can0 1A0#1F40000080000000
(1485778778.950315) can0 208#7F0B3AF66F80FF98
(1485778778.952201) can0 170#04000000D0000000
(1485778778.952479) can0 229#6000000000000000
(1485778778.952729) can0 2A0#0000000030000000
(1485778778.952983) can0 060#0000000000000000
(1485778778.953233) can0 2A5#00000000100FF0FF
(1485778778.953485) can0 0C8#DF873EF2E138C600
(1485778778.953586) can0 260#8882D20DB561B800
(1485778778.956963) can0 0A5#007EE67800659800
(1485778778.957231) can0 160#55FF00005773C5FF
(1485778778.957481) can0 180#03000DF51804F000
(1485778778.957733) can0 190#8000800080008000
(1485778778.957989) can0 1C0#77C0000080000000
(1485778778.958070) can0 090#0000C1FF61F90000
(1485778778.958329) can0 030#8002A180A000B207
(1485778778.958588) can0 0A0#0000080000007FFD
(1485778778.958961) can0 0C0#0020000040000000
(1485778778.959079) can0 1B0#4100000000403000
(1485778778.959329) can0 1D0#A8FFFF0000000000
(1485778778.959569) can0 010#0477000000008048
(1485778778.959942) can0 1E0#000000000000F873
(1485778778.960076) can0 200#F200B74F0000C000
(1485778778.960316) can0 210#00000000F7910000
(1485778778.960566) can0 213#00F700000FFF8FFF
(1485778778.960816) can0 218#00008F003C7DC0D8
(1485778778.961066) can0 252#0000000FFF200040
(1485778778.961315) can0 270#5E2F042100000000
(1485778778.961566) can0 280#C400007F85244000
(1485778778.961815) can0 290#0600400100027702
(1485778778.962088) can0 2D4#00000000E5FEFFFE
(1485778778.962318) can0 2F0#30B0007F005F963A
(1485778778.963442) can0 150#A06F500000000000
(1485778778.966090) can0 269#00000529AA85FF00
(1485778778.966459) can0 0B0#00004381E68011C3
(1485778778.966731) can0 140#0000BC010000FA24
(1485778778.967080) can0 190#8000800080008000
(1485778778.967960) can0 060#0000000000000000
(1485778778.968203) can0 070#05A709F369F3F000
(1485778778.968480) can0 030#8002A180A000B207
(1485778778.968710) can0 080#90007D00007FFCF7
(1485778778.968978) can0 090#0000C1FF61F90000
(1485778778.969087) can0 0F8#000000000000104F
(1485778778.969460) can0 120#0000000000008000
(1485778778.969589) can0 010#0567000000008048
(1485778778.969960) can0 130#50002000E0000000
(1485778778.970085) can0 138#007D8400780081F8
(1485778778.970330) can0 1A0#1F40000080000000
(1485778778.970591) can0 400#1800000000010000
(1485778778.971944) can0 170#04000000D0000000
(1485778778.972964) can0 0A0#0000080000007FFD
(1485778778.973335) can0 208#7F082AE60080FF18
(1485778778.973611) can0 0C8#DF873AF2E138C600
(1485778778.976964) can0 0A5#007EE5780055A800
(1485778778.977231) can0 160#55FF00005763CDFF
(1485778778.977481) can0 180#03000DF61805F000
(1485778778.977729) can0 190#8000800080008000
(1485778778.977961) can0 1B5#000001D66AD0FFFC
(1485778778.978086) can0 090#0000C1FF61F90000
(1485778778.978349) can0 030#8003A180A000B207
(1485778778.978587) can0 0C0#0020000040000000
(1485778778.978960) can0 1C0#77C0000080000000
(1485778778.979083) can0 1D0#A8FFFF0000000000
(1485778778.979355) can0 1E0#000000000000F963
(1485778778.979586) can0 010#0657000000008048
(1485778778.979818) can0 210#00000000F6930000
(1485778778.980066) can0 213#00F600000FFF9FFF
(1485778778.980316) can0 252#0000000FFF200040
(1485778778.980566) can0 260#8882D20DB6E1B800
(1485778778.980816) can0 298#0000001BD82B0800
(1485778778.981067) can0 2D0#000001FA74905A85
(1485778778.982944) can0 060#0000000000000000
(1485778778.983208) can0 200#F200B74F0000C000
(1485778778.983458) can0 150#A06F500000000000
(1485778778.986470) can0 0B0#00004381E68011C3
(1485778778.986709) can0 140#0000BC010001EA24
(1485778778.987087) can0 190#8000800080008000
(1485778778.987355) can0 218#00008F003C7DC0D8
(1485778778.987961) can0 070#05A709F369F3F000
(1485778778.988200) can0 080#90007D00007FFCF7
(1485778778.988481) can0 090#0000C1FF61F90000
(1485778778.988581) can0 030#8002A180A000B207
(1485778778.988960) can0 0A0#0000080000007FFD
(1485778778.989084) can0 0F8#000000000000104F
(1485778778.989343) can0 120#0000000000008000
(1485778778.989588) can0 010#0747000000008048
(1485778778.989961) can0 130#50002000E0000000
(1485778778.990091) can0 138#007D8400780081F8
(1485778778.990319) can0 1A0#1F40000080000000
(1485778778.990566) can0 1B0#4100000000403000
(1485778778.990816) can0 270#5E2F042100000000
(1485778778.991066) can0 280#C400007F85244000
