(1485778584.828160) can0 030#8002E1A0A000B207
(1485778584.828316) can0 17E#C020004000278000
(1485778584.828571) can0 260#8882000DEAE00000
(1485778584.828867) can0 290#8600400100027702
(1485778584.829369) can0 380#53FFFCA72000C0A9
(1485778584.829614) can0 3B4#401111FF00000000
(1485778584.829862) can0 435#3200390276C73343
(1485778584.832987) can0 0C8#D0874EF21050D600
(1485778584.833237) can0 310#D344306000400073
(1485778584.833480) can0 360#C0403F003C7DBC02
(1485778584.837942) can0 030#8002A180A000B207
(1485778584.839315) can0 010#10FD800080008000
(1485778584.839878) can0 5E2#6200FFFFFFFFFFFF
(1485778584.842869) can0 581#8100FFFFFFFFFFFF
(1485778584.843106) can0 150#DF82500000000000
(1485778584.848013) can0 030#8002A180A000B207
(1485778584.848496) can0 3DA#0000000000000000
(1485778584.848734) can0 3E2#0000000000000000
(1485778584.849120) can0 3EA#0000000000006000
(1485778584.849356) can0 010#11ED800080008000
(1485778584.849607) can0 455#0000000000000000
(1485778584.853135) can0 0C8#D0874EF21050C600
(1485778584.853358) can0 260#8882000DEA600000
(1485778584.858013) can0 030#8002E080A000B207
(1485778584.858237) can0 290#0600400100027702
(1485778584.859369) can0 010#12DD800080008000
(1485778584.862992) can0 150#DF825184BA9D8D27
(1485778584.868137) can0 030#8002A080A000B207
(1485778584.869264) can0 010#13CD800080008000
(1485778584.873010) can0 0C8#D0874AF21050C600
(1485778584.878292) can0 030#8002A080A000B207
(1485778584.878441) can0 260#8882000DEAE00000
(1485778584.879369) can0 010#14BD800080008000
(1485778584.882919) can0 150#DF825184BA9D8D27
(1485778584.888139) can0 030#8002A080A000B207
(1485778584.888366) can0 290#8600C00100027702
(1485778584.889389) can0 010#15AD800080008000
(1485778584.892919) can0 0C8#D0874EF21052C600
(1485778584.898141) can0 030#8002A080A000B207
(1485778584.898348) can0 405#2400000000000000
(1485778584.899368) can0 010#169D800080008000
(1485778584.902940) can0 150#DF825184BA9D8D27
(1485778584.903116) can0 260#8882000DEA61A800
(1485778584.908169) can0 030#8002A080A000B207
(1485778584.909261) can0 010#178D800080008000
(1485778584.913000) can0 0C8#D0874AF21052C600
(1485778584.914297) can0 060#006E23C1B4410010
(1485778584.914441) can0 0C0#9060000040000000
(1485778584.918254) can0 030#8002A080A000B207
(1485778584.918478) can0 290#0600400100027702
(1485778584.919261) can0 010#187D800080008000
(1485778584.923157) can0 150#DF825184BA9D8D27
(1485778584.928013) can0 030#8002A080A000B207
(1485778584.928220) can0 17E#C020004000228000
(1485778584.928451) can0 260#8882000DEA61A800
(1485778584.928956) can0 060#006E23C1B4410010
(1485778584.929373) can0 010#196D800080008000
(1485778584.933089) can0 0C8#D0874EF21052C600
(1485778584.933358) can0 310#D944306000400073
(1485778584.934001) can0 0C0#9060000040000000
(1485778584.938046) can0 030#8002E080A000B207
(1485778584.939254) can0 010#1A5D800080008000
(1485778584.942997) can0 150#DF825184BA9D8D27
(1485778584.943235) can0 40A#FF15000000002000
(1485778584.943997) can0 060#006E23C1B4410010
(1485778584.948015) can0 030#8002A080A000B207
(1485778584.948236) can0 290#8600400100027702
(1485778584.948486) can0 455#0000000000000000
(1485778584.949256) can0 010#1B4D800080008000
(1485778584.952994) can0 0C8#D0874AF2E152C600
(1485778584.953240) can0 260#8882000DEA61A800
(1485778584.953998) can0 0C0#9060000040000000
(1485778584.958046) can0 030#8002A080A000B207
(1485778584.958994) can0 060#006E23C1B4410010
(1485778584.959401) can0 010#1C3D800080008000
(1485778584.963119) can0 150#DFCF71B106441828
(1485778584.968170) can0 030#8002A080A000B207
(1485778584.968317) can0 400#0401020201040400
(1485778584.969235) can0 010#1D2D800080008000
(1485778584.973052) can0 0C8#D0874EF2E152C600
(1485778584.974001) can0 060#006E23C1B4410010
(1485778584.974231) can0 0C0#9060000040000000
(1485778584.978168) can0 030#8002A080A000B207
(1485778584.978316) can0 260#8882000DEA61A800
(1485778584.978622) can0 290#0600400100027702
(1485778584.979253) can0 010#1E1D800080008000
(1485778584.982428) can0 0A5#007CEF7800F70800
(1485778584.982566) can0 1B5#000001D40AC0FFFC
(1485778584.982878) can0 298#0000001BD82B0800
(1485778584.983105) can0 150#DFCF51B106441828
(1485778584.983366) can0 360#C0C03F003C7DB802
(1485778584.987431) can0 160#55F700005793B7FF
(1485778584.987565) can0 180#03000FFF1FFF0000
(1485778584.987859) can0 190#8000800080008000
(1485778584.988125) can0 1C0#77C1A00080000000
(1485778584.988355) can0 030#8002A080A000B207
(1485778584.988441) can0 1D0#A8FFFF0000000000
(1485778584.988745) can0 1E0#000000000000F693
(1485778584.988989) can0 060#006E23C1B4410010
(1485778584.989191) can0 210#00000000FA8B0000
(1485778584.989510) can0 010#0FC400000000804B
(1485778584.989735) can0 213#00FA00000FFF5FFF
(1485778584.990004) can0 218#00008F003C7DC0D8
(1485778584.990192) can0 252#0000000FFF200060
(1485778584.990441) can0 2D0#000001FB73105A85
(1485778584.990747) can0 2D4#00000000B5FEFFFE
(1485778584.991243) can0 208#00001F506FD4FF98
(1485778584.991491) can0 388#0000414279421600
(1485778584.993091) can0 0C8#D0874AF2E152C600
(1485778584.994001) can0 0C0#9060000040000000
(1485778584.996371) can0 190#0000000000000000
(1485778584.998110) can0 030#8002A080A000B207
(1485778584.999247) can0 010#00B400000000804B
(1485778585.000993) can0 0A5#007CEE7800E71800
(1485778585.002872) can0 150#DFCF51B106441828
(1485778585.003115) can0 260#8882000DEA61A800
(1485778585.003991) can0 060#006E23C1B4410010
(1485778585.006131) can0 04A#02000018000000C0
(1485778585.006191) can0 04B#00D8D8D8D8D8C000
(1485778585.006500) can0 160#55F70000539337FF
(1485778585.006731) can0 180#03000FFF1FFF0000
(1485778585.006980) can0 190#8000800080008000
(1485778585.007241) can0 1C0#37C1A00080000000
(1485778585.007508) can0 1D0#A8FFFF0000000000
(1485778585.007739) can0 1E0#000000000000B693
(1485778585.008003) can0 210#00000000F98D0000
(1485778585.008191) can0 030#8002A080A000B207
(1485778585.008442) can0 213#00F900000FFF6FFF
(1485778585.008691) can0 252#0000000FFF200060
(1485778585.008941) can0 290#0600400100027702
(1485778585.009332) can0 010#01A400000000804B
(1485778585.013215) can0 0C8#D0874EF2E152C600
(1485778585.013994) can0 0C0#9060000040000000
(1485778585.016112) can0 208#FFFE2FA600D4FF18
(1485778585.016362) can0 190#8000800080008000
(1485778585.016617) can0 218#00008F003C7DC0D8
(1485778585.018121) can0 030#8002E0A0A000B207
(1485778585.018995) can0 060#006E23C1B4410010
(1485778585.019371) can0 010#029400000000804B
(1485778585.021004) can0 0A5#007CED7800D72800
(1485778585.021230) can0 1B5#000001D40AC0FFFC
(1485778585.021503) can0 298#0000001BD82B0800
(1485778585.023123) can0 150#DFCF51B106441828
(1485778585.023993) can0 070#05A70A192A19F000
(1485778585.024231) can0 080#90007D0000801DF7
(1485778585.024503) can0 090#0000C20060000000
(1485778585.024754) can0 0A0#000008000000802B
(1485778585.024991) can0 0F8#000000000000104A
(1485778585.025193) can0 120#0000000000008000
(1485778585.025443) can0 130#50003000E0000000
(1485778585.025744) can0 138#007D87E838008271
(1485778585.025956) can0 1A0#1F40000080000000
(1485778585.026066) can0 1B0#4100000000403000
(1485778585.026318) can0 160#55F700005783BFFE
(1485778585.026587) can0 180#03000FFE1FFE5000
(1485778585.026967) can0 190#8000800080008000
(1485778585.027076) can0 1C0#77C1A00080000000
(1485778585.027316) can0 1D0#A9FFFFC045250024
(1485778585.027567) can0 1E0#000000000000F783
(1485778585.027817) can0 200#F200B7000000C000
(1485778585.028067) can0 210#00000000F88F0000
(1485778585.028317) can0 030#8002A080A000B207
(1485778585.028566) can0 17E#C020004000200000
(1485778585.028817) can0 213#00F800000FFF7FFF
(1485778585.029067) can0 252#0000000FFF200060
(1485778585.029317) can0 010#038400000000804B
(1485778585.029569) can0 260#8882000DEA61A800
(1485778585.029817) can0 270#5E2F042100000000
(1485778585.030066) can0 280#D400003B82004000
(1485778585.030316) can0 2D0#000000FB43905A85
(1485778585.030442) can0 2D8#045C808000000000
(1485778585.030692) can0 2F0#3030003B004E862D
(1485778585.030942) can0 340#0000000003006E2F
(1485778585.033192) can0 0C8#D0874AF2E152C600
(1485778585.033496) can0 310#D944306000400073
(1485778585.033985) can0 060#006E23C1B4410010
(1485778585.034253) can0 090#0000C20060000000
(1485778585.034503) can0 0C0#9060000040000000
(1485778585.036340) can0 190#8000800080008000
(1485778585.038004) can0 030#8002A080A000B207
(1485778585.038231) can0 290#8600400100027702
(1485778585.038995) can0 0A0#000008000000802B
(1485778585.039375) can0 010#047400000000804B
(1485778585.040995) can0 0A5#007CEC7800C73800
(1485778585.041228) can0 208#FFFE2FA600D4FF18
(1485778585.043147) can0 150#DFCF51B106441828
(1485778585.043998) can0 070#05A70A192A19F000
(1485778585.044230) can0 080#90007D0000801AF7
(1485778585.044481) can0 090#0000C20060000000
(1485778585.044744) can0 0F8#000000000000104A
(1485778585.044992) can0 120#0000000000008000
(1485778585.045243) can0 130#50003000E0000000
(1485778585.045443) can0 138#007D87E838008271
(1485778585.045693) can0 1A0#1F40000080000000
(1485778585.046316) can0 160#55F700005773C7FE
(1485778585.046440) can0 180#03000FFE1FFE5000
(1485778585.046693) can0 190#8000800080008000
(1485778585.046969) can0 1C0#77C1A00080000000
(1485778585.047212) can0 1D0#A9FFFFC045250024
(1485778585.047464) can0 1E0#000000000000F873
(1485778585.047694) can0 210#00000000F7910000
(1485778585.047942) can0 213#00F700000FFF8FFF
(1485778585.048190) can0 030#8002A080A000B207
(1485778585.048442) can0 218#00008F003C7DC0D8
(1485778585.048691) can0 252#0000000FFF200060
(1485778585.048942) can0 060#006E23C1B4410010
(1485778585.049191) can0 200#F200B7000000C000
(1485778585.049443) can0 010#056400000000804B
(1485778585.049692) can0 2D4#00000000B5FEFFFE
(1485778585.049942) can0 455#0000000000000000
(1485778585.053195) can0 0C8#D0874EF2E152C600
(1485778585.053441) can0 260#8882000DEA61A800
(1485778585.053942) can0 090#0000C20060000000
(1485778585.054191) can0 0A0#000008000000802B
(1485778585.054441) can0 0C0#9060000040000000
(1485778585.054693) can0 1B0#4100000000403000
(1485778585.054943) can0 270#5E2F042100000000
(1485778585.055245) can0 280#D400003B83004000
(1485778585.056320) can0 190#8000800080008000
(1485778585.058194) can0 030#8002A080A000B207
(1485778585.059295) can0 010#065400000000804B
(1485778585.061006) can0 0A5#007CEB7800B74800
(1485778585.061067) can0 1B5#000001D40AC0FFFC
(1485778585.061378) can0 298#0000001BD82B0800
(1485778585.063136) can0 150#DFCF51B106441828
(1485778585.063996) can0 060#006E23C1B4410010
(1485778585.064234) can0 070#05A70A192A19F000
(1485778585.064495) can0 080#90007D0000801AF7
(1485778585.064745) can0 090#0000C20060000000
(1485778585.064994) can0 0F8#000000000000104A
(1485778585.065245) can0 120#0000000000008000
(1485778585.065316) can0 130#50003000E0000000
(1485778585.065568) can0 138#007D87E838008271
(1485778585.065990) can0 1A0#1F40000080000000
(1485778585.066242) can0 208#FFFE2FA600D4FF18
(1485778585.066445) can0 160#55F700005763CFFE
(1485778585.066692) can0 180#03000FFE1FFE5000
(1485778585.066942) can0 190#8000800080008000
(1485778585.067211) can0 1C0#77C1A00080000000
(1485778585.067471) can0 1D0#A9FFFFC045250024
(1485778585.067695) can0 1E0#000000000000F963
(1485778585.067943) can0 210#00000000F6930000
(1485778585.068192) can0 213#00F600000FFF9FFF
(1485778585.068442) can0 030#8002A080A000B207
(1485778585.068692) can0 252#0000000FFF200060
(1485778585.068942) can0 290#0600400100027702
(1485778585.069068) can0 0A0#000008000000802B
(1485778585.069328) can0 010#074400000000804B
(1485778585.069569) can0 2D0#000001FA74905A85
(1485778585.069817) can0 40A#FF16210022011000
(1485778585.072942) can0 0C8#D0874AF2E152C600
(1485778585.073394) can0 269#000005295585FF00
(1485778585.073994) can0 090#0000C20060000000
(1485778585.074235) can0 0C0#9060000040000000
(1485778585.074497) can0 200#F200B7000000C000
(1485778585.076373) can0 190#8000800080008000
(1485778585.076441) can0 218#00008F003C7DC0D8
(1485778585.078299) can0 030#8002A080A000B207
(1485778585.078444) can0 260#8882000DEA61A800
(1485778585.078997) can0 060#006E23C1B4410010
(1485778585.079372) can0 010#083400000000804B
(1485778585.080993) can0 0A5#007CEA7800A75800
(1485778585.082868) can0 150#DFCF51B106441828
(1485778585.083996) can0 070#05A70A192A19F000
(1485778585.084232) can0 080#90007D0000801AF7
(1485778585.084480) can0 090#0000C20060000000
(1485778585.084754) can0 0A0#000008000000802B
(1485778585.085004) can0 0F8#000000000000104A
(1485778585.085230) can0 120#0000000000008000
(1485778585.085485) can0 130#50003000E0000000
(1485778585.085567) can0 138#007D87E838008271
(1485778585.085943) can0 1A0#1F40000080000000
(1485778585.086068) can0 1B0#4100000000403000
(1485778585.086320) can0 160#55F700005753D7FE
(1485778585.086568) can0 180#03000FFE1FFE5000
(1485778585.086963) can0 190#8000800080008000
(1485778585.087082) can0 1C0#77C1A00080000000
(1485778585.087330) can0 1D0#A9FFFFC045250024
(1485778585.087587) can0 1E0#000000000000FA53
(1485778585.087960) can0 210#00000000F5950000
(1485778585.088080) can0 213#00F500000FFFAFFF
(1485778585.088337) can0 030#8002A080A000B207
(1485778585.088572) can0 252#0000000FFF200060
(1485778585.088817) can0 270#5E2F042100000000
(1485778585.089067) can0 280#D400003B83004000
(1485778585.089318) can0 010#092400000000804B
(1485778585.089568) can0 2D8#045C808000000000
(1485778585.091318) can0 208#FFFE3FF66FD4FF98
(1485778585.093071) can0 0C8#D0874EF2E152C600
(1485778585.093996) can0 060#0000000000000000
(1485778585.094234) can0 090#0000C20060000000
(1485778585.094451) can0 0C0#9020000040000000
(1485778585.096342) can0 190#8000800080008000
(1485778585.098246) can0 030#8002E080A000B207
(1485778585.098484) can0 290#0600400100027702
(1485778585.098995) can0 0A0#000008000000802B
(1485778585.099234) can0 200#F200B7000000C000
(1485778585.099484) can0 010#0A1400000000804B
(1485778585.100985) can0 0A5#007CE97800976800
(1485778585.101068) can0 1B5#000001D40AC0FFFC
(1485778585.101370) can0 298#0000001BD82B0800
(1485778585.102991) can0 150#DFCF51B106441828
(1485778585.103242) can0 260#8882000DEA61A800
(1485778585.103491) can0 269#000005295585FF00
(1485778585.104006) can0 070#05A70A192A19F000
(1485778585.104237) can0 080#90007D0000801AF7
(1485778585.104457) can0 090#0000C20060000000
(1485778585.104701) can0 0F8#000000000000104A
(1485778585.104953) can0 120#0000000000008000
(1485778585.105195) can0 130#50003000E0000000
(1485778585.105443) can0 138#007D87E838008271
(1485778585.105707) can0 1A0#1F40000080000000
(1485778585.106283) can0 160#55F700005743DFFE
(1485778585.106455) can0 180#03000FFE1FFE5000
(1485778585.106735) can0 190#8000800080008000
(1485778585.106947) can0 1C0#77C1A00080000000
(1485778585.107194) can0 1D0#A9FFFFC045250024
(1485778585.107454) can0 1E0#000000000000FB43
(1485778585.107701) can0 210#00000000F4970000
(1485778585.107954) can0 213#00F400000FFFBFFF
(1485778585.108202) can0 218#00008F003C7DC0D8
(1485778585.108457) can0 030#8002A080A000B207
(1485778585.108707) can0 252#0000000FFF200060
(1485778585.108963) can0 060#0000000000000000
(1485778585.109201) can0 2D0#000001F975905A85
(1485778585.109470) can0 010#0B0400000000804B
(1485778585.109693) can0 2D4#00000000B5FEFFFE
(1485778585.113191) can0 0C8#D0874AF22152C600
(1485778585.113946) can0 090#0000C20060000000
(1485778585.114219) can0 0A0#000008000000802B
(1485778585.114445) can0 0C0#9020000040000000
(1485778585.114695) can0 1B0#4100000000403000
(1485778585.114945) can0 270#5E2F042100000000
(1485778585.115195) can0 280#D400003B83004000
(1485778585.115445) can0 2F0#3030003B004E862D
(1485778585.115731) can0 0B0#0000438000FFFFE3
(1485778585.115958) can0 140#00009C004000FF00
(1485778585.116332) can0 190#8000800080008000
(1485778585.116580) can0 208#FFFE2FA600D4FF18
(1485778585.118083) can0 030#8002A080A000B207
(1485778585.119345) can0 010#0CF400000000804B
(1485778585.120963) can0 0A5#007CE87800877800
(1485778585.123091) can0 150#DFCF500000000000
(1485778585.123963) can0 060#0000000000000000
(1485778585.124211) can0 070#05A70A192A19F000
(1485778585.124452) can0 080#90007D0000801AF7
(1485778585.124704) can0 090#0000C20060000000
(1485778585.124954) can0 0F8#000000000000104A
(1485778585.125203) can0 120#0000000000008000
(1485778585.125469) can0 130#50003000E0000000
(1485778585.125695) can0 138#007D87E838008271
(1485778585.125943) can0 1A0#1F40000080000000
(1485778585.126067) can0 200#F200B7000000C000
(1485778585.126321) can0 160#55F700005733E7FE
(1485778585.126583) can0 180#03000FFE1FFE5000
(1485778585.126945) can0 190#8000800080008000
(1485778585.127068) can0 1C0#77C1A00080000000
(1485778585.127316) can0 1D0#A8FFFF0000000000
(1485778585.127568) can0 1E0#000000000000FC33
(1485778585.127942) can0 210#00000000F3990000
(1485778585.128068) can0 213#00F300000FFFCFFF
(1485778585.128318) can0 030#8002A080A000B207
(1485778585.128568) can0 17E#C020004000200000
(1485778585.128818) can0 252#0000000FFF200060
(1485778585.129081) can0 0A0#000008000000802B
(1485778585.129334) can0 010#0DE400000000804B
(1485778585.129572) can0 260#8882000DEA61A800
(1485778585.129820) can0 290#8600400100027702
(1485778585.130068) can0 380#10FF7CA72000C0A9
(1485778585.130317) can0 3B4#401111FF00000000
(1485778585.130443) can0 435#B200B9D276BE33C3
(1485778585.133069) can0 0C8#D0874EF22152C600
(1485778585.133346) can0 310#D944306000400073
(1485778585.133588) can0 269#000005295585FF00
(1485778585.133858) can0 360#C0C03F003C7DBC02
(1485778585.134111) can0 090#0000C20060000000
(1485778585.134341) can0 0C0#9020000040000000
(1485778585.135571) can0 0B0#0000438000FFFFD3
(1485778585.135942) can0 140#00009C004001EF00
(1485778585.136342) can0 190#8000800080008000
(1485778585.136578) can0 218#00008F003C7DC0D8
(1485778585.138077) can0 030#8002A080A000B207
(1485778585.138964) can0 060#0000000000000000
(1485778585.139338) can0 010#0ED400000000804B
(1485778585.140956) can0 0A5#007CE77800778800
(1485778585.141089) can0 1B5#000001D40AC0FFFC
(1485778585.141338) can0 298#0000001BD82B0800
(1485778585.141589) can0 208#FFFE2FA600D4FF18
(1485778585.143104) can0 150#DFCF500000000000
(1485778585.143962) can0 070#05A70A174A17F000
(1485778585.144237) can0 080#90007D00008019F7
(1485778585.144464) can0 090#0000C20060000000
(1485778585.144717) can0 0A0#000008000000802B
(1485778585.144976) can0 0F8#000000000000104A
(1485778585.145195) can0 120#0000000000008000
(1485778585.145443) can0 130#50003000E0000000
(1485778585.145578) can0 138#007D87E838008271
(1485778585.145963) can0 1A0#1F40000080000000
(1485778585.146093) can0 1B0#4100000000403000
(1485778585.146338) can0 160#55F700005723EFFE
(1485778585.146570) can0 180#03000FFE1FFE5000
(1485778585.146941) can0 190#8000800080008000
(1485778585.147100) can0 1C0#77C1A00080000000
(1485778585.147320) can0 1D0#A8FFFF0000000000
(1485778585.147568) can0 1E0#000000000000FD23
(1485778585.147944) can0 210#00000000F29B0000
(1485778585.148066) can0 213#00F200000FFFDFFF
(1485778585.148318) can0 030#8002A080A000B207
(1485778585.148567) can0 252#0000000FFF200060
(1485778585.148819) can0 270#5E2F042100000000
(1485778585.149068) can0 280#C400003B84004000
(1485778585.149318) can0 010#0FC400000000804B
(1485778585.149570) can0 200#F200B7000000C000
(1485778585.149818) can0 2D0#000001F876905A85
(1485778585.150068) can0 2D8#045C808000000000
(1485778585.150318) can0 340#0000000003006E2F
(1485778585.150568) can0 405#2500000000000000
(1485778585.150818) can0 455#0000000000000000
(1485778585.153192) can0 0C8#D0874AF22152C600
(1485778585.153443) can0 260#8882000DEA61A800
(1485778585.153944) can0 060#0000000000000000
(1485778585.154193) can0 090#0000C20060000000
(1485778585.154443) can0 0C0#9020000040000000
(1485778585.155568) can0 0B0#0000438000FFFFD3
(1485778585.155960) can0 140#00009C004002DF00
(1485778585.156337) can0 190#8000800080008000
(1485778585.158213) can0 030#8002A080A000B207
(1485778585.158456) can0 290#0600400100027702
(1485778585.158959) can0 0A0#000008000000802B
(1485778585.159331) can0 010#00B400000000804B
(1485778585.160965) can0 0A5#007CE67800679800
(1485778585.162979) can0 150#DFCF500000000000
(1485778585.163360) can0 269#00000529AA85FF00
(1485778585.163962) can0 070#05A70A174A17F000
(1485778585.164230) can0 080#90007D00008019F7
(1485778585.164462) can0 090#0000C20060000000
(1485778585.164732) can0 0F8#000000000000104A
(1485778585.164965) can0 120#0000000000008000
(1485778585.165202) can0 130#50003000E0000000
(1485778585.165482) can0 138#007D87E838008271
(1485778585.165696) can0 1A0#1F40000080000000
(1485778585.166196) can0 160#55F700005713F7FE
(1485778585.166442) can0 180#03000FFE1FFE5000
(1485778585.166694) can0 190#8000800080008000
(1485778585.166966) can0 1C0#77C1A00080000000
(1485778585.167213) can0 1D0#A8FFFF0000000000
(1485778585.167465) can0 1E0#000000000000FE13
(1485778585.167712) can0 208#FFFE2FA600D4FF18
(1485778585.167960) can0 210#00000000F19D0000
(1485778585.168206) can0 213#00F100000FFFEFFF
(1485778585.168445) can0 030#8002A080A000B207
(1485778585.168694) can0 218#00008F003C7DC0D8
(1485778585.168942) can0 060#0000000000000000
(1485778585.169209) can0 252#0000000FFF200060
(1485778585.169456) can0 010#01A400000000804B
(1485778585.169710) can0 2D4#00000000B5FEFFFE
(1485778585.172947) can0 0C8#D0874EF22152C600
(1485778585.173959) can0 090#0000C20060000000
(1485778585.174210) can0 0A0#000008000000802B
(1485778585.174461) can0 0C0#9020000040000000
(1485778585.174708) can0 1B0#4100000000403000
(1485778585.174946) can0 200#F200B7000000C000
(1485778585.175208) can0 270#5E2F042100000000
(1485778585.175459) can0 280#C400003B84004000
(1485778585.175710) can0 0B0#0000438000FFFFD3
(1485778585.175945) can0 140#00009C004003CF00
(1485778585.176320) can0 190#8000800080008000
(1485778585.178208) can0 030#8002A080A000B207
(1485778585.178458) can0 260#8882000DEA61A800
(1485778585.179207) can0 010#029400000000804B
(1485778585.180963) can0 0A5#007CE5780057A800
(1485778585.181085) can0 1B5#000001D40AC0FFFC
(1485778585.181333) can0 298#0000001BD82B0800
(1485778585.183089) can0 150#DFCF500000000000
(1485778585.183963) can0 060#0000000000000000
(1485778585.184202) can0 070#05A70A174A17F000
(1485778585.184454) can0 080#90007D00008019F7
(1485778585.184702) can0 090#0000C20060000000
(1485778585.184982) can0 0F8#000000000000104A
(1485778585.185211) can0 120#0000000000008000
(1485778585.185446) can0 130#50003000E0000000
(1485778585.185713) can0 138#007D87E838008271
(1485778585.185946) can0 1A0#1F40000080000000
(1485778585.186195) can0 160#55F700005703FFFE
(1485778585.186444) can0 180#03000FFE1FFE5000
(1485778585.186719) can0 190#8000800080008000
(1485778585.187087) can0 1C0#77C1A00080000000
(1485778585.187214) can0 1D0#A8FFFF0000000000
(1485778585.187445) can0 1E0#000000000000FF03
(1485778585.187694) can0 210#00000000F09F0000
(1485778585.187943) can0 213#00F000000FFFFFFF
(1485778585.188194) can0 252#0000000FFF200060
(1485778585.188443) can0 030#8002E080A000B207
(1485778585.188694) can0 290#8600C00100027702
(1485778585.188951) can0 0A0#000008000000802B
(1485778585.189194) can0 2D0#000001F777905A85
(1485778585.189443) can0 010#038400000000804B
(1485778585.191694) can0 208#FFFE3FF66FD4FF98
(1485778585.192946) can0 0C8#D0874AF22152C600
(1485778585.193193) can0 40A#FF17000000005744
(1485778585.193444) can0 269#00000529AA85FF00
(1485778585.193943) can0 090#0000C20060000000
(1485778585.194213) can0 0C0#9020000040000000
(1485778585.195712) can0 0B0#0000438000FFFFD3
(1485778585.195965) can0 140#00009C004004BF00
(1485778585.196341) can0 190#8000800080008000
(1485778585.196471) can0 218#00008F003C7DC0D8
(1485778585.198095) can0 030#8002A080A000B207
(1485778585.198964) can0 060#0000000000000000
(1485778585.199207) can0 200#F200B7000000C000
(1485778585.199485) can0 010#047400000000804B
(1485778585.200958) can0 0A5#007CE4780047B800
(1485778585.203085) can0 150#DFCF500000000000
(1485778585.203341) can0 260#8882000DEA61A800
(1485778585.203974) can0 070#05A70A174A17F000
(1485778585.204213) can0 080#90007D00008018F7
(1485778585.204485) can0 090#0000C20060000000
(1485778585.204740) can0 0A0#000008000000802B
(1485778585.204979) can0 0F8#000000000000104A
(1485778585.205234) can0 120#0000000000008000
(1485778585.205446) can0 130#50003000E0000000
(1485778585.205569) can0 138#007D87E838008271
(1485778585.205944) can0 1A0#1F40000080000000
(1485778585.206069) can0 1B0#4100000000403000
(1485778585.206318) can0 160#55F7000057F387FE
(1485778585.206586) can0 180#03000FFE1FFE5000
(1485778585.206945) can0 190#8000800080008000
(1485778585.207068) can0 1C0#77C1A00080000000
(1485778585.207318) can0 1D0#A8FFFF0000000000
(1485778585.207568) can0 1E0#000000000000F0F3
(1485778585.207943) can0 210#00000000FF810000
(1485778585.208076) can0 213#00FF00000FFF0FFF
(1485778585.208319) can0 030#8002A080A000B207
(1485778585.208569) can0 252#0000000FFF200060
(1485778585.208818) can0 270#5E2F042100000000
(1485778585.209069) can0 280#C400003B84004000
(1485778585.209318) can0 010#056400000000804B
(1485778585.209571) can0 2D8#045C808000000000
(1485778585.209818) can0 2F0#3030003B004E8A2D
(1485778585.213194) can0 0C8#D0874EF22152C600
(1485778585.213943) can0 060#0000000000000000
(1485778585.214194) can0 090#0000C20060000000
(1485778585.214443) can0 0C0#9020000040000000
(1485778585.215568) can0 0B0#0000438000FFFFD3
(1485778585.215964) can0 140#00009C004005AF00
(1485778585.216339) can0 190#8000800080008000
(1485778585.216713) can0 208#FFFE2FA600D4FF18
(1485778585.218090) can0 030#8002A080A000B207
(1485778585.218364) can0 290#0600400100027702
(1485778585.218446) can0 400#0502030201010100
(1485778585.218959) can0 0A0#000008000000802B
(1485778585.219339) can0 010#065400000000804B
(1485778585.220957) can0 0A5#007CE3780037C800
(1485778585.221091) can0 1B5#000001D40AC0FFFC
(1485778585.221339) can0 298#0000001BD82B0800
(1485778585.223082) can0 150#DFCF500000000000
(1485778585.223331) can0 269#00000529AA85FF00
(1485778585.223965) can0 070#05A70A174A17F000
(1485778585.224231) can0 080#90007D00008018F7
(1485778585.224463) can0 090#0000C20060000000
(1485778585.224733) can0 0F8#000000000000104A
(1485778585.224960) can0 120#0000000000008000
(1485778585.225196) can0 130#50003000E0000000
(1485778585.225483) can0 138#007D87E838008271
(1485778585.225594) can0 1A0#1F40000080000000
(1485778585.225946) can0 200#F200B7000000C000
(1485778585.226196) can0 160#55F7000057E38FFE
(1485778585.226444) can0 180#03000FFE1FFE5000
(1485778585.226693) can0 190#8000800080008000
(1485778585.226943) can0 1C0#77C1A00080000000
(1485778585.227193) can0 1D0#A8FFFF0000000000
(1485778585.227444) can0 1E0#000000000000F1E3
(1485778585.227693) can0 210#00000000FE830000
(1485778585.227944) can0 213#00FE00000FFF1FFF
(1485778585.228194) can0 030#8002A080A000B207
(1485778585.228443) can0 17E#C020004000278000
(1485778585.228694) can0 218#00008F003C7DC0D8
(1485778585.228943) can0 060#0000000000000000
(1485778585.229194) can0 252#0000000FFF200060
(1485778585.229443) can0 010#074400000000804B
(1485778585.229694) can0 260#8882000DEA61A800
(1485778585.229945) can0 2D0#000001F678905A85
(1485778585.230194) can0 2D4#00000000B5FEFFFE
(1485778585.233194) can0 0C8#D0874AF22152C600
(1485778585.233319) can0 310#DB44306000400073
(1485778585.233964) can0 090#0000C20060000000
(1485778585.234234) can0 0A0#000008000000802B
(1485778585.234485) can0 0C0#9020000040000000
(1485778585.234734) can0 1B0#4100000000403000
(1485778585.234962) can0 270#5E2F042100000000
(1485778585.235202) can0 280#C400003B84004000
(1485778585.235571) can0 0B0#0000438000FFFFD3
(1485778585.235943) can0 140#00009C0040069F00
(1485778585.236340) can0 190#8000800080008000
(1485778585.238089) can0 030#8002A080A000B207
(1485778585.239230) can0 010#083400000000804B
(1485778585.240958) can0 0A5#007CE2780027D800
(1485778585.241840) can0 208#FFFE2FA600D4FF18
(1485778585.243083) can0 150#DF81700000000000
(1485778585.243964) can0 060#0000000000000000
(1485778585.244233) can0 070#05A70A174A17F000
(1485778585.244484) can0 080#90007D00008018F7
(1485778585.244736) can0 090#0000C20060000000
(1485778585.244963) can0 0F8#000000000000104A
(1485778585.245233) can0 120#0000000000008000
(1485778585.245484) can0 130#50003000E0000000
(1485778585.245569) can0 138#007D87E838008271
(1485778585.245961) can0 1A0#1F40000080000000
(1485778585.246198) can0 160#55F7000057D397FE
(1485778585.246461) can0 180#03000FFE1FFE5000
(1485778585.246719) can0 190#8000800080008000
(1485778585.246957) can0 1C0#77C1A00080000000
(1485778585.247216) can0 1D0#A8FFFF0000000000
(1485778585.247468) can0 1E0#000000000000F2D3
(1485778585.247715) can0 210#00000000FD850000
(1485778585.247946) can0 213#00FD00000FFF2FFF
(1485778585.248194) can0 252#0000000FFF200060
(1485778585.248444) can0 030#8002A080A000B207
(1485778585.248710) can0 290#0600400100027702
(1485778585.248960) can0 0A0#000008000000802B
(1485778585.249209) can0 200#F200B7000000C000
(1485778585.249458) can0 010#092400000000804B
(1485778585.249697) can0 455#0000000000000000
(1485778585.253085) can0 0C8#D0874EF22152C600
(1485778585.253358) can0 260#8882000DEA61A800
(1485778585.253572) can0 269#00000529AA85FF00
(1485778585.253944) can0 090#0000C20060000000
(1485778585.254194) can0 0C0#9020000040000000
(1485778585.255568) can0 0B0#0000438000FFFFD3
(1485778585.255962) can0 140#00009C0040078F00
(1485778585.256340) can0 190#8000800080008000
(1485778585.256464) can0 218#00008F003C7DC0D8
(1485778585.258337) can0 030#8002E080A000B207
(1485778585.258983) can0 060#0000000000000000
(1485778585.259339) can0 010#0A1400000000804B
(1485778585.260965) can0 0A5#007CE1780017E800
(1485778585.261085) can0 1B5#000001D40AC0FFFC
(1485778585.261332) can0 298#0000001BD82B0800
(1485778585.262970) can0 150#9F81500000000000
(1485778585.263961) can0 070#05A70A174A17F000
(1485778585.264218) can0 080#90007D00008018F7
(1485778585.264480) can0 090#0000C20060000000
(1485778585.264730) can0 0A0#000008000000802B
(1485778585.264964) can0 0F8#000000000000104A
(1485778585.265233) can0 120#0000000000008000
(1485778585.265320) can0 130#50003000E0000000
(1485778585.265588) can0 138#007D87E838008271
(1485778585.265964) can0 1A0#1F40000080000000
(1485778585.266089) can0 1B0#4100000000403000
(1485778585.266340) can0 160#55F7000057C39FFE
(1485778585.266590) can0 180#03000FFE1FFE5000
(1485778585.266962) can0 190#8000800080008000
(1485778585.267086) can0 1C0#77C1A00080000000
(1485778585.267332) can0 1D0#A8FFFF0000000000
(1485778585.267571) can0 1E0#000000000000F3C3
(1485778585.267819) can0 208#FFFE2FA600D4FF18
(1485778585.268069) can0 210#00000000FC870000
(1485778585.268320) can0 030#8002A080A000B207
(1485778585.268570) can0 213#00FC00000FFF3FFF
(1485778585.268819) can0 252#0000000FFF200060
(1485778585.269069) can0 270#5E2F042100000000
(1485778585.269319) can0 010#0B0400000000804B
(1485778585.269572) can0 280#C400003B84004000
(1485778585.269819) can0 2D0#000001F579905A85
(1485778585.270070) can0 2D8#045C808000000000
(1485778585.270319) can0 340#0000000003006E2F
(1485778585.273071) can0 0C8#D0874AF22152C600
(1485778585.273944) can0 060#0000000000000000
(1485778585.274194) can0 090#0000C20060000000
(1485778585.274444) can0 0C0#9020000040000000
(1485778585.274695) can0 200#F200B7000000C000
(1485778585.275569) can0 0B0#0000438000FFFFD3
(1485778585.275845) can0 140#00009C0040087F00
(1485778585.276344) can0 190#8000800080008000
(1485778585.278086) can0 030#8002A080A000B207
(1485778585.278340) can0 260#8882000DEA61A800
(1485778585.278612) can0 290#8600400100027702
(1485778585.278965) can0 0A0#000008000000802B
(1485778585.279339) can0 010#0CF400000000804B
(1485778585.280963) can0 0A5#007CE0780007F800
(1485778585.282843) can0 150#9F81500000000000
(1485778585.283089) can0 360#C0C03F003C7DB802
(1485778585.283338) can0 269#000005295585FF00
(1485778585.283965) can0 070#05A70A174A17F000
(1485778585.284216) can0 080#90007D00008018F7
(1485778585.284459) can0 090#0000C20060000000
(1485778585.284736) can0 0F8#000000000000104A
(1485778585.284964) can0 120#0000000000008000
(1485778585.285197) can0 130#50003000E0000000
(1485778585.285321) can0 138#007D87E838008271
(1485778585.285695) can0 1A0#1F40000080000000
(1485778585.286212) can0 160#55F7000057B3A7FE
(1485778585.286478) can0 180#03000FFE1FFE5000
(1485778585.286714) can0 190#8000800080008000
(1485778585.286974) can0 1C0#77C1A00080000000
(1485778585.287196) can0 1D0#A8FFFF0000000000
(1485778585.287456) can0 1E0#000000000000F4B3
(1485778585.287694) can0 210#00000000FB890000
(1485778585.287945) can0 213#00FB00000FFF4FFF
(1485778585.288194) can0 218#00008F003C7DC0D8
(1485778585.288444) can0 030#8002A080A000B207
(1485778585.288694) can0 252#0000000FFF200060
(1485778585.288944) can0 060#0000000000000000
(1485778585.289194) can0 2D4#00000000B5FEFFFE
(1485778585.289444) can0 010#0DE400000000804B
(1485778585.291944) can0 208#FFFE3AF66F90FF98
(1485778585.292947) can0 0C8#D0874EF22152C600
(1485778585.293945) can0 090#0000C20060000000
(1485778585.294213) can0 0A0#000008000000802B
(1485778585.294488) can0 0C0#9020000040000000
(1485778585.294716) can0 1B0#4100000000403000
(1485778585.294987) can0 270#5E2F042100000000
(1485778585.295215) can0 280#C400003B84004000
(1485778585.295330) can0 2F0#3030003B004E8A2D
(1485778585.295594) can0 0B0#00004380008013C3
(1485778585.295964) can0 140#00009C0040096F00
(1485778585.296339) can0 190#8000800080008000
(1485778585.298219) can0 030#8002A080A000B207
(1485778585.298967) can0 200#F200B7000000C000
(1485778585.299338) can0 010#0ED400000000804B
(1485778585.300984) can0 0A5#007CEF7800F70800
(1485778585.301097) can0 1B5#000001D40AC0FFFC
(1485778585.301341) can0 298#0000001BD82B0800
(1485778585.303207) can0 150#9F81500000000000
(1485778585.303464) can0 260#8882000DEA61A800
(1485778585.303964) can0 060#0000000000000000
(1485778585.304233) can0 070#05A70A174A17F000
(1485778585.304484) can0 080#90007D00008018F7
(1485778585.304710) can0 090#0000C20060000000
(1485778585.304982) can0 0F8#000000000000104A
(1485778585.305196) can0 120#0000000000008000
(1485778585.305445) can0 130#50003000E0000000
(1485778585.305569) can0 138#007D87E838008271
(1485778585.305960) can0 1A0#1F40000080000000
(1485778585.306213) can0 160#55F7000057A3AFFE
(1485778585.306447) can0 180#03000FFE1FFE5000
(1485778585.306695) can0 190#8000800080008000
(1485778585.306944) can0 1C0#77C1A00080000000
(1485778585.307195) can0 1D0#A8FFFF0000000000
(1485778585.307444) can0 1E0#000000000000F5A3
(1485778585.307695) can0 210#00000000FA8B0000
(1485778585.307944) can0 213#00FA00000FFF5FFF
(1485778585.308195) can0 030#8002A080A000B207
(1485778585.308444) can0 252#0000000FFF200060
(1485778585.308694) can0 290#0600400100027702
(1485778585.308945) can0 0A0#000008000000802B
(1485778585.309194) can0 2D0#000001F47A905A85
(1485778585.309445) can0 010#0FC400000000804B
(1485778585.313073) can0 0C8#D0874AF22152C600
(1485778585.313445) can0 269#000005295585FF00
(1485778585.313945) can0 090#0000C20060000000
(1485778585.314212) can0 0C0#9020000040000000
(1485778585.315594) can0 0B0#00004380008013C3
(1485778585.315829) can0 140#0000BC01400A5F00
(1485778585.316230) can0 190#8000800080008000
(1485778585.316464) can0 218#00008F003C7DC0D8
(1485778585.316967) can0 208#FFFE2AA60090FF18
(1485778585.318090) can0 030#8002A080A000B207
(1485778585.318358) can0 40A#C0004E212C06B22E
(1485778585.318964) can0 060#0000000000000000
(1485778585.319340) can0 010#00B400000000804B
(1485778585.320965) can0 0A5#007CEE7800E71800
(1485778585.323092) can0 150#9F81500000000000
(1485778585.323966) can0 070#05A70A174A17F000
(1485778585.324236) can0 080#90007D00008018F7
(1485778585.324465) can0 090#0000C20060000000
(1485778585.324593) can0 0A0#000008000000802B
(1485778585.324964) can0 0F8#000000000000104A
(1485778585.325090) can0 120#0000000000008000
(1485778585.325350) can0 130#50003000E0000000
(1485778585.325597) can0 138#007D87E838008271
(1485778585.325964) can0 1A0#1F40000080000000
(1485778585.326093) can0 1B0#4100000000403000
(1485778585.326341) can0 160#55FA00005793B7FE
(1485778585.326590) can0 180#03000FFE1FFE5000
(1485778585.326964) can0 190#8000800080008000
(1485778585.327083) can0 1C0#77C1A00080000000
(1485778585.327341) can0 1D0#A8FFFF0000000000
(1485778585.327586) can0 1E0#000000000000F693
(1485778585.327836) can0 200#F200B7000000C000
(1485778585.328086) can0 210#00000000F98D0000
(1485778585.328335) can0 030#8002A080A000B207
(1485778585.328587) can0 17E#C020004000200000
(1485778585.328836) can0 213#00F900000FFF6FFF
(1485778585.329087) can0 252#0000000FFF200060
(1485778585.329323) can0 010#01A400000000804B
(1485778585.329573) can0 260#8882000DEA61A800
(1485778585.329694) can0 270#5E2F042100000000
(1485778585.329944) can0 280#C400003B84004000
(1485778585.330195) can0 2D8#045C808000000000
(1485778585.333197) can0 0C8#D0874EF22152C600
(1485778585.333484) can0 310#D944306000400073
(1485778585.333963) can0 060#0000000000000000
(1485778585.334197) can0 090#0000C20060000000
(1485778585.334445) can0 0C0#9020000040000000
(1485778585.335570) can0 0B0#00004380008013C3
(1485778585.335840) can0 140#00009C00400B4F00
(1485778585.336195) can0 190#8000800080008000
(1485778585.338090) can0 030#8002E0A0A000B207
(1485778585.338359) can0 290#0600400100027702
(1485778585.338965) can0 0A0#000008000000802B
(1485778585.339338) can0 010#029400000000804B
(1485778585.340965) can0 0A5#007CED7800D72800
(1485778585.341093) can0 1B5#000001D40AC0FFFC
(1485778585.341339) can0 298#0000001BD82B0800
(1485778585.342104) can0 208#FFFE2AA60090FF18
(1485778585.343093) can0 150#9F81500000000000
(1485778585.343465) can0 269#000005295585FF00
(1485778585.343964) can0 070#05A70A174A17F000
(1485778585.344237) can0 080#90007D00008018F7
(1485778585.344463) can0 090#0000C20060000000
(1485778585.344731) can0 0F8#000000000000104A
(1485778585.344973) can0 120#0000000000008000
(1485778585.345216) can0 130#50003000E0000000
(1485778585.345344) can0 138#007D87E838008271
(1485778585.345602) can0 1A0#1F40000080000000
(1485778585.346230) can0 160#55FA00005783BFFE
(1485778585.346466) can0 180#03000FFE1FFE5000
(1485778585.346712) can0 190#8000800080008000
(1485778585.346964) can0 1C0#77C1A00080000000
(1485778585.347215) can0 1D0#A8FFFF0000000000
(1485778585.347462) can0 1E0#000000000000F783
(1485778585.347707) can0 210#00000000F88F0000
(1485778585.347947) can0 213#00F800000FFF7FFF
(1485778585.348195) can0 218#00008F003C7DC0D8
(1485778585.348444) can0 030#8002A080A000B207
(1485778585.348695) can0 252#0000000FFF200060
(1485778585.348945) can0 060#0000000000000000
(1485778585.349196) can0 200#F200B7000000C000
(1485778585.349445) can0 010#038400000000804B
(1485778585.349694) can0 2D0#000001F37B905A85
(1485778585.349944) can0 2D4#00000000B5FEFFFE
(1485778585.350195) can0 455#0000000000000000
(1485778585.353072) can0 0C8#D0874AF22152C600
(1485778585.353337) can0 260#8882000DEA61A800
(1485778585.353965) can0 090#0000C20060000000
(1485778585.354235) can0 0A0#000008000000802B
(1485778585.354462) can0 0C0#9020000040000000
(1485778585.354734) can0 1B0#4100000000403000
(1485778585.354964) can0 270#5E2F042100000000
(1485778585.355234) can0 280#C400003B84004000
(1485778585.355572) can0 0B0#00004380008013C3
(1485778585.355820) can0 140#00009C00400C3F00
(1485778585.356341) can0 190#8000800080008000
(1485778585.358093) can0 030#8002A080A000B207
(1485778585.359221) can0 010#047400000000804B
(1485778585.360965) can0 0A5#007CEC7800C73800
(1485778585.362844) can0 150#9F81500000000000
(1485778585.363963) can0 060#0000000000000000
(1485778585.364268) can0 070#05A70A174A17F000
(1485778585.364460) can0 080#90007D00008018F7
(1485778585.364734) can0 090#0000C20060000000
(1485778585.364988) can0 0F8#000000000000104A
(1485778585.365089) can0 120#0000000000008000
(1485778585.365346) can0 130#50003000E0000000
(1485778585.365587) can0 138#007D87E838008271
(1485778585.365965) can0 1A0#1F40000080000000
(1485778585.366222) can0 160#55FD00005773C7FE
(1485778585.366465) can0 180#03000FFE1FFE5000
(1485778585.366715) can0 190#8000800080008000
(1485778585.366967) can0 1C0#77C1A00080000000
(1485778585.367214) can0 1D0#A8FFFF0000000000
(1485778585.367448) can0 1E0#000000000000F873
(1485778585.367705) can0 208#FFFE2AA60090FF18
(1485778585.367945) can0 210#00000000F7910000
(1485778585.368195) can0 213#00F700000FFF8FFF
(1485778585.368445) can0 030#8002A080A000B207
(1485778585.368695) can0 252#0000000FFF200060
(1485778585.368945) can0 0A0#0000080000008045
(1485778585.369195) can0 290#8600400100027702
(1485778585.369446) can0 010#056400000000804B
(1485778585.372948) can0 0C8#D0874EF22152C600
(1485778585.373446) can0 269#00000529AA85FF00
(1485778585.373945) can0 090#0000C20060000000
(1485778585.374234) can0 0C0#9020000040000000
(1485778585.374467) can0 200#F200B7000000C000
(1485778585.375584) can0 0B0#00004380008013C3
(1485778585.375860) can0 140#00009C00400D2F00
(1485778585.376231) can0 190#8000800080008000
(1485778585.376464) can0 218#00008F003C7DC0D8
(1485778585.378215) can0 030#8002A080A000B207
(1485778585.378487) can0 260#8882000DEA61AA00
(1485778585.378965) can0 060#0000000000000000
(1485778585.379341) can0 010#065400000000804B
(1485778585.380967) can0 0A5#007CEB7800B74800
(1485778585.381095) can0 1B5#000001D40AC0FFFC
(1485778585.381339) can0 298#0000001BD82B0800
(1485778585.382980) can0 150#9F81500000000000
(1485778585.383966) can0 070#05A70A174A17F000
(1485778585.384234) can0 080#90007D00008045F7
(1485778585.384334) can0 090#0000C20060000000
(1485778585.384594) can0 0A0#000008000000808D
(1485778585.384963) can0 0F8#000000000000104A
(1485778585.385088) can0 120#0000000000008000
(1485778585.385346) can0 130#50003000E0000000
(1485778585.385585) can0 138#007D87E838008271
(1485778585.385966) can0 1A0#1F40000080000000
(1485778585.386083) can0 1B0#4100000000403000
(1485778585.386340) can0 160#55FF00005763CFFE
(1485778585.386593) can0 180#03000FFE1FFE5000
(1485778585.386823) can0 190#8000800080008000
(1485778585.387070) can0 1C0#77C1A00080000000
(1485778585.387321) can0 1D0#A8FFFF0000000000
(1485778585.387570) can0 1E0#000000000000F963
(1485778585.387820) can0 210#00000000F6930000
(1485778585.388070) can0 213#00F600000FFF9FFF
(1485778585.388320) can0 030#8002A080A000B207
(1485778585.388570) can0 252#0000000FFF200060
(1485778585.388820) can0 270#5E2F042100000000
(1485778585.389071) can0 280#C400003B84004000
(1485778585.389320) can0 010#074400000000804B
(1485778585.389572) can0 2D0#000001F27C905A85
(1485778585.389821) can0 2D8#045C808000000000
(1485778585.389945) can0 2F0#3030003B004E8A2D
(1485778585.390196) can0 340#0000000003006E2F
(1485778585.392195) can0 208#FFFE3AF66F90FF98
(1485778585.393218) can0 0C8#D0874AF22152C600
(1485778585.393965) can0 060#0000000000000000
(1485778585.394235) can0 090#0000C20060000000
(1485778585.394484) can0 0C0#9020000040000000
(1485778585.395603) can0 0B0#00004380008013C3
(1485778585.395859) can0 140#00009C00400E1F00
(1485778585.396232) can0 190#8000800080008000
(1485778585.398094) can0 030#8002A080A000B207
(1485778585.398333) can0 290#0600400100027702
(1485778585.398590) can0 405#016A212C06B3F763
(1485778585.398965) can0 0A0#00000800000080BF
(1485778585.399235) can0 200#F200B7000000C000
(1485778585.399335) can0 010#083400000000804B
(1485778585.400966) can0 0A5#007CEA7800A75800
(1485778585.403215) can0 150#9F81500000000000
(1485778585.403464) can0 260#8882000DEA61AA00
(1485778585.403710) can0 269#00000529AA85FF00
(1485778585.403992) can0 070#05A70A164A16F000
(1485778585.404217) can0 080#90007D00008061F7
(1485778585.404465) can0 090#0000C20060000000
(1485778585.404734) can0 0F8#000000000000104A
(1485778585.404948) can0 120#0000000000008000
(1485778585.405195) can0 130#50003000E0000000
(1485778585.405321) can0 138#007D87E838008271
(1485778585.405570) can0 1A0#1F40000080000000
(1485778585.406214) can0 160#55FF00005753D7FE
(1485778585.406464) can0 180#03000FFE1FFE5000
(1485778585.406715) can0 190#8000800080008000
(1485778585.406964) can0 1C0#77C1A00080000000
(1485778585.407198) can0 1D0#A8FFFF0000000000
(1485778585.407444) can0 1E0#000000000000FA53
(1485778585.407696) can0 210#00000000F5950000
(1485778585.407945) can0 213#00F500000FFFAFFF
(1485778585.408196) can0 030#8002A080A000B207
(1485778585.408445) can0 218#00008F003C7DC0D8
(1485778585.408695) can0 252#0000000FFF200060
(1485778585.408945) can0 060#0000000000000000
(1485778585.409195) can0 2D4#00000000B5FEFFFE
(1485778585.409446) can0 010#092400000000804B
(1485778585.413073) can0 0C8#D0874EF22152C600
(1485778585.413945) can0 090#0000C20060000000
(1485778585.414195) can0 0A0#00000800000080E2
(1485778585.414444) can0 0C0#9020000040000000
(1485778585.414696) can0 1B0#4100000000403000
(1485778585.414945) can0 270#5E2F042100000000
(1485778585.415071) can0 280#C400003B84004000
(1485778585.415589) can0 0B0#00004380008013C3
(1485778585.415860) can0 140#00009C00400F0F00
(1485778585.416343) can0 190#8000800080008000
(1485778585.417206) can0 208#FFFE2AA60090FF18
(1485778585.418091) can0 030#8002E080A000B207
(1485778585.419214) can0 010#0A1400000000804B
(1485778585.420966) can0 0A5#007CE97800976800
(1485778585.421094) can0 1B5#000001D40AC0FFFC
(1485778585.421339) can0 298#0000001BD82B0800
(1485778585.423092) can0 150#9F81500000000000
(1485778585.423964) can0 060#0000000000000000
(1485778585.424237) can0 070#05A70A164A16F000
(1485778585.424346) can0 080#90007D00008077F7
(1485778585.424735) can0 090#0000C20060000000
(1485778585.424964) can0 0F8#000000000000104A
(1485778585.425091) can0 120#0000000000008000
(1485778585.425340) can0 130#50003000E0000000
(1485778585.425590) can0 138#007D87E838008271
(1485778585.425963) can0 1A0#1F40000080000000
(1485778585.426092) can0 200#F200B7000000C000
(1485778585.426339) can0 160#55FF00005743DFFE
(1485778585.426571) can0 180#03000FFE1FFE5000
(1485778585.426821) can0 190#8000800080008000
(1485778585.427070) can0 1C0#77C1A00080000000
(1485778585.427321) can0 1D0#A8FFFF0000000000
(1485778585.427570) can0 1E0#000000000000FB43
(1485778585.427821) can0 210#00000000F4970000
(1485778585.428071) can0 213#00F400000FFFBFFF
(1485778585.428320) can0 030#8002A080A000B207
(1485778585.428571) can0 17E#C020004000200000
(1485778585.428820) can0 252#0000000FFF200060
(1485778585.429070) can0 0A0#00000800000080F3
(1485778585.429320) can0 010#0B0400000000804B
(1485778585.429573) can0 260#8882000DEA61AA00
(1485778585.429821) can0 290#0600400100027702
(1485778585.429945) can0 2D0#000001F17D905A85
(1485778585.430196) can0 380#5391FCA76000C0A9
(1485778585.430445) can0 3B4#401111FF00000000
(1485778585.430696) can0 435#B200B9D276BDB3C3
(1485778585.433073) can0 0C8#D0874AF22152C600
(1485778585.433339) can0 310#D944306000400073
(1485778585.433592) can0 269#00000529AA85FF00
(1485778585.433859) can0 360#C0C03F003C7DB802
(1485778585.434110) can0 090#0000C20060000000
(1485778585.434359) can0 0C0#9020000040000000
(1485778585.435591) can0 0B0#00004380008013C3
(1485778585.435861) can0 140#00009C004000FF00
(1485778585.436200) can0 190#8000800080008000
(1485778585.436446) can0 218#00008F003C7DC0D8
(1485778585.438090) can0 030#8002A080A000B207
(1485778585.438966) can0 060#0000000000000000
(1485778585.439341) can0 010#0CF400000000804B
(1485778585.440965) can0 0A5#007CE87800877800
(1485778585.442336) can0 208#FFFE2AA60090FF18
(1485778585.443110) can0 150#9F81500000000000
(1485778585.443365) can0 40A#C0013733003C7D00
(1485778585.443967) can0 070#05A70A164A16F000
(1485778585.444236) can0 080#90007D00008085F7
(1485778585.444487) can0 090#0000C20060000000
(1485778585.444718) can0 0A0#00000800000080F3
(1485778585.444966) can0 0F8#000000000000104A
(1485778585.445235) can0 120#0000000000008000
(1485778585.445448) can0 130#50003000E0000000
(1485778585.445696) can0 138#007D87E838008271
(1485778585.445946) can0 1A0#1F40000080000000
(1485778585.446070) can0 1B0#4100000000403000
(1485778585.446340) can0 160#55FF00005733E7FE
(1485778585.446592) can0 180#03000FFE1FFE5000
(1485778585.446947) can0 190#8000800080008000
(1485778585.447082) can0 1C0#77C1A00080000000
(1485778585.447321) can0 1D0#A8FFFF0000000000
(1485778585.447571) can0 1E0#000000000000FC33
(1485778585.447820) can0 210#00000000F3990000
(1485778585.448071) can0 213#00F300000FFFCFFF
(1485778585.448320) can0 252#0000000FFF200060
(1485778585.448572) can0 030#8002A080A000B207
(1485778585.448823) can0 270#5E2F042100000000
(1485778585.449072) can0 280#C400003B84004000
(1485778585.449321) can0 010#0DE400000000804B
(1485778585.449573) can0 200#F200B7000000C000
(1485778585.449821) can0 2D8#045C808000000000
(1485778585.450071) can0 455#0000000000000000
(1485778585.453072) can0 0C8#D0874EF22152C600
(1485778585.453197) can0 260#8882000DEA61AA00
(1485778585.453985) can0 060#0000000000000000
(1485778585.454238) can0 090#0000C20060000000
(1485778585.454490) can0 0C0#9020000040000000
(1485778585.455592) can0 0B0#00004380008013C3
(1485778585.455829) can0 140#00009C004001EF00
(1485778585.456224) can0 190#8000800080008000
(1485778585.458216) can0 030#8002A080A000B207
(1485778585.458486) can0 290#8600400100027702
(1485778585.458966) can0 0A0#00000800000080F3
(1485778585.459340) can0 010#0ED400000000804B
(1485778585.460966) can0 0A5#007CE77800778800
(1485778585.461085) can0 1B5#000001D40AC0FFFC
(1485778585.461358) can0 298#0000001BD82B0800
(1485778585.462973) can0 150#9F81500000000000
(1485778585.463480) can0 269#000005295585FF00
(1485778585.463960) can0 070#05A70A164A16F000
(1485778585.464236) can0 080#90007D00008086F7
(1485778585.464467) can0 090#0000C20060000000
(1485778585.464580) can0 0F8#000000000000104A
(1485778585.464964) can0 120#0000000000008000
(1485778585.465237) can0 130#50003000E0000000
(1485778585.465347) can0 138#007D87E838008271
(1485778585.465592) can0 1A0#1F40000080000000
(1485778585.466214) can0 160#55FF00005723EFFE
(1485778585.466466) can0 180#03000FFE1FFE5000
(1485778585.466718) can0 190#8000800080008000
(1485778585.466965) can0 1C0#77C1A00080000000
(1485778585.467216) can0 1D0#A8FFFF0000000000
(1485778585.467462) can0 1E0#000000000000FD23
(1485778585.467697) can0 208#FFFE2AA60090FF18
(1485778585.467946) can0 210#00000000F29B0000
(1485778585.468197) can0 030#8002A080A000B207
(1485778585.468446) can0 213#00F200000FFFDFFF
(1485778585.468696) can0 218#00008F003C7DC0D8
(1485778585.468946) can0 060#0000000000000000
(1485778585.469196) can0 252#0000000FFF200060
(1485778585.469446) can0 010#0FC400000000804B
(1485778585.469696) can0 2D0#000001F07E905A85
(1485778585.469947) can0 2D4#00000000B5FEFFFE
(1485778585.470196) can0 400#0601030001000001
(1485778585.473073) can0 0C8#D0874AF22152C600
(1485778585.473947) can0 090#0000C20060000000
(1485778585.474196) can0 0A0#00000800000080F3
(1485778585.474446) can0 0C0#9020000040000000
(1485778585.474696) can0 1B0#4100000000403000
(1485778585.474946) can0 200#F200B7000000C000
(1485778585.475071) can0 270#5E2F042100000000
(1485778585.475341) can0 280#C400003B84004000
(1485778585.475592) can0 0B0#00004380008013C3
(1485778585.475968) can0 140#00009C004002DF00
(1485778585.476097) can0 2F0#3030003B004E8A2D
(1485778585.476342) can0 190#8000800080008000
(1485778585.478220) can0 030#8002A080A000B207
(1485778585.478465) can0 260#8882000DEA61AA00
(1485778585.479221) can0 010#00B400000000804B
(1485778585.480966) can0 0A5#007CE67800679800
(1485778585.482844) can0 150#9F81500000000000
(1485778585.483985) can0 060#0000000000000000
(1485778585.484216) can0 070#05A70A164A16F000
(1485778585.484488) can0 080#90007D00008086F7
(1485778585.484597) can0 090#0000C20060000000
(1485778585.484966) can0 0F8#000000000000104A
(1485778585.485094) can0 120#0000000000008000
(1485778585.485342) can0 130#50003000E0000000
(1485778585.485597) can0 138#007D87E838008271
(1485778585.485965) can0 1A0#1F40000080000000
(1485778585.486219) can0 160#55FF00005713F7FE
(1485778585.486465) can0 180#03000FFE1FFE5000
(1485778585.486717) can0 190#8000800080008000
(1485778585.486967) can0 1C0#77C1A00080000000
(1485778585.487197) can0 1D0#A8FFFF0000000000
(1485778585.487446) can0 1E0#000000000000FE13
(1485778585.487696) can0 210#00000000F19D0000
(1485778585.487946) can0 213#00F100000FFFEFFF
(1485778585.488196) can0 252#0000000FFF200060
(1485778585.488447) can0 030#8002A080A000B207
(1485778585.488696) can0 290#0600C00100027702
(1485778585.488946) can0 0A0#00000800000080F3
(1485778585.489321) can0 010#01A400000000804B
(1485778585.492571) can0 208#FFFE3AF66F90FF98
(1485778585.493072) can0 0C8#D0874EF22152C600
(1485778585.493592) can0 269#000005295585FF00
(1485778585.493967) can0 090#0000C20060000000
(1485778585.494242) can0 0C0#9020000040000000
(1485778585.495591) can0 0B0#00004380008013C3
(1485778585.495863) can0 140#00009C004003CF00
(1485778585.496230) can0 190#8000800080008000
(1485778585.496465) can0 218#00008F003C7DC0D8
(1485778585.498215) can0 030#8002E080A000B207
(1485778585.498966) can0 060#0000000000000000
(1485778585.499211) can0 200#F200B7000000C000
(1485778585.499488) can0 010#029400000000804B
(1485778585.500965) can0 0A5#007CE5780057A800
(1485778585.501092) can0 1B5#000001D40AC0FFFC
(1485778585.501342) can0 298#0000001BD82B0800
(1485778585.503219) can0 150#9DA1700000000000
(1485778585.503467) can0 260#8882000DEA61AA00
(1485778585.503965) can0 070#05A70A404A40F000
(1485778585.504236) can0 080#90007D000080FFF7
(1485778585.504486) can0 090#0000C20060000000
(1485778585.504586) can0 0A0#00000800000080F3
(1485778585.504966) can0 0F8#000000000000104A
(1485778585.505091) can0 120#0000000000008000
(1485778585.505349) can0 130#50003000E0000000
(1485778585.505588) can0 138#007D87E838008271
(1485778585.505964) can0 1A0#1F40000080000000
(1485778585.506088) can0 1B0#4100000000403000
(1485778585.506324) can0 160#55FF00005703FFFE
(1485778585.506571) can0 180#03000FFE1FFE5000
(1485778585.506821) can0 190#8000800080008000
(1485778585.507072) can0 1C0#77C1A00080000000
(1485778585.507321) can0 1D0#A8FFFF0000000000
(1485778585.507572) can0 1E0#000000000000FF03
(1485778585.507946) can0 210#00000000F09F0000
(1485778585.508072) can0 213#00F000000FFFFFFF
(1485778585.508321) can0 030#8002A080A000B207
(1485778585.508571) can0 252#0000000FFF200060
(1485778585.508821) can0 270#5E2F042100000000
(1485778585.509071) can0 280#C400003B84004000
(1485778585.509322) can0 010#038400000000804B
(1485778585.509571) can0 2D0#000001EF7F905A85
(1485778585.509822) can0 2D8#045C808000000000
(1485778585.510072) can0 340#000000000300662F
(1485778585.513198) can0 0C8#D0874AF22152C600
(1485778585.513947) can0 060#0000000000000000
(1485778585.514196) can0 090#0000C20060000000
(1485778585.514447) can0 0C0#9020000040000000
(1485778585.515571) can0 0B0#00004380008013C3
(1485778585.515860) can0 140#00009C004004BF00
(1485778585.516215) can0 190#8000800080008000
(1485778585.517591) can0 208#FFFE2AA60090FF18
(1485778585.518091) can0 030#8002A080A000B207
(1485778585.518221) can0 290#8600400100027702
(1485778585.518967) can0 0A0#00000800000080F3
(1485778585.519342) can0 010#047400000000804B
(1485778585.520967) can0 0A5#007CE4780047B800
(1485778585.522962) can0 150#9DA1500000000000
(1485778585.523586) can0 269#000005295585FF00
(1485778585.523968) can0 070#05A70A404A40F000
(1485778585.524238) can0 080#90007D0000811DF7
(1485778585.524347) can0 090#0000C20060000000
(1485778585.524607) can0 0F8#000000000000104A
(1485778585.524967) can0 120#0000000000008000
(1485778585.525092) can0 130#50003000E0000000
(1485778585.525350) can0 138#007D87E838008271
(1485778585.525590) can0 1A0#1F40000080000000
(1485778585.525966) can0 200#F200B7000000C000
(1485778585.526217) can0 160#55FF000057F387FE
(1485778585.526448) can0 180#03000FFE1FFE5000
(1485778585.526697) can0 190#8000800080008000
(1485778585.526946) can0 1C0#77C1A00080000000
(1485778585.527197) can0 1D0#A8FFFF0000000000
(1485778585.527445) can0 1E0#000000000000F0F3
(1485778585.527697) can0 210#00000000FF810000
(1485778585.527947) can0 213#00FF00000FFF0FFF
(1485778585.528196) can0 030#8002A080A000B207
(1485778585.528447) can0 17E#C020004000228000
(1485778585.528709) can0 218#00008F003C7DC0D8
(1485778585.528947) can0 060#0000000000000000
(1485778585.529196) can0 252#0000000FFF200060
(1485778585.529447) can0 010#056400000000804B
(1485778585.529698) can0 260#8882000DEA61AA00
(1485778585.529946) can0 2D4#00000000E5FEFFFE
(1485778585.533074) can0 0C8#D0874EF22152C600
(1485778585.533321) can0 310#D944306000400074
(1485778585.533946) can0 090#0000C20060000000
(1485778585.534197) can0 0A0#00000800000080F3
(1485778585.534445) can0 0C0#9020000040000000
(1485778585.534697) can0 1B0#4100000000403000
(1485778585.534946) can0 270#5E2F042100000000
(1485778585.535197) can0 280#C400003B84004000
(1485778585.535571) can0 0B0#00004380008013C3
(1485778585.535696) can0 140#00009C004005AF00
(1485778585.536234) can0 190#8000800080008000
(1485778585.538217) can0 030#8002A080A000B207
(1485778585.539246) can0 010#065400000000804B
(1485778585.541022) can0 0A5#007CE3780037C800
(1485778585.541075) can0 1B5#000001D40AC0FFFC
(1485778585.541374) can0 298#0000001BD82B0800
(1485778585.542749) can0 208#FFFE2AA60090FF18
(1485778585.543129) can0 150#9DA1500000000000
(1485778585.543961) can0 060#0000000000000000
(1485778585.544242) can0 070#05A70A404A40F000
(1485778585.544455) can0 080#90007D00008124F7
(1485778585.544753) can0 090#0000C20060000000
(1485778585.544990) can0 0F8#000000000000104A
(1485778585.545071) can0 120#0000000000008000
(1485778585.545346) can0 130#50003000E0000000
(1485778585.545598) can0 138#007D87E838008271
(1485778585.545962) can0 1A0#1F40000080000000
(1485778585.546219) can0 160#55FF000057E38FFE
(1485778585.546449) can0 180#03000FFE1FFE5000
(1485778585.546749) can0 190#8000800080008000
(1485778585.546955) can0 1C0#77C1A00080000000
(1485778585.547197) can0 1D0#A8FFFF0000000000
(1485778585.547446) can0 1E0#000000000000F1E3
(1485778585.547697) can0 210#00000000FE830000
(1485778585.547947) can0 213#00FE00000FFF1FFF
(1485778585.548197) can0 252#0000000FFF200060
(1485778585.548447) can0 030#8002A080A000B207
(1485778585.548697) can0 290#0600400100027702
(1485778585.548947) can0 0A0#00000800000080F3
(1485778585.549197) can0 200#F200B7000000C000
(1485778585.549446) can0 010#074400000000804B
(1485778585.549698) can0 2D0#000001FE70905A85
(1485778585.549948) can0 455#0000000000000000
(1485778585.552951) can0 0C8#D0874AF22152C600
(1485778585.553197) can0 260#8882000DEA61AA00
(1485778585.553570) can0 269#000005295585FF00
(1485778585.553947) can0 090#0000C20060000000
(1485778585.554249) can0 0C0#9020000040000000
(1485778585.555516) can0 0B0#00004380008013C3
(1485778585.555742) can0 140#00009C0040069F00
(1485778585.556249) can0 190#8000800080008000
(1485778585.556495) can0 218#00008F003C7DC0D8
(1485778585.558093) can0 030#8002A080A000B207
(1485778585.559000) can0 060#0000000000000000
(1485778585.559395) can0 010#083400000000804B
(1485778585.561002) can0 0A5#007CE2780027D800
(1485778585.562889) can0 150#9DA1500000000000
(1485778585.564001) can0 070#05A70A414A41F000
(1485778585.564237) can0 080#90007D0000812BF7
(1485778585.564321) can0 090#0000C20060000000
(1485778585.564622) can0 0A0#00000800000080F3
(1485778585.565019) can0 0F8#000000000000104A
(1485778585.565071) can0 120#0000000000008000
(1485778585.565377) can0 130#50003000E0000000
(1485778585.565624) can0 138#007D87E838008271
(1485778585.566000) can0 1A0#1F40000080000000
(1485778585.566071) can0 1B0#4100000000403000
(1485778585.566377) can0 160#55FF000057D397FE
(1485778585.566612) can0 180#03000FFE1FFE5000
(1485778585.566844) can0 190#8000800080008000
(1485778585.567092) can0 1C0#77C1A00080000000
(1485778585.567346) can0 1D0#A8FFFF0000000000
(1485778585.567575) can0 1E0#000000000000F2D3
(1485778585.567843) can0 208#FFFE2AA60090FF18
(1485778585.568111) can0 210#00000000FD850000
(1485778585.568368) can0 030#8002A080A000B207
(1485778585.568611) can0 213#00FD00000FFF2FFF
(1485778585.568825) can0 252#0000000FFF200060
(1485778585.569071) can0 270#5E2F042100000000
(1485778585.569322) can0 010#092400000000804B
(1485778585.569571) can0 280#C400003B84004000
(1485778585.569840) can0 2D8#045C808000000000
(1485778585.569971) can0 2F0#3030003B004E8A2D
(1485778585.570214) can0 40A#C100574630355858
(1485778585.573094) can0 0C8#D0874EF22152C600
(1485778585.573968) can0 060#0000000000000000
(1485778585.574237) can0 090#0000C20060000000
(1485778585.574467) can0 0C0#9020000040000000
(1485778585.574736) can0 200#F200B7000000C000
(1485778585.575461) can0 0B0#00004380008013C3
(1485778585.575720) can0 140#00009C0040078F00
(1485778585.576215) can0 190#8000800080008000
(1485778585.578216) can0 030#8002E080A000B207
(1485778585.578465) can0 260#8882000DEA61AA00
(1485778585.578740) can0 290#0600400100027702
(1485778585.578967) can0 0A0#00000800000080F2
(1485778585.579338) can0 010#0A1400000000804B
(1485778585.580962) can0 0A5#007CE1780017E800
(1485778585.581085) can0 1B5#000001D40AC0FFFC
(1485778585.581335) can0 298#0000001BD82B0800
(1485778585.582983) can0 150#9DA1500000000000
(1485778585.583218) can0 360#C0C03F003C7DB802
(1485778585.583594) can0 269#00000529AA85FF00
(1485778585.583966) can0 070#05A70A414A41F000
(1485778585.584237) can0 080#90007D0000812CF7
(1485778585.584469) can0 090#0000C20060000000
(1485778585.584596) can0 0F8#000000000000104A
(1485778585.584968) can0 120#0000000000008000
(1485778585.585097) can0 130#50003000E0000000
(1485778585.585342) can0 138#007D87E838008271
(1485778585.585585) can0 1A0#1F40000080000000
(1485778585.586215) can0 160#55FF000057C39FFE
(1485778585.586465) can0 180#03000FFE1FFE5000
(1485778585.586717) can0 190#8000800080008000
(1485778585.586969) can0 1C0#77C1A00080000000
(1485778585.587217) can0 1D0#A8FFFF0000000000
(1485778585.587461) can0 1E0#000000000000F3C3
(1485778585.587699) can0 210#00000000FC870000
(1485778585.587948) can0 213#00FC00000FFF3FFF
(1485778585.588212) can0 218#00008F003C7DC0D8
(1485778585.588450) can0 030#8002A080A000B207
(1485778585.588714) can0 252#0000000FFF200060
(1485778585.588964) can0 060#0000000000000000
(1485778585.589214) can0 2D0#000001FD71905A85
(1485778585.589457) can0 010#0B0400000000804B
(1485778585.589714) can0 2D4#00000000E5FEFFFE
(1485778585.592824) can0 208#FFFE3AF66F90FF98
(1485778585.593199) can0 0C8#D0874AF22152C600
(1485778585.593964) can0 090#0000C20060000000
(1485778585.594236) can0 0A0#00000800000080F2
(1485778585.594469) can0 0C0#9020000040000000
(1485778585.594735) can0 1B0#4100000000403000
(1485778585.594967) can0 270#5E2F042100000000
(1485778585.595090) can0 280#C400003B84004000
(1485778585.595461) can0 0B0#00004380008013C3
(1485778585.595716) can0 140#00009C0040087F00
(1485778585.596224) can0 190#8000800080008000
(1485778585.598091) can0 030#8002A080A000B207
(1485778585.598968) can0 200#F200B7000000C000
(1485778585.599342) can0 010#0CF400000000804B
(1485778585.600970) can0 0A5#007CE0780007F800
(1485778585.603095) can0 150#9DA1500000000000
(1485778585.603220) can0 260#8882000DEA61AA00
(1485778585.603967) can0 060#0000000000000000
(1485778585.604238) can0 070#05A70A414A41F000
(1485778585.604467) can0 080#90007D0000812CF7
(1485778585.604740) can0 090#0000C20060000000
(1485778585.604966) can0 0F8#000000000000104A
(1485778585.605239) can0 120#0000000000008000
(1485778585.605460) can0 130#50003000E0000000
(1485778585.605587) can0 138#007D87E838008271
(1485778585.605963) can0 1A0#1F40000080000000
(1485778585.606215) can0 160#55FF000057B3A7FE
(1485778585.606459) can0 180#03000FFE1FFE5000
(1485778585.606716) can0 190#8000800080008000
(1485778585.606968) can0 1C0#77C1A00080000000
(1485778585.607216) can0 1D0#A8FFFF0000000000
(1485778585.607464) can0 1E0#000000000000F4B3
(1485778585.607714) can0 210#00000000FB890000
(1485778585.607950) can0 213#00FB00000FFF4FFF
(1485778585.608197) can0 030#8002A080A000B207
(1485778585.608447) can0 252#0000000FFF200060
(1485778585.608715) can0 290#8600400100027702
(1485778585.608964) can0 0A0#00000800000080F2
(1485778585.609339) can0 010#0DE400000000804B
(1485778585.613094) can0 0C8#D0874EF22152C600
(1485778585.613711) can0 269#00000529AA85FF00
(1485778585.613988) can0 090#0000C20060000000
(1485778585.614216) can0 0C0#9020000040000000
(1485778585.615474) can0 0B0#00004380008013C3
(1485778585.615715) can0 140#00009C0040096F00
(1485778585.616216) can0 190#8000800080008000
(1485778585.616467) can0 218#00008F003C7DC0D8
(1485778585.617844) can0 208#FFFE2AA60090FF18
(1485778585.618109) can0 030#8002A080A000B207
(1485778585.618968) can0 060#0000000000000000
(1485778585.619342) can0 010#0ED400000000804B
(1485778585.620970) can0 0A5#007CEF7800F70800
(1485778585.621098) can0 1B5#000001D40AC0FFFC
(1485778585.621336) can0 298#0000001BD82B0800
(1485778585.623220) can0 150#9DA1500000000000
(1485778585.623968) can0 070#05A70A414A41F000
(1485778585.624096) can0 080#90007D0000812CF7
(1485778585.624343) can0 090#0000C217607A0000
(1485778585.624593) can0 0A0#00000800000080F1
(1485778585.624968) can0 0F8#000000000000104A
(1485778585.625094) can0 120#0000000000008000
(1485778585.625342) can0 130#50002000E0000000
(1485778585.625592) can0 138#007D87E838008271
(1485778585.625843) can0 1A0#1F40000080000000
(1485778585.626093) can0 1B0#4100000000403000
(1485778585.626341) can0 160#55FF000057A3AFFE
(1485778585.626585) can0 180#03000FFE1FFE5000
(1485778585.626841) can0 190#8000800080008000
(1485778585.627093) can0 1C0#77C1A00080000000
(1485778585.627325) can0 1D0#A8FFFF0000000000
(1485778585.627572) can0 1E0#000000000000F5A3
(1485778585.627823) can0 200#F200B7000000C000
(1485778585.628089) can0 210#00000000FA8B0000
(1485778585.628336) can0 030#8002A080A000B207
(1485778585.628589) can0 17E#C020004000200000
(1485778585.628840) can0 213#00FA00000FFF5FFF
(1485778585.629089) can0 252#0000000FFF200060
(1485778585.629340) can0 260#8882000DEA61AA00
(1485778585.629449) can0 010#0FC400000000804B
(1485778585.629711) can0 270#5E2F042100000000
(1485778585.629964) can0 280#C400003B84004000
(1485778585.630212) can0 2D0#000001FC72905A85
(1485778585.630463) can0 2D8#045C808000000000
(1485778585.630714) can0 340#000000000300662F
(1485778585.633214) can0 0C8#D0874AF22152C600
(1485778585.633469) can0 310#D944306000400074
(1485778585.633971) can0 060#0000000000000000
(1485778585.634200) can0 090#0000C217607A0000
(1485778585.634447) can0 0C0#9020000040000000
(1485778585.635469) can0 0B0#00004380008013C3
(1485778585.635719) can0 140#00009C00400A5F00
(1485778585.636215) can0 190#8000800080008000
(1485778585.638232) can0 030#8002A080A000B207
(1485778585.638487) can0 290#0600400100027702
(1485778585.638965) can0 0A0#00000800000080F1
(1485778585.639342) can0 010#00B400000000804B
(1485778585.640968) can0 0A5#007CEE7800E71800
(1485778585.642844) can0 150#9DA1500000000000
(1485778585.643092) can0 208#7EF42AA60090FF18
(1485778585.643717) can0 269#00000529AA85FF00
(1485778585.643968) can0 070#05A70A414A41F000
(1485778585.644218) can0 080#90007D0000812CF7
(1485778585.644345) can0 090#0000C217607A0000
(1485778585.644593) can0 0F8#000000000000104A
(1485778585.644968) can0 120#0000000000008000
(1485778585.645073) can0 130#50002000E0000000
(1485778585.645336) can0 138#007D87E838008271
(1485778585.645588) can0 1A0#1F40000080000000
(1485778585.646214) can0 160#55FF00005793B7FE
(1485778585.646471) can0 180#03000FFE1FFE5000
(1485778585.646720) can0 190#8000800080008000
(1485778585.646968) can0 1C0#77C1A00080000000
(1485778585.647199) can0 1D0#A8FFFF0000000000
(1485778585.647448) can0 1E0#000000000000F693
(1485778585.647697) can0 210#00000000F98D0000
(1485778585.647970) can0 213#00F900000FFF6FFF
(1485778585.648237) can0 218#00008F003C7DC0D8
(1485778585.648476) can0 030#8002A080A000B207
(1485778585.648715) can0 252#0000000FFF200060
(1485778585.648968) can0 060#0000000000000000
(1485778585.649243) can0 200#F200B7000000C000
(1485778585.649450) can0 010#01A400000000804B
(1485778585.649699) can0 2D4#00000000E5FEFFFE
(1485778585.649948) can0 405#0237330028003C7D
(1485778585.650198) can0 455#0000000000000000
(1485778585.653095) can0 0C8#D0874EF22152C600
(1485778585.653214) can0 260#8882000DEA61AA00
(1485778585.653969) can0 090#0000C217607A0000
(1485778585.654237) can0 0A0#00000800000080F1
(1485778585.654471) can0 0C0#9020000040000000
(1485778585.654595) can0 1B0#4100000000403000
(1485778585.654964) can0 270#5E2F042100000000
(1485778585.655091) can0 280#C400003B84004000
(1485778585.655340) can0 2F0#3030003B004E8A2D
(1485778585.655590) can0 0B0#00004380008013C3
(1485778585.655839) can0 140#0000BC01400B4F00
(1485778585.656216) can0 190#8000800080008000
(1485778585.658221) can0 030#8002E0A0A000B207
(1485778585.659216) can0 010#029400000000804B
(1485778585.661983) can0 0A5#007CED7800D72800
(1485778585.662218) can0 1B5#000001D40AC0FFFC
(1485778585.662461) can0 298#0000001BD82B0800
(1485778585.662850) can0 150#9DA1500000000000
(1485778585.663969) can0 060#0000000000000000
(1485778585.664218) can0 070#05A70A414A41F000
(1485778585.664344) can0 080#90007D0000812CF7
(1485778585.664598) can0 090#0000C217607A0000
(1485778585.664966) can0 0F8#000000000000104A
(1485778585.665092) can0 120#0000000000008000
(1485778585.665338) can0 130#50002000E0000000
(1485778585.665592) can0 138#007D87E838008271
(1485778585.665967) can0 1A0#1F40000080000000
(1485778585.666217) can0 160#55FF00005783BE04
(1485778585.666460) can0 180#03000DF717FFF000
(1485778585.666709) can0 190#8000800080008000
(1485778585.666960) can0 1C0#77C1A00080000000
(1485778585.667215) can0 1D0#A8FFFF0000000000
(1485778585.667450) can0 1E0#000000000000F783
(1485778585.667698) can0 210#00000000F88F0000
(1485778585.667962) can0 213#00F800000FFF7FFF
(1485778585.668201) can0 208#7F0B2AA60090FF18
(1485778585.668461) can0 030#8002A080A000B207
(1485778585.668701) can0 252#0000000FFF200060
(1485778585.668962) can0 0A0#00000800000080F1
(1485778585.669201) can0 290#0600400100027702
(1485778585.669448) can0 010#038400000000804B
(1485778585.669699) can0 2D0#000001FB73905A85
(1485778585.672950) can0 0C8#D0874AF22152C600
(1485778585.673697) can0 269#000005295585FF00
(1485778585.673948) can0 090#0000C217607A0000
(1485778585.674198) can0 0C0#9020000040000000
(1485778585.674467) can0 200#F200B7000000C000
(1485778585.675464) can0 0B0#00004380008013C3
(1485778585.675707) can0 140#0000BC01400C3F00
(1485778585.676217) can0 190#8000800080008000
(1485778585.676468) can0 218#00008F003C7DC0D8
(1485778585.678219) can0 030#8002A080A000B207
(1485778585.678487) can0 260#8882000DEA61AA00
(1485778585.678967) can0 060#0000000000000000
(1485778585.679343) can0 010#047400000000804B
(1485778585.680970) can0 0A5#007CEC7800C73800
(1485778585.683099) can0 150#9DA1500000000000
(1485778585.683968) can0 070#05A70A3E4A3EF000
(1485778585.684093) can0 080#90007D00008123F7
(1485778585.684336) can0 090#0000C217607A0000
(1485778585.684593) can0 0A0#0000080000008136
(1485778585.684967) can0 0F8#000000000000104A
(1485778585.685092) can0 120#0000000000008000
(1485778585.685343) can0 130#50002000E0000000
(1485778585.685595) can0 138#007D87E838008271
(1485778585.685860) can0 1A0#1F40000080000000
(1485778585.686092) can0 1B0#4100000000403000
(1485778585.686344) can0 160#55FF00005773C604
(1485778585.686616) can0 180#03000DF61805F000
(1485778585.686866) can0 190#8000800080008000
(1485778585.687075) can0 1C0#77C1A00080000000
(1485778585.687323) can0 1D0#A8FFFF0000000000
(1485778585.687572) can0 1E0#000000000000F873
(1485778585.687824) can0 210#00000000F7910000
(1485778585.688073) can0 213#00F700000FFF8FFF
(1485778585.688324) can0 030#8002A080A000B207
(1485778585.688573) can0 252#0000000FFF200060
(1485778585.688824) can0 270#5E2F042100000000
(1485778585.689073) can0 280#C400003B84004000
(1485778585.689198) can0 2D8#045C808000000000
(1485778585.689449) can0 010#056400000000804B
(1485778585.693075) can0 0C8#D0874EF22152C600
(1485778585.693342) can0 208#7F053AF66F90FF98
(1485778585.693602) can0 40A#C101474343354645
(1485778585.693967) can0 060#0000000000000000
(1485778585.694237) can0 090#0000C217607A0000
(1485778585.694488) can0 0C0#9020000040000000
(1485778585.695474) can0 0B0#00004380008013C3
(1485778585.695717) can0 140#00009C00400D2F00
(1485778585.696225) can0 190#8000800080008000
(1485778585.698094) can0 030#8002A080A000B207
(1485778585.698362) can0 290#8600400100027702
(1485778585.698967) can0 0A0#0000080000008136
(1485778585.699089) can0 200#F200B7000000C000
(1485778585.699343) can0 010#065400000000804B
(1485778585.700968) can0 0A5#007CEB7800B74800
(1485778585.701084) can0 1B5#000001D40AC0FFFC
(1485778585.701343) can0 298#0000001BD82B0800
(1485778585.703220) can0 150#9DA1500000000000
(1485778585.703336) can0 260#8882000DEA61AA00
(1485778585.703738) can0 269#000005295585FF00
(1485778585.703969) can0 070#05A70A354A35F000
(1485778585.704215) can0 080#90007D00008107F7
(1485778585.704489) can0 090#0000C217607A0000
(1485778585.704720) can0 0F8#000000000000104A
(1485778585.704990) can0 120#0000000000008000
(1485778585.705220) can0 130#50002000E0000000
(1485778585.705333) can0 138#007D87E838008271
(1485778585.705591) can0 1A0#1F40000080000000
(1485778585.706232) can0 160#55FF00005763CE01
(1485778585.706469) can0 180#03000DF11804F000
(1485778585.706721) can0 190#8000800080008000
(1485778585.706951) can0 1C0#77C1A00080000000
(1485778585.707198) can0 1D0#A8FFFF0000000000
(1485778585.707449) can0 1E0#000000000000F963
(1485778585.707698) can0 210#00000000F6930000
(1485778585.707949) can0 213#00F600000FFF9FFF
(1485778585.708198) can0 030#8002A080A000B207
(1485778585.708448) can0 218#00008F003C7DC0D8
(1485778585.708698) can0 252#0000000FFF200060
(1485778585.708948) can0 060#0000000000000000
(1485778585.709199) can0 2D0#000001FA74905A85
(1485778585.709448) can0 010#074400000000804B
(1485778585.709699) can0 2D4#00000000E5FEFFFE
(1485778585.713075) can0 0C8#D0874AF22152C600
(1485778585.713949) can0 090#0000C217607A0000
(1485778585.714073) can0 0A0#0000080000008136
(1485778585.714348) can0 0C0#9020000040000000
(1485778585.714595) can0 1B0#4100000000403000
(1485778585.714969) can0 270#5E2F042100000000
(1485778585.715094) can0 280#C400003B84004000
(1485778585.715462) can0 0B0#00004380008013C3
(1485778585.715720) can0 140#00009C00400E1F00
(1485778585.716218) can0 190#8000800080008000
(1485778585.718094) can0 030#8002A080A000B207
(1485778585.718370) can0 208#7F032AA60090FF18
(1485778585.718592) can0 400#070701050B010000
(1485778585.719224) can0 010#083400000000804B
(1485778585.720970) can0 0A5#007CEA7800A75800
(1485778585.722967) can0 150#9DA1500000000000
(1485778585.723966) can0 060#0000000000000000
(1485778585.724093) can0 070#05A70A354A35F000
(1485778585.724359) can0 080#90007D00008100F7
(1485778585.724594) can0 090#0000C217607A0000
(1485778585.724969) can0 0F8#000000000000104A
(1485778585.725095) can0 120#0000000000008000
(1485778585.725344) can0 130#50002000E0000000
(1485778585.725589) can0 138#007D87E838008271
(1485778585.725968) can0 1A0#1F40000080000000
(1485778585.726095) can0 200#F200B7000000C000
(1485778585.726345) can0 160#55FF00005753D5FF
(1485778585.726618) can0 180#03000DF21803F000
(1485778585.726845) can0 190#8000800080008000
(1485778585.727115) can0 1C0#77C1A00080000000
(1485778585.727344) can0 1D0#A8FFFF0000000000
(1485778585.727575) can0 1E0#000000000000FA53
(1485778585.727824) can0 210#00000000F5950000
(1485778585.728073) can0 213#00F500000FFFAFFF
(1485778585.728324) can0 252#0000000FFF200060
(1485778585.728573) can0 030#8002A080A000B207
(1485778585.728824) can0 17E#C020004000200000
(1485778585.729073) can0 0A0#0000080000008136
(1485778585.729198) can0 260#8882000DEA61AA00
(1485778585.729448) can0 010#092400000000804B
(1485778585.729699) can0 290#0600400100027702
(1485778585.729949) can0 380#10917CA76000C0A9
(1485778585.730198) can0 3B4#401111FF00000000
(1485778585.730449) can0 435#B200B9D276BAB3C3
(1485778585.733076) can0 0C8#D0874EF22152C600
(1485778585.733342) can0 310#D944306000400074
(1485778585.733587) can0 360#C0C03F003C7DB802
(1485778585.733862) can0 269#000005295585FF00
(1485778585.734094) can0 090#0000C217607A0000
(1485778585.734219) can0 0C0#9020000040000000
(1485778585.735461) can0 0B0#00004380008013C3
(1485778585.735720) can0 140#00009C00400F0F00
(1485778585.736215) can0 190#8000800080008000
(1485778585.736469) can0 218#00008F003C7DC0D8
(1485778585.738233) can0 030#8002E080A000B207
(1485778585.738969) can0 060#0000000000000000
(1485778585.739344) can0 010#0A1400000000804B
(1485778585.740969) can0 0A5#007CE97800976800
(1485778585.741090) can0 1B5#000001D40AC0FFFC
(1485778585.741336) can0 298#0000001BD82B0800
(1485778585.742983) can0 150#9DA1500000000000
(1485778585.743369) can0 208#7F112AA60090FF18
(1485778585.743969) can0 070#05A70A354A35F000
(1485778585.744091) can0 080#90007D000080FDF7
(1485778585.744350) can0 090#0000C217607A0000
(1485778585.744594) can0 0A0#0000080000008136
(1485778585.744970) can0 0F8#000000000000104A
(1485778585.745092) can0 120#0000000000008000
(1485778585.745335) can0 130#50002000E0000000
(1485778585.745604) can0 138#007D87E838008271
(1485778585.745967) can0 1A0#1F40000080000000
(1485778585.746092) can0 1B0#4100000000403000
(1485778585.746342) can0 160#55FF00005743DDFF
(1485778585.746595) can0 180#03000DF71803F000
(1485778585.746826) can0 190#8000800080008000
(1485778585.747074) can0 1C0#77C1A00080000000
(1485778585.747324) can0 1D0#A8FFFF0000000000
(1485778585.747573) can0 1E0#000000000000FB43
(1485778585.747824) can0 210#00000000F4970000
(1485778585.748074) can0 213#00F400000FFFBFFF
(1485778585.748324) can0 030#8002A080A000B207
(1485778585.748574) can0 252#0000000FFF200060
(1485778585.748823) can0 270#5E2F042100000000
(1485778585.749074) can0 280#C400003B84004000
(1485778585.749323) can0 2D0#000001F975905A85
(1485778585.749448) can0 010#0B0400000000804B
(1485778585.749699) can0 200#F200B7000000C000
(1485778585.749949) can0 2D8#045C808000000000
(1485778585.750199) can0 2F0#3030003B004E8A2D
(1485778585.750447) can0 340#000000000300662F
(1485778585.750699) can0 455#0000000000000000
(1485778585.753077) can0 0C8#D0874AF22152C600
(1485778585.753361) can0 260#8882000DEA61AA00
(1485778585.753969) can0 060#0000000000000000
(1485778585.754214) can0 090#0000C20D60990000
(1485778585.754337) can0 0C0#9020000040000000
(1485778585.755470) can0 0B0#00004380008013C3
(1485778585.755745) can0 140#0000BC014000FF00
(1485778585.756212) can0 190#8000800080008000
(1485778585.758213) can0 030#8002A080A000B207
(1485778585.758488) can0 290#8600400100027702
(1485778585.758969) can0 0A0#0000080000008136
(1485778585.759348) can0 010#0CF400000000804B
(1485778585.760969) can0 0A5#007CE87800877800
(1485778585.762848) can0 150#9DA1500000000000
(1485778585.763710) can0 269#00000529AA85FF00
(1485778585.763986) can0 070#05A70A354A35F000
(1485778585.764220) can0 080#90007D000080FDF7
(1485778585.764469) can0 090#0000C20D60990000
(1485778585.764718) can0 0F8#000000000000104A
(1485778585.764971) can0 120#0000000000008000
(1485778585.765212) can0 130#50002000E0000000
(1485778585.765452) can0 138#007D87E838008271
(1485778585.765699) can0 1A0#1F40000080000000
(1485778585.766200) can0 160#55FF00005733E5FF
(1485778585.766466) can0 180#03000DF81807F000
(1485778585.766711) can0 190#8000800080008000
(1485778585.766968) can0 1C0#77C1A00080000000
(1485778585.767218) can0 1D0#A8FFFF0000000000
(1485778585.767451) can0 1E0#000000000000FC33
(1485778585.767699) can0 210#00000000F3990000
(1485778585.767950) can0 213#00F300000FFFCFFF
(1485778585.768199) can0 218#00008F003C7DC0D8
(1485778585.768454) can0 030#8002A080A000B207
(1485778585.768699) can0 208#7F082AA60090FF18
(1485778585.768949) can0 252#0000000FFF200060
(1485778585.769199) can0 060#0000000000000000
(1485778585.769449) can0 010#0DE400000000804B
(1485778585.769700) can0 2D4#00000000E5FEFFFE
(1485778585.772951) can0 0C8#D0874EF22152C600
(1485778585.773949) can0 090#0000C20D60990000
(1485778585.774199) can0 0A0#0000080000008136
(1485778585.774449) can0 0C0#9020000040000000
(1485778585.774699) can0 1B0#4100000000403000
(1485778585.774949) can0 200#F200B7000000C000
(1485778585.775199) can0 270#5E2F042100000000
(1485778585.775450) can0 280#C400003B84004000
(1485778585.775699) can0 0B0#00004380008013C3
(1485778585.775949) can0 140#0000BC014001EF00
(1485778585.776201) can0 190#8000800080008000
(1485778585.778199) can0 030#8002A080A000B207
(1485778585.778449) can0 260#8882000DEA61AA00
(1485778585.779199) can0 010#0ED400000000804B
(1485778585.780949) can0 0A5#007CE77800778800
(1485778585.781083) can0 1B5#000001D40AC0FFFC
(1485778585.781344) can0 298#0000001BD82B0800
(1485778585.783346) can0 150#968B700000000000
(1485778585.784002) can0 060#0000000000000000
(1485778585.784074) can0 070#05A70A354A35F000
(1485778585.784377) can0 080#90007D000080FDF7
(1485778585.784584) can0 090#0000C20D60990000
(1485778585.784971) can0 0F8#000000000000104A
(1485778585.785092) can0 120#0000000000008000
(1485778585.785344) can0 130#50002000E0000000
(1485778585.785598) can0 138#007D87E838008271
(1485778585.785969) can0 1A0#1F40000080000000
(1485778585.786222) can0 160#55FF00005723EDFF
(1485778585.786471) can0 180#03000DF21805F000
(1485778585.786718) can0 190#8000800080008000
(1485778585.786969) can0 1C0#77C1A00080000000
(1485778585.787243) can0 1D0#A8FFFF0000000000
(1485778585.787451) can0 1E0#000000000000FD23
(1485778585.787707) can0 210#00000000F29B0000
(1485778585.787949) can0 213#00F200000FFFDFFF
(1485778585.788200) can0 030#8002A080A000B207
(1485778585.788449) can0 252#0000000FFF200060
(1485778585.788699) can0 290#0600C00100027702
(1485778585.788950) can0 0A0#0000080000008136
(1485778585.789199) can0 2D0#000001F876905A85
(1485778585.789450) can0 010#0FC400000000804B
(1485778585.793076) can0 0C8#D0874AF22152C600
(1485778585.793451) can0 208#7F003AF66F90FF98
(1485778585.793699) can0 388#0000414279421600
(1485778585.793950) can0 090#0000C20D60990000
(1485778585.794199) can0 0C0#9020000040000000
(1485778585.794449) can0 269#00000529AA85FF00
(1485778585.795449) can0 0B0#00004380008013C3
(1485778585.795720) can0 140#0000BC014002DF00
(1485778585.796217) can0 190#8000800080008000
(1485778585.796467) can0 218#00008F003C7DC0D8
(1485778585.798095) can0 030#8002A080A000B207
(1485778585.798968) can0 060#0000000000000000
(1485778585.799095) can0 200#F200B7000000C000
(1485778585.799344) can0 010#00B400000000804B
(1485778585.800971) can0 0A5#007CE67800679800
(1485778585.802964) can0 150#968B500000000000
(1485778585.803221) can0 260#8882000DEA61AA00
(1485778585.803970) can0 070#05A70A344A34F000
(1485778585.804096) can0 080#90007D000080F9F7
(1485778585.804345) can0 090#0000C20D60990000
(1485778585.804595) can0 0A0#0000080000008131
(1485778585.804969) can0 0F8#000000000000104A
(1485778585.805099) can0 120#0000000000008000
(1485778585.805344) can0 130#50002000E0000000
(1485778585.805593) can0 138#007D87E838008271
(1485778585.805862) can0 1A0#1F40000080000000
(1485778585.806093) can0 1B0#4100000000403000
(1485778585.806348) can0 160#55FF00005713F5FF
(1485778585.806576) can0 180#03000DEF1803F000
(1485778585.806825) can0 190#8000800080008000
(1485778585.807074) can0 1C0#77C1A00080000000
(1485778585.807325) can0 1D0#A8FFFF0000000000
(1485778585.807575) can0 1E0#000000000000FE13
(1485778585.807825) can0 210#00000000F19D0000
(1485778585.808075) can0 213#00F100000FFFEFFF
(1485778585.808324) can0 030#8002A080A000B207
(1485778585.808575) can0 252#0000000FFF200060
(1485778585.808824) can0 270#5E2F042100000000
(1485778585.808949) can0 280#C400003B84004000
(1485778585.809199) can0 2D8#045C808000000000
(1485778585.809449) can0 010#01A400000000804B
(1485778585.813202) can0 0C8#D0874EF22152C600
(1485778585.813969) can0 060#0000000000000000
(1485778585.814090) can0 090#0000C20D60990000
(1485778585.814354) can0 0C0#9020000040000000
(1485778585.815466) can0 0B0#00004380008013C3
(1485778585.815740) can0 140#00009C004003CF00
(1485778585.816215) can0 190#8000800080008000
(1485778585.818096) can0 030#8002A080A000B207
(1485778585.818363) can0 290#0600400100027702
(1485778585.818591) can0 208#7EFE2AA60090FF18
(1485778585.818718) can0 40A#C102333133373000
(1485778585.818968) can0 0A0#000008000000810D
(1485778585.819344) can0 010#029400000000804B
(1485778585.820969) can0 0A5#007CE5780057A800
(1485778585.821086) can0 1B5#000001D40AC0FFFC
(1485778585.821364) can0 298#0000001BD82B0800
(1485778585.823215) can0 150#968B500000000000
(1485778585.823713) can0 269#00000529AA85FF00
(1485778585.823970) can0 070#05A70A344A34F000
(1485778585.824244) can0 080#90007D000080F8F7
(1485778585.824470) can0 090#0000C20D60990000
(1485778585.824729) can0 0F8#000000000000104A
(1485778585.824981) can0 120#0000000000008000
(1485778585.825202) can0 130#50002000E0000000
(1485778585.825450) can0 138#007D87E838008271
(1485778585.825699) can0 1A0#1F40000080000000
(1485778585.825950) can0 200#F200B7010000C000
(1485778585.826216) can0 160#55FF00005703FDFF
(1485778585.826470) can0 180#03000DF017FFF000
(1485778585.826719) can0 190#8000800080008000
(1485778585.826970) can0 1C0#77C1A00080000000
(1485778585.827216) can0 1D0#A8FFFF0000000000
(1485778585.827466) can0 1E0#000000000000FF03
(1485778585.827702) can0 210#00000000F09F0000
(1485778585.827950) can0 213#00F000000FFFFFFF
(1485778585.828200) can0 218#00008F003C7DC0D8
(1485778585.828466) can0 030#8002E080A000B207
(1485778585.828716) can0 17E#C020004000278000
(1485778585.828966) can0 060#0000000000000000
(1485778585.829214) can0 252#0000000FFF200060
(1485778585.829465) can0 010#038400000000804B
(1485778585.829714) can0 260#8882000DEA61AA00
(1485778585.829953) can0 2D0#000001F777905A85
(1485778585.830199) can0 2D4#00000000E5FEFFFE
(1485778585.832952) can0 0C8#D0874AF22152C600
(1485778585.833216) can0 310#DB44306000400074
(1485778585.833962) can0 090#0000C21E60EC0000
(1485778585.834084) can0 0A0#00000800000080F4
(1485778585.834349) can0 0C0#9020000040000000
(1485778585.834602) can0 1B0#4100000000403000
(1485778585.834970) can0 270#5E2F042100000000
(1485778585.835095) can0 280#C400003B84004000
(1485778585.835345) can0 2F0#3030003B004E8A2D
(1485778585.835591) can0 0B0#00004380008013C3
(1485778585.835846) can0 140#00009C004004BF00
(1485778585.836218) can0 190#8000800080008000
(1485778585.838221) can0 030#8002A080A000B207
(1485778585.839216) can0 010#047400000000804B
(1485778585.839609) can0 5E2#6200FFFFFFFFFFFF
(1485778585.840969) can0 0A5#007CE4780047B800
(1485778585.842723) can0 581#8100FFFFFFFFFFFF
(1485778585.842971) can0 150#968B500000000000
(1485778585.843596) can0 208#7F0E2AA60090FF18
(1485778585.843970) can0 060#0000000000000000
(1485778585.844088) can0 070#05A70A334A33F000
(1485778585.844344) can0 080#90007D000080F8F7
(1485778585.844589) can0 090#0000C21E60EC0000
(1485778585.844970) can0 0F8#000000000000104A
(1485778585.845094) can0 120#0000000000008000
(1485778585.845343) can0 130#50002000E0000000
(1485778585.845592) can0 138#007D87E838008271
(1485778585.845847) can0 1A0#1F40000080000000
(1485778585.846204) can0 160#55FF000057F385FF
(1485778585.846465) can0 180#03000DF91801F000
(1485778585.846703) can0 190#8000800080008000
(1485778585.846950) can0 1C0#77C1A00080000000
(1485778585.847200) can0 1D0#A8FFFF0000000000
(1485778585.847451) can0 1E0#000000000000F0F3
(1485778585.847701) can0 210#00000000FF810000
(1485778585.847950) can0 213#00FF00000FFF0FFF
(1485778585.848200) can0 252#0000000FFF200060
(1485778585.848450) can0 030#8002A080A000B207
(1485778585.848700) can0 290#8600400100027702
(1485778585.848950) can0 0A0#00000800000080CE
(1485778585.849200) can0 200#F200B7010000C000
(1485778585.849451) can0 010#056400000000804B
(1485778585.849700) can0 3DA#0000000000000000
(1485778585.849950) can0 3E2#0000000000000000
(1485778585.850325) can0 3EA#0000000000006000
(1485778585.850576) can0 455#0000000000000000
(1485778585.852953) can0 0C8#D0874EF22152C600
(1485778585.853200) can0 260#8882000DEA61AA00
(1485778585.853825) can0 269#00000529AA85FF00
(1485778585.854114) can0 090#0000C21E60EC0000
(1485778585.854365) can0 0C0#9020000040000000
(1485778585.855470) can0 0B0#00004380008013C3
(1485778585.855742) can0 140#0000BC014005AF00
(1485778585.856234) can0 190#8000800080008000
(1485778585.856470) can0 218#00008F003C7DC0D8
(1485778585.858220) can0 030#8002A080A000B207
(1485778585.858969) can0 060#0000000000000000
(1485778585.859345) can0 010#065400000000804B
(1485778585.860853) can0 0A5#007CE3780037C800
(1485778585.861096) can0 1B5#000001D40AC0FFFC
(1485778585.861344) can0 298#0000001BD82B0800
(1485778585.862964) can0 150#968B500000000000
(1485778585.864096) can0 070#05A70A334A33F000
(1485778585.864365) can0 080#90007D000080F7F7
(1485778585.864616) can0 090#0000C21E60EC0000
(1485778585.864866) can0 0A0#00000800000080BB
(1485778585.865116) can0 0F8#000000000000104A
(1485778585.865328) can0 120#0000000000008000
(1485778585.865576) can0 130#50002000E0000000
(1485778585.865840) can0 138#007D87E838008271
(1485778585.866077) can0 1A0#1F40000080000000
(1485778585.866325) can0 160#55FF000057E38DFD
(1485778585.866459) can0 180#03000DFF1806F000
(1485778585.866725) can0 190#8000800080008000
(1485778585.866975) can0 1B0#4100000000403000
(1485778585.867202) can0 1C0#77C1A00080000000
(1485778585.867450) can0 1D0#A8FFFF0000000000
(1485778585.867700) can0 1E0#000000000000F1E3
(1485778585.867950) can0 210#00000000FE830000
(1485778585.868200) can0 213#00FE00000FFF1FFF
(1485778585.868451) can0 030#8002A080A000B207
(1485778585.868700) can0 208#7F1C2AA60090FF18
(1485778585.868950) can0 252#0000000FFF200060
(1485778585.869200) can0 270#5E2F042100000000
(1485778585.869450) can0 010#074400000000804B
(1485778585.869701) can0 280#C400003B84004000
(1485778585.869950) can0 2D0#000001F678905A85
(1485778585.870201) can0 2D8#045C808000000000
(1485778585.870450) can0 340#000000000300662F
(1485778585.873200) can0 0C8#D0874AF22152C600
(1485778585.873950) can0 060#0000000000000000
(1485778585.874076) can0 090#0000C21E60EC0000
(1485778585.874348) can0 0C0#9020000040000000
(1485778585.874590) can0 200#F200B7010000C000
(1485778585.875470) can0 0B0#00004380008013C3
(1485778585.875723) can0 140#0000BC0140069F00
(1485778585.876229) can0 190#8000800080008000
(1485778585.878109) can0 030#8002A080A000B207
(1485778585.878345) can0 260#8882000DEA61AA00
(1485778585.878618) can0 290#0600400100027702
(1485778585.878970) can0 0A0#000008000000808D
(1485778585.879342) can0 010#083400000000804B
(1485778585.880851) can0 0A5#007CE2780027D800
(1485778585.882985) can0 150#968B500000000000
(1485778585.883220) can0 360#C0C03F003C7DB802
(1485778585.883842) can0 269#000005295585FF00
(1485778585.883970) can0 070#05A70A304A30F000
(1485778585.884220) can0 080#90007D000080EDF7
(1485778585.884469) can0 090#0000C21E60EC0000
(1485778585.884719) can0 0F8#000000000000104A
(1485778585.884968) can0 120#0000000000008000
(1485778585.885218) can0 130#50002000E0000000
(1485778585.885467) can0 138#007D87E838008271
(1485778585.885716) can0 1A0#1F40000080000000
(1485778585.886204) can0 160#55FF000057D395FD
(1485778585.886451) can0 180#03000DF7180CF000
(1485778585.886700) can0 190#8000800080008000
(1485778585.886968) can0 1C0#77C1A00080000000
(1485778585.887203) can0 1D0#A8FFFF0000000000
(1485778585.887450) can0 1E0#000000000000F2D3
(1485778585.887700) can0 210#00000000FD850000
(1485778585.887950) can0 213#00FD00000FFF2FFF
(1485778585.888201) can0 030#8002A080A000B207
(1485778585.888449) can0 218#00008F003C7DC0D8
(1485778585.888701) can0 252#0000000FFF200060
(1485778585.888951) can0 060#0000000000000000
(1485778585.889200) can0 2D4#00000000E5FEFFFE
(1485778585.889450) can0 010#092400000000804B
(1485778585.893202) can0 0C8#D0874EF22152C600
(1485778585.893700) can0 208#7F013AF66F90FF98
(1485778585.894200) can0 090#0000C231614B0000
(1485778585.894489) can0 0A0#0000080000008078
(1485778585.894722) can0 0C0#9020000040000000
(1485778585.894994) can0 1B0#4100000000403000
(1485778585.895224) can0 270#5E2F042100000000
(1485778585.895347) can0 280#C400003B84004000
(1485778585.895595) can0 0B0#00004380008013C3
(1485778585.895990) can0 140#00009C0040078F00
(1485778585.896205) can0 190#8000800080008000
(1485778585.898111) can0 030#8002E080A000B207
(1485778585.898345) can0 405#2600000000000000
(1485778585.898976) can0 200#F200B7020000C000
(1485778585.899344) can0 010#0A1400000000804B
(1485778585.902105) can0 0A5#007CE1780017E800
(1485778585.902344) can0 1B5#000001D40AC0FFFC
(1485778585.902597) can0 298#0000001BD82B0800
(1485778585.903101) can0 150#968B500000000000
(1485778585.903349) can0 260#8882000DEA61AA00
(1485778585.903970) can0 060#0000000000000000
(1485778585.904237) can0 070#05A70A304A30F000
(1485778585.904472) can0 080#90007D000080EBF7
(1485778585.904739) can0 090#0000C231614B0000
(1485778585.904953) can0 0F8#000000000000104A
(1485778585.905201) can0 120#0000000000008000
(1485778585.905468) can0 130#50002000E0000000
(1485778585.905704) can0 138#007D87E838008271
(1485778585.905950) can0 1A0#1F40000080000000
(1485778585.906203) can0 160#55FF000057C39DFF
(1485778585.906450) can0 180#03000DE31808F000
(1485778585.906701) can0 190#8000800080008000
(1485778585.906950) can0 1C0#77C1A00080000000
(1485778585.907201) can0 1D0#A8FFFF0000000000
(1485778585.907451) can0 1E0#000000000000F3C3
(1485778585.907700) can0 210#00000000FC870000
(1485778585.907951) can0 213#00FC00000FFF3FFF
(1485778585.908200) can0 252#0000000FFF200060
(1485778585.908451) can0 030#8002A080A000B207
(1485778585.908700) can0 290#8600400100027702
(1485778585.908951) can0 2D0#000001F579905A85
(1485778585.909201) can0 0A0#0000080000008053
(1485778585.909450) can0 010#0B0400000000804B
(1485778585.912953) can0 0C8#D0874AF22152C600
(1485778585.913825) can0 269#000005295585FF00
(1485778585.914075) can0 090#0000C231614B0000
(1485778585.914326) can0 0C0#9020000040000000
(1485778585.915326) can0 0B0#00004380008013C3
(1485778585.915601) can0 140#00009C0040087F00
(1485778585.916235) can0 190#8000800080008000
(1485778585.916469) can0 218#00008F003C7DC0D8
(1485778585.918222) can0 030#8002A080A000B207
(1485778585.918724) can0 208#7EF22AA60090FF18
(1485778585.918970) can0 060#0000000000000000
(1485778585.919346) can0 010#0CF400000000804B
(1485778585.920970) can0 0A5#007CE0780007F800
(1485778585.922991) can0 150#968B500000000000
(1485778585.923958) can0 070#05A70A2D4A2DF000
(1485778585.924076) can0 080#90007D000080E4F7
(1485778585.924324) can0 090#0000C231614B0000
(1485778585.924576) can0 0A0#000008000000804B
(1485778585.924826) can0 0F8#000000000000104A
(1485778585.925090) can0 120#0000000000008000
(1485778585.925346) can0 130#50002000E0000000
(1485778585.925595) can0 138#007D87E838008271
(1485778585.925828) can0 1A0#1F40000080000000
(1485778585.926075) can0 1B0#4100000000403000
(1485778585.926326) can0 160#55FF000057B3A5FF
(1485778585.926576) can0 180#03000DE617FFF000
(1485778585.926826) can0 190#8000800080008000
(1485778585.927076) can0 1C0#77C1A00080000000
(1485778585.927325) can0 1D0#A8FFFF0000000000
(1485778585.927576) can0 1E0#000000000000F4B3
(1485778585.927825) can0 200#F200B7020000C000
(1485778585.928076) can0 210#00000000FB890000
(1485778585.928199) can0 213#00FB00000FFF4FFF
(1485778585.928450) can0 030#8002A080A000B207
(1485778585.928701) can0 17E#C020004000200000
(1485778585.928950) can0 252#0000000FFF200060
(1485778585.929218) can0 260#8882000DEA61AC00
(1485778585.929464) can0 010#0DE400000000804B
(1485778585.929718) can0 270#5E2F042100000000
(1485778585.929969) can0 280#C400005184004000
(1485778585.930217) can0 2D8#045C808000000000
(1485778585.930468) can0 2F0#30300051004E8A2D
(1485778585.933080) can0 0C8#D0874EF22152C600
(1485778585.933326) can0 310#D944306000400074
(1485778585.933951) can0 060#0000000000000000
(1485778585.934090) can0 090#0000C231614B0000
(1485778585.934348) can0 0C0#9020000040000000
(1485778585.935328) can0 0B0#00004380008013C3
(1485778585.935576) can0 140#00009C0040096F00
(1485778585.936237) can0 190#8000800080008000
(1485778585.938088) can0 030#8002A080A000B207
(1485778585.938327) can0 290#0600400100027702
(1485778585.938951) can0 0A0#0000080000008026
(1485778585.939346) can0 010#0ED400000000804B
(1485778585.940851) can0 0A5#007CEF7800F70800
(1485778585.941096) can0 1B5#000001D40AC0FFFC
(1485778585.941344) can0 298#0000001BD82B0800
(1485778585.942966) can0 150#968B500000000000
(1485778585.943222) can0 40A#C103108022898887
(1485778585.943848) can0 269#000005295585FF00
(1485778585.944096) can0 070#05A70A2D4A2DF000
(1485778585.944347) can0 080#90007D000080E1F7
(1485778585.944596) can0 090#0000C23661920000
(1485778585.944840) can0 0F8#000000000000104A
(1485778585.945079) can0 120#0000000000008000
(1485778585.945327) can0 130#50002000E0000000
(1485778585.945451) can0 138#007D87E838008271
(1485778585.945701) can0 1A0#1F40000080000000
(1485778585.945970) can0 208#7F0A2AA60090FF18
(1485778585.946222) can0 160#55FF000057A3ADFD
(1485778585.946483) can0 180#03000DFE17FFF000
(1485778585.946703) can0 190#8000800080008000
(1485778585.946951) can0 1C0#77C1A00080000000
(1485778585.947201) can0 1D0#A8FFFF0000000000
(1485778585.947450) can0 1E0#000000000000F5A3
(1485778585.947701) can0 210#00000000FA8B0000
(1485778585.947950) can0 213#00FA00000FFF5FFF
(1485778585.948202) can0 218#00008F003C7DC0D8
(1485778585.948451) can0 030#8002A080A000B207
(1485778585.948701) can0 252#0000000FFF200060
(1485778585.948951) can0 060#0000000000000000
(1485778585.949201) can0 200#F200B7020000C000
(1485778585.949451) can0 010#0FC400000000804B
(1485778585.949702) can0 2D0#000001F47A905A85
(1485778585.949952) can0 2D4#00000000E5FEFFFE
(1485778585.950201) can0 455#0000000000000000
(1485778585.952967) can0 0C8#D0874AF22152C600
(1485778585.953216) can0 260#8882000DEA61AC00
(1485778585.953969) can0 090#0000C23661920000
(1485778585.954219) can0 0A0#0000080000008022
(1485778585.954468) can0 0C0#9020000040000000
(1485778585.954718) can0 1B0#4100000000403000
(1485778585.954953) can0 270#5E2F042100000000
(1485778585.955201) can0 280#C400005185004000
(1485778585.955453) can0 0B0#00004380008013C3
(1485778585.955701) can0 140#00009C00400A5F00
(1485778585.956204) can0 190#8000800080008000
(1485778585.958218) can0 030#8002A080A000B207
(1485778585.959218) can0 010#00B400000000804B
(1485778585.960851) can0 0A5#007CEE7800E71800
(1485778585.962847) can0 150#968B500000000000
(1485778585.963972) can0 060#0000000000000000
(1485778585.964084) can0 070#05A70A2F6A2FF000
(1485778585.964344) can0 080#90007D000080E5F7
(1485778585.964597) can0 090#0000C23661920000
(1485778585.964847) can0 0F8#000000000000104A
(1485778585.965094) can0 120#0000000000008000
(1485778585.965346) can0 130#50002000E0000000
(1485778585.965595) can0 138#007D87E838008271
(1485778585.965867) can0 1A0#1F40000080000000
(1485778585.966228) can0 160#55FF00005793B5FD
(1485778585.966462) can0 180#03000E071805F000
(1485778585.966702) can0 190#8000800080008000
(1485778585.966951) can0 1C0#77C1A00080000000
(1485778585.967201) can0 1D0#A8FFFF0000000000
(1485778585.967451) can0 1E0#000000000000F693
(1485778585.967701) can0 210#00000000F98D0000
(1485778585.967952) can0 213#00F900000FFF6FFF
(1485778585.968201) can0 252#0000000FFF200060
(1485778585.968451) can0 030#8002A080A000B207
(1485778585.968740) can0 290#0600400100027702
(1485778585.968971) can0 0A0#0000080000008022
(1485778585.969217) can0 208#7F202AA60090FF18
(1485778585.969464) can0 010#01A400000000804B
(1485778585.969704) can0 400#0801580A00000001
(1485778585.973224) can0 0C8#D0873EF2213AC600
(1485778585.973971) can0 269#00000529AA85FF00
(1485778585.974096) can0 090#0000C23661920000
(1485778585.974345) can0 0C0#9020000040000000
(1485778585.974593) can0 200#F200B7020000C000
(1485778585.975343) can0 0B0#00004380008013C3
(1485778585.975589) can0 140#0000BC01400B4F00
(1485778585.976223) can0 190#8000800080008000
(1485778585.976470) can0 218#00008F003C7DC0D8
(1485778585.978096) can0 030#8002E0A0A000B207
(1485778585.978346) can0 260#8882000DEA61AC00
(1485778585.978971) can0 060#0000000000000000
(1485778585.979345) can0 010#029400000000804B
(1485778585.980846) can0 0A5#007CED7800D72800
(1485778585.981097) can0 1B5#000001D40AC0FFFC
(1485778585.981342) can0 298#0000001BD82B0800
(1485778585.983094) can0 150#968B500000000000
(1485778585.983970) can0 070#05A70A2A6A2AF000
(1485778585.984096) can0 080#90007D000080D9F7
(1485778585.984336) can0 090#0000C23661920000
(1485778585.984599) can0 0A0#000008000000801F
(1485778585.984846) can0 0F8#000000000000104A
(1485778585.985096) can0 120#0000000000008000
(1485778585.985348) can0 130#50002000E0000000
(1485778585.985603) can0 138#007D87E838008271
(1485778585.985867) can0 1A0#1F40000080000000
(1485778585.986121) can0 1B0#4100000000403000
(1485778585.986329) can0 160#55FF00005783BDFD
(1485778585.986576) can0 180#03000DF9180AF000
(1485778585.986826) can0 190#8000800080008000
(1485778585.987076) can0 1C0#77C1A00080000000
(1485778585.987346) can0 1D0#A8FFFF0000000000
(1485778585.987616) can0 1E0#000000000000F783
(1485778585.987852) can0 210#00000000F88F0000
(1485778585.988094) can0 213#00F800000FFF7FFF
(1485778585.988343) can0 030#8002A080A000B207
(1485778585.988479) can0 252#0000000FFF200060
(1485778585.988719) can0 270#5E2F042100000000
