(1485778736.256377) can0 0A0#0000080000007FFE
(1485778736.258376) can0 030#8003A180A000B207
(1485778736.258999) can0 160#55FF000057E38DFF
(1485778736.259264) can0 180#03000DF41805F000
(1485778736.259502) can0 010#0657000000008048
(1485778736.259761) can0 190#8000800080008000
(1485778736.260012) can0 1C0#77C0000080000000
(1485778736.260263) can0 1D0#A8FFFF0000000000
(1485778736.260513) can0 1E0#000000000000F1E3
(1485778736.260750) can0 210#00000000FE830000
(1485778736.260998) can0 213#00FE00000FFF1FFF
(1485778736.261249) can0 252#0000000FFF200040
(1485778736.261513) can0 090#0000C200620E0000
(1485778736.261762) can0 0C0#0020000040000000
(1485778736.262013) can0 0B0#00004381E68011C3
(1485778736.262262) can0 140#00009C0000087A24
(1485778736.262514) can0 200#F200B7B50000C000
(1485778736.262637) can0 2D0#000001F678905A85
(1485778736.263512) can0 150#A08C500000000000
(1485778736.264141) can0 170#04000000D0000000
(1485778736.266512) can0 060#0000000000000000
(1485778736.268136) can0 030#8002A180A000B207
(1485778736.268387) can0 290#0600400100027502
(1485778736.269013) can0 190#8000800080008000
(1485778736.269260) can0 218#00008F003C7DC0D8
(1485778736.269503) can0 010#0747000000008048
(1485778736.271511) can0 070#05A709F369F3F000
(1485778736.271761) can0 080#90007D00007FFEF7
(1485778736.272012) can0 090#0000C200620E0000
(1485778736.272262) can0 0A0#0000080000007FFE
(1485778736.272500) can0 0A5#007EE3780035C800
(1485778736.272638) can0 0F8#000000000000104E
(1485778736.272875) can0 120#0000000000008000
(1485778736.273138) can0 130#50002000E0000000
(1485778736.273513) can0 0C8#DF873EF6E138C600
(1485778736.273637) can0 138#007D84007800820D
(1485778736.273887) can0 1A0#1F40000080000000
(1485778736.274137) can0 1B0#4100000000403000
(1485778736.274386) can0 1B5#000001D66AD0FFFC
(1485778736.274640) can0 270#5E2F042100000000
(1485778736.274886) can0 280#C400008285254000
(1485778736.275135) can0 298#0000001BD82B0800
(1485778736.275387) can0 2D8#0444808000000000
(1485778736.276013) can0 208#7F082AE60080FF18
(1485778736.278374) can0 030#8002A180A000B207
(1485778736.278624) can0 260#8882C30DB8E1B800
(1485778736.279013) can0 160#55FF000057D395FF
(1485778736.279263) can0 180#03000DF51805F000
(1485778736.279501) can0 010#0837000000008048
(1485778736.279761) can0 190#8000800080008000
(1485778736.280011) can0 1C0#77C0000080000000
(1485778736.280261) can0 1D0#A8FFFF0000000000
(1485778736.280511) can0 1E0#000000000000F2D3
(1485778736.280748) can0 210#00000000FD850000
(1485778736.280998) can0 213#00FD00000FFF2FFF
(1485778736.281247) can0 252#0000000FFF200040
(1485778736.281512) can0 060#0000000000000000
(1485778736.281759) can0 090#0000C200620E0000
(1485778736.282012) can0 0B0#00004381E68011C3
(1485778736.282260) can0 0C0#0020000040000000
(1485778736.282511) can0 140#00009C0000096A24
(1485778736.282761) can0 269#00000529AA85FF00
(1485778736.283250) can0 150#A08C500000000000
(1485778736.284247) can0 170#04000000D0000000
(1485778736.284498) can0 229#6000000000000000
(1485778736.284760) can0 2A0#0000000030000000
(1485778736.285012) can0 2A5#00000000100FF0FF
(1485778736.286387) can0 0A0#0000080000007FFE
(1485778736.286637) can0 200#F200B7B60000C000
(1485778736.288263) can0 030#8002A180A000B207
(1485778736.289014) can0 190#8000800080008000
(1485778736.289503) can0 010#0927000000008048
(1485778736.291389) can0 070#05A709F369F3F000
(1485778736.291637) can0 080#90007D00007FFEF7
(1485778736.291887) can0 090#0000C200620E0000
(1485778736.292137) can0 0A5#007EE2780025D800
(1485778736.292388) can0 0F8#000000000000104E
(1485778736.292636) can0 120#0000000000008000
(1485778736.292891) can0 130#50002000E0000000
(1485778736.293127) can0 138#007D84007800820D
(1485778736.293375) can0 0C8#DF873AF2E138C600
(1485778736.293625) can0 1A0#1F40000080000000
(1485778736.296376) can0 060#0000000000000000
(1485778736.298263) can0 030#800AE180E000B287
(1485778736.298513) can0 290#8600400100027502
(1485778736.299016) can0 160#55FF000057C39DFF
(1485778736.299262) can0 180#03000DF61804F000
(1485778736.299516) can0 010#0A17000000008048
(1485778736.299762) can0 190#8000800080008000
(1485778736.300013) can0 1C0#77C0000080000000
(1485778736.300262) can0 1D0#A8FFFF0000000000
(1485778736.300501) can0 1E0#000000000000F3C3
(1485778736.300749) can0 210#00000000FC870000
(1485778736.301010) can0 213#00FC00000FFF3FFF
(1485778736.301250) can0 208#7F082AE60080FF18
(1485778736.301511) can0 090#0000C200620E0000
(1485778736.301751) can0 0A0#0000080000007FFE
(1485778736.301999) can0 0B0#00004381E68011C3
(1485778736.302249) can0 0C0#0020000040000000
(1485778736.302498) can0 140#00009C00000A5A24
(1485778736.302748) can0 1B0#4100000000403000
(1485778736.302999) can0 218#00008F003C7DC0D8
(1485778736.303124) can0 252#0000000FFF200040
(1485778736.303499) can0 150#A08C500000000000
(1485778736.303646) can0 260#8882C30DB861B800
(1485778736.303875) can0 270#5E2F042100000000
(1485778736.304124) can0 280#C400008285254000
(1485778736.304373) can0 170#04000000D0000000
(1485778736.304624) can0 2D0#000001F579905A85
(1485778736.304874) can0 2D4#00000000E5FEFFFE
(1485778736.305124) can0 2F0#30B00082005D9638
(1485778736.308498) can0 030#8002A180A000B207
(1485778736.309022) can0 190#8000800080008000
(1485778736.309251) can0 269#00000529AA85FF00
(1485778736.309500) can0 010#0B07000000008048
(1485778736.311499) can0 060#0000000000000000
(1485778736.311652) can0 070#05A709F369F3F000
(1485778736.311889) can0 080#90007D00007FFEF7
(1485778736.312139) can0 090#0000C200620E0000
(1485778736.312389) can0 0A5#007EE1780015E800
(1485778736.312639) can0 0F8#000000000000104E
(1485778736.312889) can0 120#0000000000008000
(1485778736.313125) can0 0C8#DF873EF2E138C600
(1485778736.313374) can0 130#50002000E0000000
(1485778736.313623) can0 138#007D84007800820D
(1485778736.313889) can0 1A0#1F40000080000000
(1485778736.314140) can0 1B5#000001D66AD0FFFC
(1485778736.314251) can0 200#F200B7B60000C000
(1485778736.314499) can0 298#0000001BD82B0800
(1485778736.316375) can0 0A0#0000080000007FFE
(1485778736.318516) can0 030#8003A180A000B207
(1485778736.318764) can0 40A#C0003E212C0C983B
(1485778736.319016) can0 160#55FF000057B3A5FF
(1485778736.319264) can0 180#03000DF51803F000
(1485778736.319516) can0 010#0CF7000000008048
(1485778736.319765) can0 190#8000800080008000
(1485778736.320014) can0 1C0#77C0000080000000
(1485778736.320251) can0 1D0#A8FFFF0000000000
(1485778736.320498) can0 1E0#000000000000F4B3
(1485778736.320749) can0 210#00000000FB890000
(1485778736.321015) can0 213#00FB00000FFF4FFF
(1485778736.321272) can0 252#0000000FFF200040
(1485778736.321501) can0 090#0000C200620E0000
(1485778736.321748) can0 0C0#0020000040000000
(1485778736.321999) can0 0B0#00004381E68011C3
(1485778736.322248) can0 140#00009C00000B4A24
(1485778736.323135) can0 150#A08C500000000000
(1485778736.324391) can0 170#04000000D0000000
(1485778736.324639) can0 229#6000000000000000
(1485778736.324892) can0 2A0#0000000030000000
(1485778736.325146) can0 2A5#00000000100FF0FF
(1485778736.326267) can0 208#7F093AF66F80FF98
(1485778736.326516) can0 060#0000000000000000
(1485778736.328391) can0 030#8002A180A000B207
(1485778736.328639) can0 17E#C010004000200000
(1485778736.328891) can0 260#8882C30DB8E1B800
(1485778736.329126) can0 190#8000800080008000
(1485778736.329280) can0 218#00008F003C7DC0D8
(1485778736.329517) can0 010#0DE7000000008048
(1485778736.329762) can0 290#0600400100027502
(1485778736.330011) can0 380#10947CA96000C0A9
(1485778736.330262) can0 3B4#401111FF00000000
(1485778736.330513) can0 435#B237B9D276EFB3C4
(1485778736.331500) can0 070#05A709F369F3F000
(1485778736.331638) can0 080#90007D00007FFEF7
(1485778736.331890) can0 090#0000C200620E0000
(1485778736.332142) can0 0A0#0000080000007FFF
(1485778736.332376) can0 0A5#007EE0780005F800
(1485778736.332624) can0 0F8#000000000000104E
(1485778736.332876) can0 120#0000000000008000
(1485778736.333124) can0 130#50002000E0000000
(1485778736.333373) can0 0C8#DF873AF6E138C600
(1485778736.333623) can0 138#007D84007800820D
(1485778736.333873) can0 1A0#1F40000080000000
(1485778736.334124) can0 1B0#4100000000403000
(1485778736.334374) can0 270#5E2F042100000000
(1485778736.334624) can0 280#C400008285254000
(1485778736.334874) can0 2D8#0444808000000000
(1485778736.334999) can0 310#D94430602D450074
(1485778736.335250) can0 340#000000000300662F
(1485778736.335499) can0 360#C0C03F003C7DB8B7
(1485778736.336501) can0 200#F200B7B60000C000
(1485778736.338514) can0 030#8002A180A000B207
(1485778736.339017) can0 160#55FF000057A3ADFD
(1485778736.339266) can0 180#03000DF51805F000
(1485778736.339517) can0 010#0ED7000000008048
(1485778736.339765) can0 190#8000800080008000
(1485778736.340015) can0 1C0#77C0000080000000
(1485778736.340265) can0 1D0#A8FFFF0000000000
(1485778736.340515) can0 1E0#000000000000F5A3
(1485778736.340750) can0 210#00000000FA8B0000
(1485778736.340999) can0 213#00FA00000FFF5FFF
(1485778736.341249) can0 252#0000000FFF200040
(1485778736.341543) can0 060#0000000000000000
(1485778736.341751) can0 090#0000C1FE620A0000
(1485778736.342000) can0 0B0#00004381E68011C3
(1485778736.342251) can0 0C0#0020000040000000
(1485778736.342500) can0 140#00009C00000C3A24
(1485778736.342751) can0 269#00000529AA85FF00
(1485778736.342874) can0 2D0#000001F47A905A85
(1485778736.343125) can0 150#A08C500000000000
(1485778736.344126) can0 170#04000000D0000000
(1485778736.345016) can0 455#0000000000000000
(1485778736.346393) can0 0A0#0000080000008002
(1485778736.348265) can0 030#8002A180A000B207
(1485778736.349017) can0 190#8000800080008000
(1485778736.349517) can0 010#0FC7000000008048
(1485778736.351140) can0 208#7F072AE60080FF18
(1485778736.351392) can0 070#05A709F469F4F000
(1485778736.351640) can0 080#90007D00008000F7
(1485778736.351891) can0 090#0000C1FE620A0000
(1485778736.352144) can0 0A5#007EEF7800F50800
(1485778736.352391) can0 0F8#000000000000104E
(1485778736.352641) can0 120#0000000000008000
(1485778736.352878) can0 130#50002000E0000000
(1485778736.353127) can0 138#007D84007800820D
(1485778736.353376) can0 0C8#DF873EF2E138C600
(1485778736.353642) can0 1A0#1F40000080000000
(1485778736.353762) can0 1B5#000001D66AD0FFFC
(1485778736.354000) can0 260#8882C30DB761B800
(1485778736.354251) can0 298#0000001BD82B0800
(1485778736.356377) can0 060#0000000000000000
(1485778736.358390) can0 030#8002A180A000B207
(1485778736.358641) can0 290#0600400100027702
(1485778736.359017) can0 160#55FF00005793B5FD
(1485778736.359265) can0 180#03000DF51804F000
(1485778736.359516) can0 010#00B400000000804B
(1485778736.359763) can0 190#8000800080008000
(1485778736.360013) can0 1C0#77C0000080000000
(1485778736.360263) can0 1D0#A8FFFF0000000000
(1485778736.360501) can0 1E0#000000000000F693
(1485778736.360752) can0 210#00000000F98D0000
(1485778736.361017) can0 213#00F900000FFF6FFF
(1485778736.361252) can0 218#00008F003C7DC0D8
(1485778736.361515) can0 090#0000C1FE620A0000
(1485778736.361752) can0 0A0#0000080000008001
(1485778736.362001) can0 0B0#00004381E68011C3
(1485778736.362250) can0 0C0#0020000040000000
(1485778736.362501) can0 140#00009C00000D2A24
(1485778736.362750) can0 1B0#4100000000403000
(1485778736.362878) can0 200#F200B7B60000C000
(1485778736.363126) can0 252#0000000FFF200040
(1485778736.363501) can0 150#A08C500000000000
(1485778736.363626) can0 270#5E2F042100000000
(1485778736.363875) can0 280#C400008185254000
(1485778736.364127) can0 2D4#00000000E5FEFFFE
(1485778736.364500) can0 170#04000000D0000000
(1485778736.364626) can0 229#6000000000000000
(1485778736.364876) can0 2A0#0000000030000000
(1485778736.365125) can0 2A5#00000000100FF0FF
(1485778736.368252) can0 030#8002A180A000B207
(1485778736.369017) can0 190#8000800080008000
(1485778736.369270) can0 269#000005295585FF00
(1485778736.369519) can0 010#01A7000000008048
(1485778736.371515) can0 060#0000000000000000
(1485778736.371630) can0 070#05A709F469F4F000
(1485778736.371888) can0 080#90007D00008000F7
(1485778736.372139) can0 090#0000C1FE620A0000
(1485778736.372390) can0 0A5#007EEE7800E51800
(1485778736.372640) can0 0F8#000000000000104E
(1485778736.372892) can0 120#0000000000008000
(1485778736.373137) can0 130#50002000E0000000
(1485778736.373390) can0 0C8#DF873AF2E138C600
(1485778736.373640) can0 138#007D84007800820D
(1485778736.373877) can0 1A0#1F40000080000000
(1485778736.376377) can0 208#7F0A2AE60080FF18
(1485778736.376509) can0 0A0#0000080000008001
(1485778736.378259) can0 030#8003A180A000B207
(1485778736.378516) can0 260#8882C30DB7E1B800
(1485778736.379013) can0 160#55FF00005783BDFD
(1485778736.379264) can0 180#03000DF41804F000
(1485778736.379516) can0 010#0297000000008048
(1485778736.379764) can0 190#8000800080008000
(1485778736.380015) can0 1C0#77C0000080000000
(1485778736.380252) can0 1D0#A8FFFF0000000000
(1485778736.380516) can0 1E0#000000000000F783
(1485778736.380751) can0 210#00000000F88F0000
(1485778736.381015) can0 213#00F800000FFF7FFF
(1485778736.381252) can0 252#0000000FFF200040
(1485778736.381501) can0 090#0000C200620D0000
(1485778736.381750) can0 0C0#0020000040000000
(1485778736.382002) can0 0B0#00004381E68011C3
(1485778736.382251) can0 140#00009C00000E1A24
(1485778736.382501) can0 2D0#000001F37B905A85
(1485778736.383254) can0 150#A08C500000000000
(1485778736.384251) can0 170#04000000D0000000
(1485778736.386377) can0 060#0000000000000000
(1485778736.386641) can0 200#F200B7B60000C000
(1485778736.388139) can0 030#800AE1A0E000B287
(1485778736.388515) can0 290#8600C00100027702
(1485778736.389013) can0 190#8000800080008000
(1485778736.389264) can0 218#00008F003C7DC0D8
(1485778736.389518) can0 010#0387000000008048
(1485778736.391389) can0 070#05A709F469F4F000
(1485778736.391639) can0 080#90007D00008000F7
(1485778736.391891) can0 090#0000C200620D0000
(1485778736.392139) can0 0A0#0000080000007FFF
(1485778736.392389) can0 0F8#000000000000104E
(1485778736.392628) can0 0A5#007EED7800D52800
(1485778736.392878) can0 120#0000000000008000
(1485778736.393140) can0 130#50002000E0000000
(1485778736.393389) can0 0C8#DF873EF6E138C600
(1485778736.393628) can0 138#007D84007800820D
(1485778736.393875) can0 1A0#1F40000080000000
(1485778736.394141) can0 1B0#4100000000403000
(1485778736.394252) can0 1B5#000001D66AD0FFFC
(1485778736.394501) can0 270#5E2F042100000000
(1485778736.394751) can0 280#C400008185254000
(1485778736.395002) can0 298#0000001BD82B0800
(1485778736.395252) can0 2D8#0444808000000000
(1485778736.395501) can0 2F0#30B00081005D9638
(1485778736.398500) can0 030#8002A180A000B207
(1485778736.398771) can0 405#0167212C0C99089C
(1485778736.399013) can0 160#55FF00005773C5FD
(1485778736.399266) can0 180#03000DF51805F000
(1485778736.399516) can0 010#047400000000804B
(1485778736.399751) can0 190#8000800080008000
(1485778736.400002) can0 1C0#77C0000080000000
(1485778736.400265) can0 1D0#A8FFFF0000000000
(1485778736.400502) can0 1E0#000000000000F873
(1485778736.400752) can0 210#00000000F7910000
(1485778736.401016) can0 213#00F700000FFF8FFF
(1485778736.401265) can0 252#0000000FFF200040
(1485778736.401501) can0 060#0000000000000000
(1485778736.401764) can0 090#0000C200620D0000
(1485778736.402002) can0 0B0#00004381E68011C3
(1485778736.402252) can0 0C0#0020000040000000
(1485778736.402502) can0 140#00009C00000F0A24
(1485778736.402752) can0 208#7F092AE60080FF18
(1485778736.402875) can0 269#000005295585FF00
(1485778736.403251) can0 150#A08C500000000000
(1485778736.403501) can0 260#8882C30DB861B800
(1485778736.404250) can0 170#04000000D0000000
(1485778736.404514) can0 229#6000000000000000
(1485778736.404763) can0 2A0#0000000030000000
(1485778736.405001) can0 2A5#00000000100FF0FF
(1485778736.406378) can0 0A0#0000080000007FFF
(1485778736.408389) can0 030#8002A180A000B207
(1485778736.409015) can0 190#8000800080008000
(1485778736.409515) can0 010#0567000000008048
(1485778736.411390) can0 070#05A709F469F4F000
(1485778736.411640) can0 080#90007D00008000F7
(1485778736.411890) can0 090#0000C200620D0000
(1485778736.412140) can0 0F8#000000000000104E
(1485778736.412389) can0 120#0000000000008000
(1485778736.412638) can0 0A5#007EEC7800C53800
(1485778736.412893) can0 130#50002000E0000000
(1485778736.413127) can0 0C8#DF873AF2E138C600
(1485778736.413377) can0 138#007D84007800820D
(1485778736.413625) can0 1A0#1F40000080000000
(1485778736.413890) can0 200#F200B7B80000C000
(1485778736.416393) can0 060#0000000000000000
(1485778736.418516) can0 030#8002A180A000B207
(1485778736.418628) can0 290#0600400100027702
(1485778736.419016) can0 160#55FF00005763CDFD
(1485778736.419263) can0 180#03000DF51804F000
(1485778736.419522) can0 010#0657000000008048
(1485778736.419764) can0 190#8000800080008000
(1485778736.420014) can0 1C0#77C0000080000000
(1485778736.420264) can0 1D0#A8FFFF0000000000
(1485778736.420514) can0 1E0#000000000000F963
(1485778736.420766) can0 210#00000000F6930000
(1485778736.421002) can0 213#00F600000FFF9FFF
(1485778736.421252) can0 218#00008F003C7DC0D8
(1485778736.421502) can0 090#0000C200620E0000
(1485778736.421751) can0 0A0#0000080000007FFE
(1485778736.422002) can0 0B0#00004381E68011C3
(1485778736.422251) can0 0C0#0020000040000000
(1485778736.422502) can0 140#00009C000000FA24
(1485778736.422630) can0 1B0#4100000000403000
(1485778736.422878) can0 252#0000000FFF200040
(1485778736.423126) can0 150#A08C500000000000
(1485778736.423501) can0 270#5E2F042100000000
(1485778736.423627) can0 280#C400008285254000
(1485778736.423877) can0 2D0#000001F27C905A85
(1485778736.424127) can0 2D4#00000000E5FEFFFE
(1485778736.424377) can0 170#04000000D0000000
(1485778736.426512) can0 208#7F053AF66F80FF98
(1485778736.428396) can0 030#8002A180A000B207
(1485778736.428640) can0 17E#C010004000278000
(1485778736.428890) can0 260#8882C30DB861B800
(1485778736.429139) can0 190#8000800080008000
(1485778736.429251) can0 269#000005295585FF00
(1485778736.429517) can0 010#0747000000008048
(1485778736.431765) can0 060#0000000000000000
(1485778736.432014) can0 070#05A709F369F3F000
(1485778736.432265) can0 080#90007D00007FFFF7
(1485778736.432514) can0 090#0000C200620E0000
(1485778736.432627) can0 0A5#007EEB7800B54800
(1485778736.432892) can0 0F8#000000000000104E
(1485778736.433139) can0 0C8#DF873EF2E138C600
(1485778736.433515) can0 120#0000000000008000
(1485778736.433628) can0 130#50002000E0000000
(1485778736.433890) can0 138#007D84007800820D
(1485778736.434139) can0 1A0#1F40000080000000
(1485778736.434377) can0 1B5#000001D66AD0FFFC
(1485778736.434626) can0 298#0000001BD82B0800
(1485778736.434876) can0 310#DB4430602D450074
(1485778736.436377) can0 0A0#0000080000007FFE
(1485778736.436640) can0 200#F200B7B80000C000
(1485778736.438515) can0 030#8003A180A000B207
(1485778736.439015) can0 160#55FF00005753D5FD
(1485778736.439265) can0 180#03000DF51804F000
(1485778736.439518) can0 010#083400000000804B
(1485778736.439765) can0 190#8000800080008000
(1485778736.440016) can0 1C0#77C0000080000000
(1485778736.440264) can0 1D0#A8FFFF0000000000
(1485778736.440503) can0 1E0#000000000000FA53
(1485778736.440764) can0 210#00000000F5950000
(1485778736.441003) can0 213#00F500000FFFAFFF
(1485778736.441251) can0 252#0000000FFF200040
(1485778736.441502) can0 04A#02000018000000C0
(1485778736.441764) can0 04B#00D8D8D8D8D8C000
(1485778736.442024) can0 090#0000C200620E0000
(1485778736.442253) can0 0B0#00004381E68011C3
(1485778736.442501) can0 0C0#0020000040000000
(1485778736.442630) can0 140#00009C000001EA24
(1485778736.443379) can0 150#A08C500000000000
(1485778736.443640) can0 40A#FF20000000000000
(1485778736.444264) can0 170#04000000D0000000
(1485778736.444513) can0 229#6000000000000000
(1485778736.444894) can0 2A0#0000000030000000
(1485778736.445141) can0 2A5#00000000100FF0FF
(1485778736.445389) can0 455#0000000000000000
(1485778736.446380) can0 060#0000000000000000
(1485778736.448265) can0 030#8002A180A000B207
(1485778736.448514) can0 290#8600400100027702
(1485778736.449020) can0 190#8000800080008000
(1485778736.449266) can0 218#00008F003C7DC0D8
(1485778736.449515) can0 010#0927000000008048
(1485778736.451515) can0 070#05A709F369F3F000
(1485778736.451628) can0 080#90007D00007FFFF7
(1485778736.451896) can0 090#0000C1FF620C0000
(1485778736.452138) can0 0A0#0000080000007FFE
(1485778736.452516) can0 0F8#000000000000104E
(1485778736.452628) can0 0A5#007EEA7800A55800
(1485778736.452890) can0 120#0000000000008000
(1485778736.453140) can0 130#50002000E0000000
(1485778736.453387) can0 0C8#DF873AF6E138C600
(1485778736.453640) can0 138#007D84007800820D
(1485778736.453891) can0 1A0#1F40000080000000
(1485778736.454141) can0 1B0#4100000000403000
(1485778736.454378) can0 208#7F0C2AE60080FF18
(1485778736.454626) can0 260#8882C30DB7E1B800
(1485778736.454876) can0 270#5E2F042100000000
(1485778736.455002) can0 280#C400008285254000
(1485778736.455251) can0 2D8#0444808000000000
(1485778736.455502) can0 340#000000000300662F
(1485778736.458377) can0 030#800AE180E000B287
(1485778736.459017) can0 160#55FF00005743DDFD
(1485778736.459264) can0 180#03000DF61805F000
(1485778736.459518) can0 010#0A17000000008048
(1485778736.459765) can0 190#8000800080008000
(1485778736.460018) can0 1C0#77C0000080000000
(1485778736.460265) can0 1D0#A8FFFF0000000000
(1485778736.460515) can0 1E0#000000000000FB43
(1485778736.460753) can0 210#00000000F4970000
(1485778736.461001) can0 213#00F400000FFFBFFF
(1485778736.461252) can0 252#0000000FFF200040
(1485778736.461514) can0 060#0000000000000000
(1485778736.461766) can0 090#0000C1FF620C0000
(1485778736.462003) can0 0B0#00004381E68011C3
(1485778736.462252) can0 0C0#0020000040000000
(1485778736.462503) can0 140#00009C000002DA24
(1485778736.462751) can0 200#F200B7B80000C000
(1485778736.462878) can0 269#00000529AA85FF00
(1485778736.463129) can0 2D0#000001F17D905A85
(1485778736.463502) can0 150#A08C500000000000
(1485778736.464127) can0 170#04000000D0000000
(1485778736.466394) can0 0A0#0000080000007FFF
(1485778736.468140) can0 030#8002A180A000B207
(1485778736.468514) can0 400#2200000002010000
(1485778736.469015) can0 190#8000800080008000
(1485778736.469517) can0 010#0B07000000008048
(1485778736.471390) can0 070#05A709F369F3F000
(1485778736.471639) can0 080#90007D00007FFFF7
(1485778736.471890) can0 090#0000C1FF620C0000
(1485778736.472140) can0 0F8#000000000000104E
(1485778736.472390) can0 120#0000000000008000
(1485778736.472641) can0 130#50002000E0000000
(1485778736.472892) can0 0A5#007EE97800956800
(1485778736.473127) can0 138#007D84007800820D
(1485778736.473378) can0 0C8#DF873EF2E138C600
(1485778736.473626) can0 1A0#1F40000080000000
(1485778736.473777) can0 1B5#000001D66AD0FFFC
(1485778736.474016) can0 298#0000001BD82B0800
(1485778736.476380) can0 060#0000000000000000
(1485778736.476645) can0 208#7F062AE60080FF18
(1485778736.478264) can0 030#8002A180A000B207
(1485778736.478516) can0 260#8882C30DB761B800
(1485778736.478764) can0 290#0600400100027702
(1485778736.479017) can0 160#55FF00005733E5FD
(1485778736.479254) can0 180#03000DF41805F000
(1485778736.479517) can0 010#0CF7000000008048
(1485778736.479766) can0 190#8000800080008000
(1485778736.480003) can0 1C0#77C0000080000000
(1485778736.480266) can0 1D0#A8FFFF0000000000
(1485778736.480503) can0 1E0#000000000000FC33
(1485778736.480766) can0 210#00000000F3990000
(1485778736.481004) can0 213#00F300000FFFCFFF
(1485778736.481251) can0 218#00008F003C7DC0D8
(1485778736.481502) can0 090#0000C1FF620C0000
(1485778736.481751) can0 0A0#0000080000007FFF
(1485778736.482002) can0 0B0#00004381E68011C3
(1485778736.482251) can0 0C0#0020000040000000
(1485778736.482502) can0 140#00009C000003CA24
(1485778736.482752) can0 1B0#4100000000403000
(1485778736.482877) can0 252#0000000FFF200040
(1485778736.483128) can0 270#5E2F042100000000
(1485778736.483501) can0 150#A08C700000000000
(1485778736.483629) can0 280#C400008285254000
(1485778736.483877) can0 2D4#00000000E5FEFFFE
(1485778736.484126) can0 2F0#30B00082005D9638
(1485778736.484502) can0 170#04000000D0000000
(1485778736.484629) can0 360#C0C03F003C7DB8B7
(1485778736.484877) can0 229#6000000000000000
(1485778736.485126) can0 2A0#0000000030000000
(1485778736.485502) can0 2A5#00000000100FF0FF
(1485778736.486379) can0 200#F200B7B80000C000
(1485778736.488264) can0 030#8002A180A000B207
(1485778736.489016) can0 190#8000800080008000
(1485778736.489265) can0 269#00000529AA85FF00
(1485778736.489515) can0 010#0DE7000000008048
(1485778736.491515) can0 060#0000000000000000
(1485778736.491627) can0 070#05A709F369F3F000
(1485778736.491891) can0 080#90007D00007FFFF7
(1485778736.492139) can0 090#0000C200620E0000
(1485778736.492392) can0 0F8#000000000000104E
(1485778736.492640) can0 0A5#007EE87800857800
(1485778736.492891) can0 120#0000000000008000
(1485778736.493141) can0 130#50002000E0000000
(1485778736.493390) can0 0C8#DF873AF2E138C600
(1485778736.493641) can0 138#007D84007800820D
(1485778736.493878) can0 1A0#1F40000080000000
(1485778736.496505) can0 0A0#0000080000007FFE
(1485778736.498501) can0 030#8003A180A000B207
(1485778736.499016) can0 160#55FF00005723EDFD
(1485778736.499266) can0 180#03000DF41804F000
(1485778736.499519) can0 010#0ED7000000008048
(1485778736.499765) can0 190#8000800080008000
(1485778736.500017) can0 1C0#77C0000080000000
(1485778736.500266) can0 1D0#A8FFFF0000000000
(1485778736.500516) can0 1E0#000000000000FD23
(1485778736.500753) can0 210#00000000F29B0000
(1485778736.501003) can0 213#00F200000FFFDFFF
(1485778736.501253) can0 252#0000000FFF200040
(1485778736.501516) can0 090#0000C200620E0000
(1485778736.501767) can0 0C0#0020000040000000
(1485778736.502003) can0 0B0#00004381E68011C3
(1485778736.502252) can0 140#00009C000004BA24
(1485778736.502502) can0 208#7F042AE60080FF18
(1485778736.502632) can0 2D0#000001F07E905A85
(1485778736.503129) can0 150#A08C500000000000
(1485778736.503503) can0 260#8882C30DB8E1B800
(1485778736.504140) can0 170#04000000D0000000
(1485778736.506391) can0 060#0000000000000000
(1485778736.508266) can0 030#8002A180A000B207
(1485778736.508516) can0 290#0600400100027702
(1485778736.509016) can0 190#8000800080008000
(1485778736.509267) can0 218#00008F003C7DC0D8
(1485778736.509519) can0 010#0FC7000000008048
(1485778736.511392) can0 070#05A709F369F3F000
(1485778736.511642) can0 080#90007D00007FFFF7
(1485778736.511892) can0 090#0000C200620E0000
(1485778736.512143) can0 0A0#0000080000007FFE
(1485778736.512379) can0 0F8#000000000000104E
(1485778736.512641) can0 120#0000000000008000
(1485778736.512880) can0 0A5#007EE77800758800
(1485778736.513141) can0 130#50002000E0000000
(1485778736.513254) can0 0C8#DF873EF6E138C600
(1485778736.513515) can0 138#007D84007800820D
(1485778736.513754) can0 1A0#1F40000080000000
(1485778736.514002) can0 1B0#4100000000403000
(1485778736.514253) can0 1B5#000001D66AD0FFFC
(1485778736.514503) can0 200#F200B7B80000C000
(1485778736.514752) can0 270#5E2F042100000000
(1485778736.515002) can0 280#C400008285254000
(1485778736.515251) can0 298#0000001BD82B0800
(1485778736.515503) can0 2D8#0444808000000000
(1485778736.518503) can0 030#8002A180A000B207
(1485778736.519003) can0 160#55FF00005713F5FD
(1485778736.519252) can0 180#03000DF61804F000
(1485778736.519505) can0 010#00B7000000008048
(1485778736.519753) can0 190#8000800080008000
(1485778736.520003) can0 1C0#77C0000080000000
(1485778736.520253) can0 1D0#A8FFFF0000000000
(1485778736.520502) can0 1E0#000000000000FE13
(1485778736.520752) can0 210#00000000F19D0000
(1485778736.521002) can0 213#00F100000FFFEFFF
(1485778736.521252) can0 252#0000000FFF200040
(1485778736.521503) can0 060#0000000000000000
(1485778736.521753) can0 090#0000C200620E0000
(1485778736.522003) can0 0B0#00004381E68011C3
(1485778736.522252) can0 0C0#0020000040000000
(1485778736.522504) can0 140#00009C000005AA24
(1485778736.522632) can0 269#00000529AA85FF00
(1485778736.523128) can0 150#A08C500000000000
(1485778736.524128) can0 170#04000000D0000000
(1485778736.524515) can0 229#6000000000000000
(1485778736.524767) can0 2A0#0000000030000000
(1485778736.525016) can0 2A5#00000000100FF0FF
(1485778736.526755) can0 0A0#0000080000007FFE
(1485778736.527017) can0 208#7F043AF66F80FF98
(1485778736.528392) can0 030#8002A180A000B207
(1485778736.528504) can0 17E#C010004000200000
(1485778736.528766) can0 260#8882C30DB761B800
(1485778736.529016) can0 190#8000800080008000
(1485778736.529518) can0 010#01A7000000008048
(1485778736.531391) can0 070#05A709F369F3F000
(1485778736.531642) can0 080#90007D00007FFFF7
(1485778736.531892) can0 090#0000C200620D0000
(1485778736.532149) can0 0F8#000000000000104E
(1485778736.532389) can0 120#0000000000008000
(1485778736.532628) can0 0A5#007EE67800659800
(1485778736.532891) can0 130#50002000E0000000
(1485778736.533128) can0 138#007D84007800820D
(1485778736.533378) can0 0C8#DF873AF2E138C600
(1485778736.533627) can0 1A0#1F40000080000000
(1485778736.533878) can0 310#D94430602D450074
(1485778736.536517) can0 060#0000000000000000
(1485778736.536628) can0 200#F200B7B80000C000
(1485778736.538517) can0 030#800AE180E000B287
(1485778736.538630) can0 290#8600400100027702
(1485778736.539015) can0 160#55FF00005703FDFF
(1485778736.539266) can0 180#03000DF61804F000
(1485778736.539517) can0 010#0297000000008048
(1485778736.539766) can0 190#8000800080008000
(1485778736.540017) can0 1C0#77C0000080000000
(1485778736.540266) can0 1D0#A8FFFF0000000000
(1485778736.540517) can0 1E0#000000000000FF03
(1485778736.540765) can0 210#00000000F09F0000
(1485778736.541004) can0 213#00F000000FFFFFFF
(1485778736.541252) can0 218#00008F003C7DC0D8
(1485778736.541503) can0 090#0000C200620D0000
(1485778736.541767) can0 0A0#0000080000007FFE
(1485778736.542016) can0 0B0#00004381E68011C3
(1485778736.542254) can0 0C0#0020000040000000
(1485778736.542503) can0 140#00009C0000069A24
(1485778736.542632) can0 1B0#4100000000403000
(1485778736.542879) can0 252#0000000FFF200040
(1485778736.543127) can0 270#5E2F042100000000
(1485778736.543502) can0 150#A08C500000000000
(1485778736.543633) can0 280#C400008285254000
(1485778736.543878) can0 2D0#000001EF7F905A85
(1485778736.544127) can0 170#04000000D0000000
(1485778736.544378) can0 2D4#00000000E5FEFFFE
(1485778736.545128) can0 455#0000000000000000
(1485778736.548267) can0 030#8002A180A000B207
(1485778736.549017) can0 190#8000800080008000
(1485778736.549265) can0 269#00000529AA85FF00
(1485778736.549519) can0 010#0387000000008048
(1485778736.551392) can0 060#0000000000000000
(1485778736.551639) can0 070#05A709F369F3F000
(1485778736.551892) can0 080#90007D00007FFEF7
(1485778736.552139) can0 090#0000C200620D0000
(1485778736.552392) can0 0F8#000000000000104E
(1485778736.552629) can0 120#0000000000008000
(1485778736.552881) can0 0A5#007EE5780055A800
(1485778736.553141) can0 130#50002000E0000000
(1485778736.553391) can0 0C8#DF873EF2E138C600
(1485778736.553504) can0 138#007D84007800820D
(1485778736.553892) can0 1A0#1F40000080000000
(1485778736.554003) can0 1B5#000001D66AD0FFFC
(1485778736.554266) can0 208#7F072AE60080FF18
(1485778736.554516) can0 260#8882C80DB761B800
(1485778736.554755) can0 298#0000001BD82B0800
(1485778736.556381) can0 0A0#0000080000007FFE
(1485778736.558392) can0 030#8003A180A000B207
(1485778736.559017) can0 160#55FF000057F385FF
(1485778736.559267) can0 180#03000DF41803F000
(1485778736.559519) can0 010#0477000000008048
(1485778736.559765) can0 190#8000800080008000
(1485778736.560014) can0 1C0#77C0000080000000
(1485778736.560266) can0 1D0#A8FFFF0000000000
(1485778736.560516) can0 1E0#000000000000F0F3
(1485778736.560754) can0 210#00000000FF810000
(1485778736.561003) can0 213#00FF00000FFF0FFF
(1485778736.561252) can0 252#0000000FFF200040
(1485778736.561504) can0 090#0000C200620D0000
(1485778736.561753) can0 0C0#0020000040000000
(1485778736.562002) can0 0B0#00004381E68011C3
(1485778736.562254) can0 140#00009C0000078A24
(1485778736.562503) can0 200#F200B7B80000C000
(1485778736.563253) can0 150#A08C500000000000
(1485778736.564129) can0 170#04000000D0000000
(1485778736.564503) can0 229#6000000000000000
(1485778736.564767) can0 2A0#0000000030000000
(1485778736.565017) can0 2A5#00000000100FF0FF
(1485778736.566517) can0 060#0000000000000000
(1485778736.568142) can0 030#8002A180A000B207
(1485778736.568516) can0 290#0600400100027702
(1485778736.568629) can0 40A#FF21000000000000
(1485778736.569015) can0 190#8000800080008000
(1485778736.569269) can0 218#00008F003C7DC0D8
(1485778736.569518) can0 010#0567000000008048
(1485778736.571393) can0 070#05A709F369F3F000
(1485778736.571643) can0 080#90007D00007FFEF7
(1485778736.571890) can0 090#0000C1FF620D0000
(1485778736.572140) can0 0A0#0000080000007FFF
(1485778736.572392) can0 0F8#000000000000104E
(1485778736.572630) can0 120#0000000000008000
(1485778736.572881) can0 0A5#007EE4780045B800
(1485778736.573142) can0 130#50002000E0000000
(1485778736.573392) can0 0C8#DF873AF6E138C600
(1485778736.573504) can0 138#007D84007800820D
(1485778736.573754) can0 1A0#1F40000080000000
(1485778736.574004) can0 1B0#4100000000403000
(1485778736.574252) can0 270#5E2F042100000000
(1485778736.574504) can0 280#C400008285254000
(1485778736.574752) can0 2D8#0444808000000000
(1485778736.575003) can0 2F0#30B00082005D9638
(1485778736.575252) can0 340#000000000300662F
(1485778736.576879) can0 208#7F072AE60080FF18
(1485778736.578379) can0 030#8002A180A000B207
(1485778736.578510) can0 260#8882C80DB7E1B800
(1485778736.579015) can0 160#55FF000057E38DFF
(1485778736.579266) can0 180#03000DF51804F000
(1485778736.579518) can0 010#0657000000008048
(1485778736.579767) can0 190#8000800080008000
(1485778736.580014) can0 1C0#77C0000080000000
(1485778736.580267) can0 1D0#A8FFFF0000000000
(1485778736.580505) can0 1E0#000000000000F1E3
(1485778736.580755) can0 210#00000000FE830000
(1485778736.581019) can0 213#00FE00000FFF1FFF
(1485778736.581253) can0 252#0000000FFF200040
(1485778736.581506) can0 060#0000000000000000
(1485778736.581756) can0 090#0000C1FF620D0000
(1485778736.582003) can0 0B0#00004381E68011C3
(1485778736.582252) can0 0C0#0020000040000000
(1485778736.582503) can0 140#00009C0000087A24
(1485778736.582750) can0 269#000005295585FF00
(1485778736.582877) can0 2D0#000001FE70905A85
(1485778736.583252) can0 150#A08C500000000000
(1485778736.584252) can0 170#04000000D0000000
(1485778736.586380) can0 0A0#0000080000007FFF
(1485778736.586628) can0 200#F200B7B90000C000
(1485778736.588377) can0 030#8002A180A000B207
(1485778736.589002) can0 190#8000800080008000
(1485778736.589504) can0 010#074400000000804B
(1485778736.591377) can0 070#05A709F369F3F000
(1485778736.591627) can0 080#90007D00007FFFF7
(1485778736.591877) can0 090#0000C1FF620D0000
(1485778736.592127) can0 0F8#000000000000104E
(1485778736.592377) can0 120#0000000000008000
(1485778736.592627) can0 130#50002000E0000000
(1485778736.592877) can0 0A5#007EE3780035C800
(1485778736.593127) can0 138#007D84007800820D
(1485778736.593252) can0 0C8#DF873EF2E138C600
(1485778736.593502) can0 1A0#1F40000080000000
(1485778736.593752) can0 1B5#000001D66AD0FFFC
(1485778736.594003) can0 298#0000001BD82B0800
(1485778736.596380) can0 060#0000000000000000
(1485778736.598504) can0 030#8002A180A000B207
(1485778736.598754) can0 290#0600400100027702
(1485778736.599004) can0 160#55FF000057D395FF
(1485778736.599254) can0 180#03000DF61804F000
(1485778736.599503) can0 010#0837000000008048
(1485778736.599754) can0 190#8000800080008000
(1485778736.600002) can0 1C0#77C0000080000000
(1485778736.600252) can0 1D0#A8FFFF0000000000
(1485778736.600502) can0 1E0#000000000000F2D3
(1485778736.600752) can0 210#00000000FD850000
(1485778736.601002) can0 213#00FD00000FFF2FFF
(1485778736.601252) can0 218#00008F003C7DC0D8
(1485778736.601503) can0 090#0000C1FF620D0000
(1485778736.601752) can0 0A0#0000080000007FFF
(1485778736.602003) can0 0B0#00004381E68011C3
(1485778736.602252) can0 0C0#0020000040000000
(1485778736.602502) can0 140#00009C0000096A24
(1485778736.602753) can0 1B0#4100000000403000
(1485778736.602877) can0 208#7F092AE60080FF18
(1485778736.603127) can0 150#A08C500000000000
(1485778736.603502) can0 252#0000000FFF200040
(1485778736.603627) can0 260#8882C80DB861B800
(1485778736.603878) can0 270#5E2F042100000000
(1485778736.604127) can0 170#04000000D0000000
(1485778736.604378) can0 280#C400008285254000
(1485778736.604627) can0 229#6000000000000000
(1485778736.604878) can0 2D4#00000000E5FEFFFE
(1485778736.605127) can0 2A0#0000000030000000
(1485778736.605377) can0 2A5#00000000100FF0FF
(1485778736.608503) can0 030#8002A180A000B207
(1485778736.609003) can0 190#8000800080008000
(1485778736.609377) can0 269#000005295585FF00
(1485778736.609629) can0 010#0927000000008048
(1485778736.611506) can0 060#0000000000000000
(1485778736.611628) can0 070#05A709F369F3F000
(1485778736.611880) can0 080#90007D00007FFFF7
(1485778736.612129) can0 090#0000C1FF620D0000
(1485778736.612505) can0 0F8#000000000000104E
(1485778736.612629) can0 0A5#007EE2780025D800
(1485778736.612880) can0 120#0000000000008000
(1485778736.613128) can0 0C8#DF873AF2E138C600
(1485778736.613377) can0 130#50002000E0000000
(1485778736.613628) can0 138#007D84007800820D
(1485778736.613877) can0 1A0#1F40000080000000
(1485778736.614128) can0 200#F200B7B90000C000
(1485778736.616378) can0 0A0#0000080000007FFF
(1485778736.618504) can0 030#800BE180E000B287
(1485778736.619002) can0 160#55FF000057C39DFF
(1485778736.619253) can0 180#03000DF51803F000
(1485778736.619506) can0 010#0A17000000008048
(1485778736.619754) can0 190#8000800080008000
(1485778736.620004) can0 1C0#77C0000080000000
(1485778736.620254) can0 1D0#A8FFFF0000000000
(1485778736.620503) can0 1E0#000000000000F3C3
(1485778736.620752) can0 210#00000000FC870000
(1485778736.621002) can0 213#00FC00000FFF3FFF
(1485778736.621253) can0 252#0000000FFF200040
(1485778736.621502) can0 2D0#000001FD71905A85
(1485778736.621753) can0 0B0#00004381E68011C3
(1485778736.622002) can0 090#0000C1FF620D0000
(1485778736.622253) can0 0C0#0020000040000000
(1485778736.622502) can0 140#00009C00000A5A24
(1485778736.623129) can0 150#A08C500000000000
(1485778736.624128) can0 170#04000000D0000000
(1485778736.626381) can0 060#0000000000000000
(1485778736.627005) can0 208#7F093AF66F80FF98
(1485778736.627254) can0 388#0000414279421600
(1485778736.628379) can0 030#8002A180A000B207
(1485778736.628629) can0 17E#C010004000200000
(1485778736.628754) can0 260#8882C80DB7E1B800
(1485778736.629004) can0 190#8000800080008000
(1485778736.629255) can0 218#00008F003C7DC0D8
(1485778736.629505) can0 010#0B07000000008048
(1485778736.629753) can0 290#8600400100027702
(1485778736.630003) can0 380#5394FCA96000C0A9
(1485778736.630252) can0 3B4#401111FF00000000
(1485778736.630503) can0 435#B237B9D276EFB3C4
(1485778736.631377) can0 070#05A709F369F3F000
(1485778736.631628) can0 080#90007D00007FFFF7
(1485778736.631877) can0 090#0000C1FF620D0000
(1485778736.632128) can0 0A0#0000080000007FFF
(1485778736.632378) can0 0F8#000000000000104E
(1485778736.632628) can0 120#0000000000008000
(1485778736.632880) can0 130#50002000E0000000
(1485778736.633126) can0 0C8#DF873EF6E138C600
(1485778736.633378) can0 138#007D84007800820D
(1485778736.633627) can0 1A0#1F40000080000000
(1485778736.633752) can0 0A5#007EE1780015E800
(1485778736.634003) can0 1B0#4100000000403000
(1485778736.634252) can0 1B5#000001D66AD0FFFC
(1485778736.634503) can0 270#5E2F042100000000
(1485778736.634752) can0 280#C400008285254000
(1485778736.635003) can0 298#0000001BD82B0800
(1485778736.635252) can0 2D8#0444808000000000
(1485778736.635503) can0 310#D94430602D450074
(1485778736.635753) can0 360#C0C03F003C7DBCB7
(1485778736.636380) can0 200#F200B7B90000C000
(1485778736.638504) can0 030#8002A180A000B207
(1485778736.639003) can0 160#55FF000057B3A5FF
(1485778736.639254) can0 180#03000DF71805F000
(1485778736.639505) can0 010#0CF7000000008048
(1485778736.639765) can0 190#8000800080008000
(1485778736.640002) can0 1C0#77C0000080000000
(1485778736.640253) can0 1D0#A8FFFF0000000000
(1485778736.640502) can0 1E0#000000000000F4B3
(1485778736.640753) can0 210#00000000FB890000
(1485778736.641003) can0 213#00FB00000FFF4FFF
(1485778736.641252) can0 252#0000000FFF200040
(1485778736.641503) can0 060#0000000000000000
(1485778736.641753) can0 090#0000C200620D0000
(1485778736.642003) can0 0B0#00004381E68011C3
(1485778736.642251) can0 0C0#0020000040000000
(1485778736.642503) can0 140#00009C00000B4A24
(1485778736.642628) can0 269#000005295585FF00
(1485778736.643505) can0 150#A08C500000000000
(1485778736.644128) can0 170#04000000D0000000
(1485778736.644379) can0 229#6000000000000000
(1485778736.644627) can0 2A0#0000000030000000
(1485778736.644878) can0 2A5#00000000100FF0FF
(1485778736.645127) can0 455#0000000000000000
(1485778736.646379) can0 0A0#0000080000007FFF
(1485778736.648254) can0 030#8002A180A000B207
(1485778736.648505) can0 405#023933003B003C7D
(1485778736.649005) can0 190#8000800080008000
(1485778736.649506) can0 010#0DE7000000008048
(1485778736.651504) can0 070#05A709F369F3F000
(1485778736.651627) can0 080#90007D00007FFFF7
(1485778736.651880) can0 090#0000C200620D0000
(1485778736.652129) can0 0F8#000000000000104E
(1485778736.652504) can0 120#0000000000008000
(1485778736.652627) can0 130#50002000E0000000
(1485778736.652882) can0 138#007D84007800820D
(1485778736.653129) can0 1A0#1F40000080000000
(1485778736.653378) can0 0C8#DF873AF2E138C600
(1485778736.653629) can0 0A5#007EE0780005F800
(1485778736.653877) can0 208#7F062AE60080FF18
(1485778736.654128) can0 260#8882C80DB761B800
(1485778736.656380) can0 060#0000000000000000
(1485778736.658255) can0 030#8002A180A000B207
(1485778736.658504) can0 290#0600400100027702
(1485778736.659004) can0 160#55FF000057A3ADFF
(1485778736.659255) can0 180#03000DF41804F000
(1485778736.659507) can0 010#0ED7000000008048
(1485778736.659755) can0 190#8000800080008000
(1485778736.660005) can0 1C0#77C0000080000000
(1485778736.660253) can0 1D0#A8FFFF0000000000
(1485778736.660503) can0 1E0#000000000000F5A3
(1485778736.660753) can0 210#00000000FA8B0000
(1485778736.661003) can0 213#00FA00000FFF5FFF
(1485778736.661253) can0 218#00008F003C7DC0D8
(1485778736.661504) can0 090#0000C200620D0000
(1485778736.661754) can0 0A0#0000080000007FFF
(1485778736.662003) can0 0B0#00004381E68011C3
(1485778736.662139) can0 0C0#0020000040000000
(1485778736.662502) can0 140#00009C00000C3A24
(1485778736.662627) can0 1B0#4100000000403000
(1485778736.662880) can0 200#F200B7B90000C000
(1485778736.663128) can0 252#0000000FFF200040
(1485778736.663503) can0 150#A08C500000000000
(1485778736.663628) can0 270#5E2F042100000000
(1485778736.663879) can0 280#C400008285254000
(1485778736.664129) can0 170#04000000D0000000
(1485778736.664379) can0 2D0#000001FC72905A85
(1485778736.664628) can0 2D4#00000000E5FEFFFE
(1485778736.664878) can0 2F0#30B00082005D9638
(1485778736.668129) can0 030#8002A180A000B207
(1485778736.669006) can0 190#8000800080008000
(1485778736.669506) can0 269#00000529AA85FF00
(1485778736.669630) can0 010#0FC7000000008048
(1485778736.671380) can0 060#0000000000000000
(1485778736.671630) can0 070#05A709F369F3F000
(1485778736.671879) can0 080#90007D00007FFFF7
(1485778736.672130) can0 090#0000C200620D0000
(1485778736.672379) can0 0F8#000000000000104E
(1485778736.672630) can0 120#0000000000008000
(1485778736.672880) can0 130#50002000E0000000
(1485778736.673128) can0 138#007D84007800820D
(1485778736.673378) can0 0C8#DF873EF2E138C600
(1485778736.673629) can0 1A0#1F40000080000000
(1485778736.673878) can0 0A5#007EEF7800F50800
(1485778736.674003) can0 1B5#000001D66AD0FFFC
(1485778736.674254) can0 298#0000001BD82B0800
(1485778736.676379) can0 0A0#0000080000008000
(1485778736.677131) can0 208#7F082AE60080FF18
(1485778736.678255) can0 030#8003A180A000B207
(1485778736.678505) can0 260#8882C80DB7E1B800
(1485778736.679005) can0 160#55FF00005793B5FF
(1485778736.679254) can0 180#03000DF51804F000
(1485778736.679507) can0 010#00B7000000008048
(1485778736.679753) can0 190#8000800080008000
(1485778736.680004) can0 1C0#77C0000080000000
(1485778736.680253) can0 1D0#A8FFFF0000000000
(1485778736.680503) can0 1E0#000000000000F693
(1485778736.680754) can0 210#00000000F98D0000
(1485778736.681003) can0 213#00F900000FFF6FFF
(1485778736.681253) can0 252#0000000FFF200040
(1485778736.681503) can0 090#0000C1FD62070000
(1485778736.681754) can0 0C0#0020000040000000
(1485778736.681888) can0 0B0#00004381E68011C3
(1485778736.682128) can0 140#00009C00000D2A24
(1485778736.683379) can0 150#A08C500000000000
(1485778736.684002) can0 170#04000000D0000000
(1485778736.684380) can0 229#6000000000000000
(1485778736.684629) can0 2A0#0000000030000000
(1485778736.684878) can0 2A5#00000000100FF0FF
(1485778736.686506) can0 060#0000000000000000
(1485778736.686630) can0 200#F200B7B90000C000
(1485778736.688504) can0 030#8002A180A000B207
(1485778736.688629) can0 290#8600C00100027702
(1485778736.689005) can0 190#8000800080008000
(1485778736.689255) can0 218#00008F003C7DC0D8
(1485778736.689506) can0 010#01A7000000008048
(1485778736.691505) can0 070#05A709F469F4F000
(1485778736.691630) can0 080#90007D00008001F7
(1485778736.691880) can0 090#0000C1FD62070000
(1485778736.692131) can0 0A0#0000080000008004
(1485778736.692504) can0 0F8#000000000000104E
(1485778736.692627) can0 120#0000000000008000
(1485778736.692880) can0 130#50002000E0000000
(1485778736.693129) can0 0C8#DF873AF6E138C600
(1485778736.693378) can0 138#007D84007800820D
(1485778736.693628) can0 1A0#1F40000080000000
(1485778736.693879) can0 0A5#007EEE7800E51800
(1485778736.694128) can0 1B0#4100000000403000
(1485778736.694379) can0 270#5E2F042100000000
(1485778736.694628) can0 280#C400008285254000
(1485778736.694878) can0 2D8#0444808000000000
(1485778736.695128) can0 340#000000000300662F
(1485778736.695254) can0 40A#FF00110110000000
(1485778736.698504) can0 030#8002A180A000B207
(1485778736.699005) can0 160#55FF00005783BDFF
(1485778736.699255) can0 180#03000DF61804F000
(1485778736.699505) can0 010#0297000000008048
(1485778736.699755) can0 190#8000800080008000
(1485778736.700004) can0 1C0#77C0000080000000
(1485778736.700254) can0 1D0#A8FFFF0000000000
(1485778736.700504) can0 1E0#000000000000F783
(1485778736.700753) can0 210#00000000F88F0000
(1485778736.701003) can0 213#00F800000FFF7FFF
(1485778736.701253) can0 252#0000000FFF200040
(1485778736.701504) can0 060#0000000000000000
(1485778736.701753) can0 090#0000C1FD62070000
(1485778736.702004) can0 0B0#00004381E68011C3
(1485778736.702253) can0 0C0#0020000040000000
(1485778736.702504) can0 140#00009C00000E1A24
(1485778736.702628) can0 208#7F082AE60080FF18
(1485778736.702880) can0 269#00000529AA85FF00
(1485778736.703131) can0 2D0#000001FB73905A85
(1485778736.703380) can0 150#A08C500000000000
(1485778736.703630) can0 260#8882C80DB761B800
(1485778736.704005) can0 170#04000000D0000000
(1485778736.706381) can0 0A0#0000080000008004
(1485778736.708255) can0 030#800AE1A0E000B287
(1485778736.709006) can0 190#8000800080008000
(1485778736.709507) can0 010#0387000000008048
(1485778736.711381) can0 070#05A709F469F4F000
(1485778736.711630) can0 080#90007D00008002F7
(1485778736.711880) can0 090#0000C1FD62070000
(1485778736.712130) can0 0F8#000000000000104E
(1485778736.712380) can0 120#0000000000008000
(1485778736.712630) can0 130#50002000E0000000
(1485778736.712881) can0 138#007D84007800820D
(1485778736.713129) can0 1A0#1F40000080000000
(1485778736.713378) can0 0C8#DF873EF2E138C600
(1485778736.713504) can0 200#F200B7BA0000C000
(1485778736.713753) can0 0A5#007EED7800D52800
(1485778736.714005) can0 1B5#000001D66AD0FFFC
(1485778736.714255) can0 298#0000001BD82B0800
(1485778736.716382) can0 060#0000000000000000
(1485778736.718505) can0 030#8002A180A000B207
(1485778736.718628) can0 290#0600400100027702
(1485778736.718881) can0 400#2302020001010000
(1485778736.719130) can0 160#55FF00005773C5FF
(1485778736.719507) can0 180#03000DF21803F000
(1485778736.719629) can0 010#0477000000008048
(1485778736.719881) can0 190#8000800080008000
(1485778736.720130) can0 1C0#77C0000080000000
(1485778736.720380) can0 1D0#A8FFFF0000000000
(1485778736.720629) can0 1E0#000000000000F873
(1485778736.720878) can0 210#00000000F7910000
(1485778736.721129) can0 213#00F700000FFF8FFF
(1485778736.721378) can0 218#00008F003C7DC0D8
(1485778736.721639) can0 090#0000C200620B0000
(1485778736.721878) can0 0A0#0000080000008000
(1485778736.722128) can0 0B0#00004381E68011C3
(1485778736.722379) can0 0C0#0020000040000000
(1485778736.722628) can0 140#00009C00000F0A24
(1485778736.722881) can0 1B0#4100000000403000
(1485778736.723022) can0 252#0000000FFF200040
(1485778736.723253) can0 150#A08C500000000000
(1485778736.723514) can0 270#5E2F042100000000
(1485778736.723753) can0 280#C400008185254000
(1485778736.724004) can0 2D4#00000000E5FEFFFE
(1485778736.724253) can0 170#04000000D0000000
(1485778736.724504) can0 229#6000000000000000
(1485778736.724753) can0 2A0#0000000030000000
(1485778736.725129) can0 2A5#00000000100FF0FF
(1485778736.727381) can0 208#7F093AF66F80FF98
(1485778736.728504) can0 030#8002A180A000B207
(1485778736.728682) can0 17E#C010004000228000
(1485778736.728932) can0 260#8882C80DB761B800
(1485778736.729180) can0 190#8000800080008000
(1485778736.729545) can0 269#00000529AA85FF00
(1485778736.729756) can0 010#0567000000008048
(1485778736.731390) can0 060#0000000000000000
(1485778736.731632) can0 070#05A709F469F4F000
(1485778736.731883) can0 080#90007D00008002F7
(1485778736.732146) can0 090#0000C200620B0000
(1485778736.732383) can0 0F8#000000000000104E
(1485778736.732634) can0 120#0000000000008000
(1485778736.732884) can0 130#50002000E0000000
(1485778736.733136) can0 138#007D84007800820D
(1485778736.733406) can0 0C8#DF873AF2E138C600
(1485778736.733506) can0 1A0#1F40000080000000
(1485778736.733759) can0 0A5#007EEC7800C53800
(1485778736.734011) can0 310#D94430602D450074
(1485778736.736635) can0 0A0#0000080000008000
(1485778736.736884) can0 200#F200B7BA0000C000
(1485778736.738384) can0 030#8003A180A000B207
(1485778736.739009) can0 160#55FF00005763CDFF
(1485778736.739257) can0 180#03000DF61805F000
(1485778736.739508) can0 010#0657000000008048
(1485778736.739755) can0 190#8000800080008000
(1485778736.740007) can0 1C0#77C0000080000000
(1485778736.740256) can0 1D0#A8FFFF0000000000
(1485778736.740506) can0 1E0#000000000000F963
(1485778736.740758) can0 210#00000000F6930000
(1485778736.741005) can0 213#00F600000FFF9FFF
(1485778736.741258) can0 252#0000000FFF200040
(1485778736.741507) can0 090#0000C200620B0000
(1485778736.741754) can0 0C0#0020000040000000
(1485778736.742006) can0 0B0#00004381E68011C3
(1485778736.742130) can0 140#00009C000000FA24
(1485778736.742506) can0 2D0#000001FA74905A85
(1485778736.743382) can0 150#A08C500000000000
(1485778736.744258) can0 170#04000000D0000000
(1485778736.745131) can0 455#0000000000000000
(1485778736.746385) can0 060#0000000000000000
(1485778736.748152) can0 030#8002A180A000B207
(1485778736.748396) can0 290#0600400100027702
(1485778736.749038) can0 190#8000800080008000
(1485778736.749257) can0 218#00008F003C7DC0D8
(1485778736.749543) can0 010#0747000000008048
(1485778736.751388) can0 070#05A709F469F4F000
(1485778736.751636) can0 080#90007D00008002F7
(1485778736.751910) can0 090#0000C200620B0000
(1485778736.752132) can0 0A0#0000080000008000
(1485778736.752380) can0 0F8#000000000000104E
(1485778736.752630) can0 120#0000000000008000
(1485778736.752886) can0 130#50002000E0000000
(1485778736.753131) can0 138#007D84007800820D
(1485778736.753255) can0 0C8#DF873EF6E138C600
(1485778736.753509) can0 1A0#1F40000080000000
(1485778736.753756) can0 0A5#007EEB7800B54800
(1485778736.754005) can0 1B0#4100000000403000
(1485778736.754256) can0 1B5#000001D66AD0FFFC
(1485778736.754505) can0 208#7F012AE60080FF18
(1485778736.754757) can0 260#8882C80DB7E1B800
(1485778736.755005) can0 270#5E2F042100000000
(1485778736.755256) can0 280#C400008185254000
(1485778736.755505) can0 298#0000001BD82B0800
(1485778736.755755) can0 2D8#0444808000000000
(1485778736.755879) can0 2F0#30B00081005D9638
(1485778736.758384) can0 030#8002A180A000B207
(1485778736.759006) can0 160#55FF00005753D5FF
(1485778736.759258) can0 180#03000DF61803F000
(1485778736.759507) can0 010#083400000000804B
(1485778736.759756) can0 190#8000800080008000
(1485778736.760004) can0 1C0#77C0000080000000
(1485778736.760252) can0 1D0#A8FFFF0000000000
(1485778736.760502) can0 1E0#000000000000FA53
(1485778736.760752) can0 210#00000000F5950000
(1485778736.761002) can0 213#00F500000FFFAFFF
(1485778736.761252) can0 252#0000000FFF200040
(1485778736.761502) can0 060#0000000000000000
(1485778736.761752) can0 090#0000C201620E0000
(1485778736.762002) can0 0B0#00004381E68011C3
(1485778736.762252) can0 0C0#0020000040000000
(1485778736.762501) can0 140#00009C000001EA24
(1485778736.762627) can0 200#F200B7BA0000C000
(1485778736.762880) can0 269#000005295585FF00
(1485778736.763254) can0 150#A08B700000000000
(1485778736.764128) can0 170#04000000D0000000
(1485778736.764520) can0 229#6000000000000000
(1485778736.764768) can0 2A0#0000000030000000
(1485778736.765018) can0 2A5#00000000100FF0FF
(1485778736.766393) can0 0A0#0000080000008000
(1485778736.768268) can0 030#8002A180A000B207
(1485778736.769052) can0 190#8000800080008000
(1485778736.769522) can0 010#0927000000008048
(1485778736.771430) can0 070#05A709F369F3F000
(1485778736.771679) can0 080#90007D00007FFFF7
(1485778736.771930) can0 090#0000C201620E0000
(1485778736.772179) can0 0F8#000000000000104E
(1485778736.772417) can0 120#0000000000008000
(1485778736.772679) can0 130#50002000E0000000
(1485778736.772895) can0 138#007D84007800820D
(1485778736.773131) can0 1A0#1F40000080000000
(1485778736.773254) can0 0C8#DF873AF2E138C600
(1485778736.773644) can0 0A5#007EEA7800A55800
(1485778736.776398) can0 060#0000000000000000
(1485778736.777558) can0 208#7F082AE60080FF18
(1485778736.778553) can0 030#800AE180E000B287
(1485778736.778628) can0 260#8882C80DB761B800
(1485778736.778933) can0 290#8600400100027702
(1485778736.779176) can0 160#55FF00005743DDFF
(1485778736.779424) can0 180#03000DF41802F000
(1485778736.779644) can0 010#0A17000000008048
(1485778736.779899) can0 190#8000800080008000
(1485778736.780149) can0 1C0#77C0000080000000
(1485778736.780408) can0 1D0#A8FFFF0000000000
(1485778736.780645) can0 1E0#000000000000FB43
(1485778736.780904) can0 210#00000000F4970000
(1485778736.781129) can0 213#00F400000FFFBFFF
(1485778736.781422) can0 218#00008F003C7DC0D8
(1485778736.781630) can0 090#0000C201620E0000
(1485778736.781879) can0 0A0#0000080000007FFE
(1485778736.782129) can0 0B0#00004381E68011C3
(1485778736.782382) can0 0C0#0020000040000000
(1485778736.782506) can0 140#00009C000002DA24
(1485778736.782754) can0 1B0#4100000000403000
(1485778736.783006) can0 252#0000000FFF200040
(1485778736.783254) can0 150#A08B500000000000
(1485778736.783505) can0 270#5E2F042100000000
(1485778736.783753) can0 280#C400008285254000
(1485778736.784005) can0 2D0#000001F975905A85
(1485778736.784253) can0 170#04000000D0000000
(1485778736.784501) can0 2D4#00000000E5FEFFFE
(1485778736.784754) can0 360#C0C03F003C7DB8B7
(1485778736.786379) can0 200#F200B7BA0000C000
(1485778736.788379) can0 030#8002A180A000B207
(1485778736.789003) can0 190#8000800080008000
(1485778736.789525) can0 010#0B07000000008048
(1485778736.789796) can0 269#000005295585FF00
(1485778736.791434) can0 060#0000000000000000
(1485778736.791679) can0 070#05A709F369F3F000
(1485778736.791921) can0 080#90007D00007FFFF7
(1485778736.792139) can0 090#0000C201620E0000
(1485778736.792406) can0 0F8#000000000000104E
(1485778736.792651) can0 120#0000000000008000
(1485778736.792896) can0 130#50002000E0000000
(1485778736.793131) can0 138#007D84007800820D
(1485778736.793263) can0 0C8#DF873EF2E138C600
(1485778736.793521) can0 1A0#1F40000080000000
(1485778736.793774) can0 0A5#007EE97800956800
(1485778736.794024) can0 1B5#000001D66AD0FFFC
(1485778736.794276) can0 298#0000001BD82B0800
(1485778736.796402) can0 0A0#0000080000007FFE
(1485778736.798524) can0 030#8003A180A000B207
(1485778736.799025) can0 160#55FF00005733E5FF
(1485778736.799276) can0 180#03000DF51804F000
(1485778736.799525) can0 010#0CF7000000008048
(1485778736.799793) can0 190#8000800080008000
(1485778736.800026) can0 1C0#77C0000080000000
(1485778736.800257) can0 1D0#A8FFFF0000000000
(1485778736.800504) can0 1E0#000000000000FC33
(1485778736.800754) can0 210#00000000F3990000
(1485778736.801004) can0 213#00F300000FFFCFFF
(1485778736.801254) can0 252#0000000FFF200040
(1485778736.801504) can0 090#0000C1FF620C0000
(1485778736.801754) can0 0C0#0020000040000000
(1485778736.801885) can0 0B0#00004381E68011C3
(1485778736.802145) can0 140#00009C000003CA24
(1485778736.802524) can0 208#7F092AE60080FF18
(1485778736.803157) can0 150#A08B500000000000
(1485778736.803394) can0 260#8882C80DB8E1B800
(1485778736.804149) can0 170#04000000D0000000
(1485778736.804419) can0 229#6000000000000000
(1485778736.804650) can0 2A0#0000000030000000
(1485778736.804882) can0 2A5#00000000100FF0FF
(1485778736.806379) can0 060#0000000000000000
(1485778736.808381) can0 030#8002A180A000B207
(1485778736.808515) can0 290#0600400100027702
(1485778736.809004) can0 190#8000800080008000
(1485778736.809254) can0 218#00008F003C7DC0D8
(1485778736.809505) can0 010#0DE7000000008048
(1485778736.811419) can0 070#05A709F369F3F000
(1485778736.811650) can0 080#90007D00007FFFF7
(1485778736.811895) can0 090#0000C1FF620C0000
(1485778736.812169) can0 0A0#0000080000008000
(1485778736.812398) can0 0F8#000000000000104E
(1485778736.812643) can0 120#0000000000008000
(1485778736.812897) can0 130#50002000E0000000
(1485778736.813132) can0 138#007D84007800820D
(1485778736.813254) can0 0C8#DF873AF2E138C600
(1485778736.813504) can0 1A0#1F40000080000000
(1485778736.813752) can0 0A5#007EE87800857800
(1485778736.814005) can0 1B0#4100000000403000
(1485778736.814254) can0 200#F200B7BB0000C000
(1485778736.814504) can0 270#5E2F042100000000
(1485778736.814754) can0 280#C400008285254000
(1485778736.815004) can0 2D8#0444808000000000
(1485778736.815255) can0 340#000000000300662F
(1485778736.818505) can0 030#8002A180A000B207
(1485778736.818793) can0 40A#FF01311400400280
(1485778736.819040) can0 160#55FF00005723EDFF
(1485778736.819276) can0 180#03000DF51804F000
(1485778736.819520) can0 010#0ED7000000008048
(1485778736.819756) can0 190#8000800080008000
(1485778736.820005) can0 1C0#77C0000080000000
(1485778736.820295) can0 1D0#A8FFFF0000000000
(1485778736.820522) can0 1E0#000000000000FD23
(1485778736.820756) can0 210#00000000F29B0000
(1485778736.821022) can0 213#00F200000FFFDFFF
(1485778736.821295) can0 252#0000000FFF200040
(1485778736.821520) can0 060#0000000000000000
(1485778736.821796) can0 090#0000C1FF620C0000
(1485778736.822006) can0 0B0#00004381E68011C3
(1485778736.822255) can0 0C0#0020000040000000
(1485778736.822504) can0 140#00009C000004BA24
(1485778736.822629) can0 269#000005295585FF00
(1485778736.822879) can0 2D0#000001F876905A85
(1485778736.823380) can0 150#A08B500000000000
(1485778736.824130) can0 170#04000000D0000000
(1485778736.826401) can0 0A0#0000080000008000
(1485778736.827882) can0 208#7F043AF66F80FF98
(1485778736.828295) can0 030#8002A180A000B207
(1485778736.828524) can0 17E#C010004000200000
(1485778736.828795) can0 260#8882C80DB761B800
(1485778736.829025) can0 190#8000800080008000
(1485778736.829521) can0 010#0FC7000000008048
(1485778736.831892) can0 070#05A709F369F3F000
(1485778736.832149) can0 080#90007D00007FFFF7
(1485778736.832507) can0 090#0000C1FF620A0000
(1485778736.832642) can0 0F8#000000000000104E
(1485778736.832894) can0 120#0000000000008000
(1485778736.833132) can0 130#50002000E0000000
(1485778736.833420) can0 0C8#DF873EF2E138C600
(1485778736.833668) can0 0A5#007EE77800758800
(1485778736.833903) can0 138#007D84007800820D
(1485778736.834132) can0 1A0#1F40000080000000
(1485778736.834381) can0 1B5#000001D66AD0FFFC
(1485778736.834648) can0 298#0000001BD82B0800
(1485778736.834772) can0 310#D94430602D450074
(1485778736.836523) can0 060#0000000000000000
(1485778736.836661) can0 200#F200B7BB0000C000
(1485778736.838291) can0 030#8002A180A000B207
(1485778736.838525) can0 290#0600400100027702
(1485778736.839025) can0 160#55FF00005713F5FF
(1485778736.839274) can0 180#03000DF51804F000
(1485778736.839526) can0 010#00B7000000008048
(1485778736.839794) can0 190#8000800080008000
(1485778736.840028) can0 1C0#77C0000080000000
(1485778736.840257) can0 1D0#A8FFFF0000000000
(1485778736.840504) can0 1E0#000000000000FE13
(1485778736.840773) can0 210#00000000F19D0000
(1485778736.841046) can0 213#00F100000FFFEFFF
(1485778736.841257) can0 218#00008F003C7DC0D8
(1485778736.841504) can0 090#0000C1FF620A0000
(1485778736.841778) can0 0A0#0000080000008001
(1485778736.842021) can0 0B0#00004381E68011C3
(1485778736.842271) can0 0C0#0020000040000000
(1485778736.842508) can0 140#00009C000005AA24
(1485778736.842630) can0 1B0#4100000000403000
(1485778736.842899) can0 252#0000000FFF200040
(1485778736.843148) can0 270#5E2F042100000000
(1485778736.843522) can0 150#A08B500000000000
(1485778736.843645) can0 280#C400008285254000
(1485778736.843882) can0 2D4#00000000E5FEFFFE
(1485778736.844130) can0 2F0#30B00082005D9638
(1485778736.844422) can0 170#04000000D0000000
(1485778736.844630) can0 581#8100FFFFFFFFFFFF
(1485778736.844880) can0 229#6000000000000000
(1485778736.845129) can0 2A0#0000000030000000
(1485778736.845380) can0 3DA#0000000000000000
(1485778736.845632) can0 2A5#00000000100FF0FF
(1485778736.845880) can0 3E2#0000000000000000
(1485778736.846128) can0 3EA#0000000000006000
(1485778736.846505) can0 455#0000000000000000
(1485778736.848255) can0 030#8002A180A000B207
(1485778736.849004) can0 190#8000800080008000
(1485778736.849509) can0 010#01A400000000804B
(1485778736.849792) can0 269#000005295585FF00
(1485778736.851401) can0 060#0000000000000000
(1485778736.851668) can0 070#05A709F469F4F000
(1485778736.851905) can0 080#90007D00008000F7
(1485778736.852151) can0 090#0000C1FF620A0000
(1485778736.852419) can0 0F8#000000000000104E
(1485778736.852650) can0 120#0000000000008000
(1485778736.852884) can0 130#50002000E0000000
(1485778736.853140) can0 138#007D84007800820D
(1485778736.853269) can0 0C8#DF873AF2E138C600
(1485778736.853632) can0 1A0#1F40000080000000
(1485778736.853758) can0 0A5#007EE67800659800
(1485778736.854006) can0 208#7F062AE60080FF18
(1485778736.854254) can0 260#8882C80DB761B800
(1485778736.856381) can0 0A0#0000080000008001
(1485778736.858275) can0 030#800BE180E000B287
(1485778736.859023) can0 160#55FF00005703FDFF
(1485778736.859274) can0 180#03000DF61804F000
(1485778736.859529) can0 010#0297000000008048
(1485778736.859794) can0 190#8000800080008000
(1485778736.860051) can0 1C0#77C0000080000000
(1485778736.860275) can0 1D0#A8FFFF0000000000
(1485778736.860507) can0 1E0#000000000000FF03
(1485778736.860770) can0 210#00000000F09F0000
(1485778736.861007) can0 213#00F000000FFFFFFF
(1485778736.861254) can0 252#0000000FFF200040
(1485778736.861522) can0 090#0000C1FF620A0000
(1485778736.861794) can0 0B0#00004381E68011C3
(1485778736.861880) can0 0C0#0020000040000000
(1485778736.862130) can0 140#00009C0000069A24
(1485778736.862506) can0 200#F200B7BB0000C000
(1485778736.862641) can0 2D0#000001F777905A85
(1485778736.863379) can0 150#A08B500000000000
(1485778736.864005) can0 170#04000000D0000000
(1485778736.866405) can0 060#0000000000000000
(1485778736.868130) can0 030#8002A180A000B207
(1485778736.868380) can0 290#8600400100027702
(1485778736.869005) can0 190#8000800080008000
(1485778736.869274) can0 218#00008F003C7DC0D8
(1485778736.869521) can0 010#0387000000008048
(1485778736.871395) can0 070#05A709F469F4F000
(1485778736.871651) can0 080#90007D00008001F7
(1485778736.871882) can0 090#0000C1FF620A0000
(1485778736.872130) can0 0A0#0000080000008001
(1485778736.872381) can0 0F8#000000000000104E
(1485778736.872645) can0 120#0000000000008000
(1485778736.872901) can0 130#50002000E0000000
(1485778736.873027) can0 138#007D84007800820D
(1485778736.873255) can0 0C8#DF873EF6E138C600
(1485778736.873514) can0 1A0#1F40000080000000
(1485778736.873764) can0 1B0#4100000000403000
(1485778736.874014) can0 270#5E2F042100000000
(1485778736.874272) can0 280#C400008285254000
(1485778736.874521) can0 2D8#0444808000000000
(1485778736.874768) can0 0A5#007EE5780055A800
(1485778736.875025) can0 1B5#000001D66AD0FFFC
(1485778736.875257) can0 298#0000001BD82B0800
(1485778736.877755) can0 208#7F072AE60080FF18
(1485778736.878630) can0 030#8002A180A000B207
(1485778736.878890) can0 260#8882C80DB7E1B800
(1485778736.879005) can0 160#55FF000057F385FF
(1485778736.879255) can0 180#03000DF61804F000
(1485778736.879526) can0 010#0477000000008048
(1485778736.879775) can0 190#8000800080008000
(1485778736.880007) can0 1C0#77C0000080000000
(1485778736.880256) can0 1D0#A8FFFF0000000000
(1485778736.880530) can0 1E0#000000000000F0F3
(1485778736.880776) can0 210#00000000FF810000
(1485778736.881026) can0 213#00FF00000FFF0FFF
(1485778736.881271) can0 252#0000000FFF200040
(1485778736.881515) can0 060#0000000000000000
(1485778736.881771) can0 090#0000C1FF620A0000
(1485778736.882026) can0 0B0#00004381E68011C3
(1485778736.882273) can0 0C0#0020000040000000
(1485778736.882508) can0 140#00009C0000078A24
(1485778736.882755) can0 269#00000529AA85FF00
(1485778736.883255) can0 150#A08B500000000000
(1485778736.884131) can0 170#04000000D0000000
(1485778736.884399) can0 229#6000000000000000
(1485778736.884643) can0 2A0#0000000030000000
(1485778736.884880) can0 2A5#00000000100FF0FF
(1485778736.886382) can0 0A0#0000080000008001
(1485778736.886651) can0 200#F200B7BC0000C000
(1485778736.888399) can0 030#8002A180A000B207
(1485778736.889026) can0 190#8000800080008000
(1485778736.889527) can0 010#0567000000008048
(1485778736.891399) can0 070#05A709F469F4F000
(1485778736.891667) can0 080#90007D00008001F7
(1485778736.891901) can0 090#0000C1FF620A0000
(1485778736.892150) can0 0F8#000000000000104E
(1485778736.892382) can0 120#0000000000008000
(1485778736.892631) can0 130#50002000E0000000
(1485778736.892755) can0 138#007D84007800820D
(1485778736.893005) can0 1A0#1F40000080000000
(1485778736.893256) can0 0C8#DF873AF2E138C600
(1485778736.894649) can0 0A5#007EE4780045B800
(1485778736.896401) can0 060#0000000000000000
(1485778736.898395) can0 030#8002A180A000B207
(1485778736.898651) can0 290#0600400100027702
(1485778736.898899) can0 405#2200000000000000
(1485778736.899150) can0 160#55FF000057E38DFF
(1485778736.899272) can0 180#03000DF41804F000
(1485778736.899528) can0 010#0657000000008048
(1485778736.899757) can0 190#8000800080008000
(1485778736.900005) can0 1C0#77C0000080000000
(1485778736.900255) can0 1D0#A8FFFF0000000000
(1485778736.900505) can0 1E0#000000000000F1E3
(1485778736.900776) can0 210#00000000FE830000
(1485778736.901008) can0 213#00FE00000FFF1FFF
(1485778736.901256) can0 218#00008F003C7DC0D8
(1485778736.901525) can0 090#0000C1FF620A0000
(1485778736.901770) can0 0A0#0000080000008001
(1485778736.902023) can0 0B0#00004381E68011C3
(1485778736.902276) can0 0C0#0020000040000000
(1485778736.902522) can0 140#00009C0000087A24
(1485778736.902772) can0 1B0#4100000000403000
(1485778736.903020) can0 208#7F0B2AE60080FF18
(1485778736.903258) can0 150#A08B500000000000
(1485778736.903506) can0 252#0000000FFF200040
(1485778736.903755) can0 260#8882C80DB761B800
(1485778736.903901) can0 270#5E2F042100000000
(1485778736.904146) can0 280#C400008285254000
(1485778736.904524) can0 170#04000000D0000000
(1485778736.904643) can0 2D0#000001F678905A85
(1485778736.904894) can0 2D4#00000000E5FEFFFE
(1485778736.908272) can0 030#8002A180A000B207
(1485778736.909024) can0 190#8000800080008000
(1485778736.909509) can0 010#0747000000008048
(1485778736.909777) can0 269#00000529AA85FF00
(1485778736.911401) can0 060#0000000000000000
(1485778736.911653) can0 070#05A709F469F4F000
(1485778736.911890) can0 080#90007D00008002F7
(1485778736.912145) can0 090#0000C1FF620B0000
(1485778736.912395) can0 0F8#000000000000104E
(1485778736.912519) can0 120#0000000000008000
(1485778736.912790) can0 130#50002000E0000000
(1485778736.913026) can0 138#007D84007800820D
(1485778736.913273) can0 0C8#DF873EF2E138C600
(1485778736.913520) can0 1A0#1F40000080000000
(1485778736.913767) can0 200#F200B7BC0000C000
(1485778736.914651) can0 0A5#007EE3780035C800
(1485778736.914920) can0 1B5#000001D66AD0FFFC
(1485778736.915152) can0 298#0000001BD82B0800
(1485778736.916385) can0 0A0#0000080000008001
(1485778736.918509) can0 030#8003A180A000B207
(1485778736.919026) can0 160#55FF000057D395FF
(1485778736.919296) can0 180#03000DF61804F000
(1485778736.919550) can0 190#8000800080008000
(1485778736.919779) can0 010#0837000000008048
(1485778736.920048) can0 1C0#77C0000080000000
(1485778736.920303) can0 1D0#A8FFFF0000000000
(1485778736.920543) can0 1E0#000000000000F2D3
(1485778736.920757) can0 210#00000000FD850000
(1485778736.921006) can0 213#00FD00000FFF2FFF
(1485778736.921255) can0 252#0000000FFF200040
(1485778736.921506) can0 090#0000C1FF620B0000
(1485778736.921639) can0 0B0#00004381E68011C3
(1485778736.921916) can0 0C0#0020000040000000
(1485778736.922152) can0 140#00009C0000096A24
(1485778736.923395) can0 150#A08B500000000000
(1485778736.924156) can0 170#04000000D0000000
(1485778736.924519) can0 229#6000000000000000
(1485778736.924645) can0 2A0#0000000030000000
(1485778736.924906) can0 2A5#00000000100FF0FF
(1485778736.926403) can0 060#0000000000000000
(1485778736.927909) can0 208#7F033AF66F80FF98
(1485778736.928277) can0 030#8002A180A000B207
(1485778736.928546) can0 17E#C010004000200000
(1485778736.928777) can0 260#8882C80DB7E1B800
(1485778736.929029) can0 290#8600400100027702
(1485778736.929294) can0 190#8000800080008000
(1485778736.929529) can0 218#00008F003C7DC0D8
(1485778736.929776) can0 010#0927000000008048
(1485778736.930007) can0 380#10947CA96000C0A9
(1485778736.930139) can0 3B4#401111FF00000000
(1485778736.930505) can0 435#B237B9D276EFB3C4
(1485778736.931381) can0 070#05A709F469F4F000
(1485778736.931645) can0 080#90007D00008001F7
(1485778736.931920) can0 090#0000C1FF620B0000
(1485778736.932163) can0 0A0#0000080000008001
(1485778736.932420) can0 0F8#000000000000104E
(1485778736.932652) can0 120#0000000000008000
(1485778736.932920) can0 130#50002000E0000000
(1485778736.933133) can0 138#007D84007800820D
(1485778736.933380) can0 1A0#1F40000080000000
(1485778736.933507) can0 0C8#DF873AF6E138C600
(1485778736.933769) can0 1B0#4100000000403000
(1485778736.934018) can0 270#5E2F042100000000
(1485778736.934277) can0 280#C400008285254000
(1485778736.934527) can0 2D8#0444808000000000
(1485778736.934758) can0 0A5#007EE2780025D800
(1485778736.935026) can0 2F0#30B00082005D9639
(1485778736.935264) can0 310#D94430602D450074
(1485778736.935508) can0 340#000000000300662F
(1485778736.935757) can0 360#C0C03F003C7DB8B7
(1485778736.936389) can0 200#F200B7BC0000C000
(1485778736.938402) can0 030#800AE180E000B287
(1485778736.939028) can0 160#55FF000057C39DFF
(1485778736.939275) can0 180#03000DF31804F000
(1485778736.939553) can0 010#0A17000000008048
(1485778736.939778) can0 190#8000800080008000
(1485778736.940029) can0 1C0#77C0000080000000
(1485778736.940276) can0 1D0#A8FFFF0000000000
(1485778736.940521) can0 1E0#000000000000F3C3
(1485778736.940758) can0 210#00000000FC870000
(1485778736.941006) can0 213#00FC00000FFF3FFF
(1485778736.941258) can0 252#0000000FFF200040
(1485778736.941526) can0 060#0000000000000000
(1485778736.941773) can0 090#0000C1FF620B0000
(1485778736.942022) can0 0B0#00004381E68011C3
(1485778736.942270) can0 0C0#0020000040000000
(1485778736.942521) can0 140#00009C00000A5A24
(1485778736.942652) can0 269#00000529AA85FF00
(1485778736.942894) can0 2D0#000001F579905A85
(1485778736.943394) can0 150#A08B500000000000
(1485778736.943649) can0 40A#FF02202321110000
(1485778736.944023) can0 170#04000000D0000000
(1485778736.945022) can0 455#0000000000000000
(1485778736.946665) can0 0A0#0000080000008001
(1485778736.948154) can0 030#8002A180A000B207
(1485778736.949019) can0 190#8000800080008000
(1485778736.949527) can0 010#0B07000000008048
(1485778736.951400) can0 070#05A709F469F4F000
(1485778736.951670) can0 080#90007D00008001F7
(1485778736.951921) can0 090#0000C200620B0000
(1485778736.952173) can0 0F8#000000000000104E
(1485778736.952424) can0 120#0000000000008000
(1485778736.952672) can0 130#50002000E0000000
(1485778736.952904) can0 138#007D84007800820D
(1485778736.953132) can0 1A0#1F40000080000000
(1485778736.953381) can0 0C8#DF873EF2E138C600
(1485778736.953506) can0 208#7F0C2AE60080FF18
(1485778736.953755) can0 260#8882C80DB761B800
(1485778736.954648) can0 0A5#007EE1780015E800
(1485778736.954889) can0 1B5#000001D66AD0FFFC
(1485778736.955021) can0 298#0000001BD82B0800
(1485778736.956525) can0 060#0000000000000000
(1485778736.958287) can0 030#8002A180A000B207
(1485778736.958527) can0 290#0600400100027702
(1485778736.959024) can0 160#55FF000057B3A5FF
(1485778736.959280) can0 180#03000DF41803F000
(1485778736.959529) can0 190#8000800080008000
(1485778736.959795) can0 010#0CF7000000008048
(1485778736.960026) can0 1C0#77C0000080000000
(1485778736.960299) can0 1D0#A8FFFF0000000000
(1485778736.960508) can0 1E0#000000000000F4B3
(1485778736.960757) can0 210#00000000FB890000
(1485778736.961006) can0 213#00FB00000FFF4FFF
(1485778736.961257) can0 218#00008F003C7DC0D8
(1485778736.961526) can0 090#0000C200620B0000
(1485778736.961651) can0 0A0#0000080000008001
(1485778736.961900) can0 0B0#00004381E68011C3
(1485778736.962148) can0 0C0#0020000040000000
(1485778736.962519) can0 140#00009C00000B4A24
(1485778736.962649) can0 1B0#4100000000403000
(1485778736.962902) can0 200#F200B7BC0000C000
(1485778736.963147) can0 252#0000000FFF200040
(1485778736.963395) can0 150#A08B500000000000
(1485778736.963647) can0 270#5E2F042100000000
(1485778736.963895) can0 280#C400008285254000
(1485778736.964145) can0 170#04000000D0000000
(1485778736.964398) can0 2D4#00000000E5FEFFFE
(1485778736.964646) can0 229#6000000000000000
(1485778736.964884) can0 2A0#0000000030000000
(1485778736.965131) can0 2A5#00000000100FF0FF
(1485778736.968507) can0 030#8002A180A000B207
(1485778736.968642) can0 400#2400000000005744
(1485778736.969023) can0 190#8000800080008000
(1485778736.969528) can0 010#0DE7000000008048
(1485778736.969775) can0 269#000005295585FF00
(1485778736.971402) can0 060#0000000000000000
(1485778736.971645) can0 070#05A709F469F4F000
(1485778736.971902) can0 080#90007D00008001F7
(1485778736.972027) can0 090#0000C200620B0000
(1485778736.972293) can0 0F8#000000000000104E
(1485778736.972543) can0 120#0000000000008000
(1485778736.972777) can0 130#50002000E0000000
(1485778736.973022) can0 138#007D84007800820D
(1485778736.973281) can0 0C8#DF873AF2E138C600
(1485778736.973526) can0 1A0#1F40000080000000
(1485778736.974653) can0 0A5#007EE0780005F800
(1485778736.976277) can0 0A0#0000080000008001
(1485778736.978009) can0 208#7F082AE60080FF18
(1485778736.978526) can0 030#8003A180A000B207
(1485778736.978651) can0 260#8882C80DB7E1B800
(1485778736.979023) can0 160#55FF000057A3ADFF
(1485778736.979270) can0 180#03000DF51806F000
(1485778736.979528) can0 190#8000800080008000
(1485778736.979795) can0 010#0ED7000000008048
(1485778736.980047) can0 1C0#77C0000080000000
(1485778736.980276) can0 1D0#A8FFFF0000000000
(1485778736.980545) can0 1E0#000000000000F5A3
(1485778736.980797) can0 210#00000000FA8B0000
(1485778736.981007) can0 213#00FA00000FFF5FFF
(1485778736.981131) can0 252#0000000FFF200040
(1485778736.981507) can0 090#0000C200620B0000
(1485778736.981631) can0 0B0#00004381E68011C3
(1485778736.981881) can0 0C0#0020000040000000
(1485778736.982148) can0 140#00009C00000C3A24
(1485778736.982523) can0 2D0#000001F47A905A85
(1485778736.983280) can0 150#A08B500000000000
(1485778736.983904) can0 170#04000000D0000000
(1485778736.986528) can0 060#0000000000000000
(1485778736.986648) can0 200#F200B7BC0000C000
(1485778736.988273) can0 030#8002A180A000B207
(1485778736.988530) can0 290#0600C00100027702
(1485778736.989027) can0 190#8000800080008000
(1485778736.989295) can0 218#00008F003C7DC0D8
(1485778736.989548) can0 010#0FC7000000008048
(1485778736.991400) can0 070#05A709F469F4F000
(1485778736.991524) can0 080#90007D00008001F7
(1485778736.991791) can0 090#0000C1FF620A0000
(1485778736.992043) can0 0A0#0000080000008001
(1485778736.992296) can0 0F8#000000000000104E
(1485778736.992521) can0 120#0000000000008000
(1485778736.992780) can0 130#50002000E0000000
(1485778736.993027) can0 138#007D84007800820D
(1485778736.993277) can0 0C8#DF873EF6E138C600
(1485778736.993526) can0 1A0#1F40000080000000
(1485778736.993759) can0 1B0#4100000000403000
(1485778736.994006) can0 270#5E2F042100000000
(1485778736.994258) can0 280#C400008285254000
(1485778736.994530) can0 2D8#0444808000000000
(1485778736.994797) can0 0A5#007EEF7800F50800
(1485778736.995027) can0 1B5#000001D66AD0FFFC
(1485778736.995272) can0 298#0000001BD82B0800
(1485778736.998536) can0 030#8002A180A000B207
(1485778736.999027) can0 160#55FF00005793B5FF
(1485778736.999299) can0 180#03000DF41804F000
(1485778736.999527) can0 190#8000800080008000
(1485778736.999800) can0 010#00B400000000804B
(1485778737.000010) can0 1C0#77C0000080000000
(1485778737.000257) can0 1D0#A8FFFF0000000000
(1485778737.000545) can0 1E0#000000000000F693
(1485778737.000770) can0 210#00000000F98D0000
(1485778737.001019) can0 213#00F900000FFF6FFF
(1485778737.001259) can0 252#0000000FFF200040
(1485778737.001547) can0 060#0000000000000000
(1485778737.001778) can0 090#0000C1FF620A0000
(1485778737.001903) can0 0B0#00004381E68011C3
(1485778737.002144) can0 0C0#0020000040000000
(1485778737.002521) can0 140#00009C00000D2A24
(1485778737.002645) can0 269#000005295585FF00
(1485778737.003022) can0 208#7F072AE60080FF18
(1485778737.003272) can0 150#A08B500000000000
(1485778737.003522) can0 260#8882C80DB761B800
(1485778737.004149) can0 170#04000000D0000000
(1485778737.004398) can0 229#6000000000000000
(1485778737.004649) can0 2A0#0000000030000000
(1485778737.004891) can0 2A5#00000000100FF0FF
(1485778737.006398) can0 0A0#0000080000008001
(1485778737.008403) can0 030#8002A180A000B207
(1485778737.009028) can0 190#8000800080008000
(1485778737.009528) can0 010#01A7000000008048
(1485778737.011402) can0 070#05A709F469F4F000
(1485778737.011531) can0 080#90007D00008001F7
(1485778737.011778) can0 090#0000C1FF620A0000
(1485778737.012042) can0 0F8#000000000000104E
(1485778737.012402) can0 120#0000000000008000
(1485778737.012530) can0 130#50002000E0000000
(1485778737.012778) can0 138#007D84007800820D
(1485778737.013021) can0 1A0#1F40000080000000
(1485778737.013277) can0 0C8#DF873AF2E138C600
(1485778737.013544) can0 200#F200B7BD0000C000
(1485778737.014651) can0 0A5#007EEE7800E51800
(1485778737.016293) can0 060#0000000000000000
(1485778737.018402) can0 030#800AE1A0E000B287
(1485778737.018652) can0 290#8600400100027702
(1485778737.019047) can0 160#55FF00005783BDFF
(1485778737.019305) can0 180#03000DF51803F000
(1485778737.019530) can0 190#8000800080008000
(1485778737.019796) can0 010#0297000000008048
(1485778737.020046) can0 1C0#77C0000080000000
(1485778737.020271) can0 1D0#A8FFFF0000000000
(1485778737.020509) can0 1E0#000000000000F783
(1485778737.020757) can0 210#00000000F88F0000
(1485778737.021028) can0 213#00F800000FFF7FFF
(1485778737.021259) can0 218#00008F003C7DC0D8
(1485778737.021507) can0 090#0000C1FF620A0000
(1485778737.021642) can0 0A0#0000080000008001
(1485778737.021881) can0 0B0#00004381E68011C3
(1485778737.022132) can0 0C0#0020000040000000
(1485778737.022507) can0 140#00009C00000E1A24
(1485778737.022641) can0 1B0#4100000000403000
(1485778737.022886) can0 252#0000000FFF200040
(1485778737.023132) can0 270#5E2F042100000000
(1485778737.023382) can0 280#C400008285254000
(1485778737.023631) can0 150#A08B500000000000
(1485778737.023882) can0 2D0#000001F37B905A85
(1485778737.024131) can0 170#04000000D0000000
(1485778737.024382) can0 2D4#00000000E5FEFFFE
(1485778737.024631) can0 2F0#30B00082005D9639
(1485778737.028131) can0 030#8002A180A000B207
(1485778737.028507) can0 17E#C010004000278000
(1485778737.028631) can0 208#7F0A3AF66F80FF98
(1485778737.028900) can0 260#8882C80DB761B800
(1485778737.029178) can0 190#8000800080008000
(1485778737.029529) can0 010#0387000000008048
(1485778737.029794) can0 269#000005295585FF00
(1485778737.031402) can0 060#0000000000000000
(1485778737.031674) can0 070#05A709F469F4F000
(1485778737.031903) can0 080#90007D00008001F7
(1485778737.032132) can0 090#0000C1FF620A0000
(1485778737.032421) can0 0F8#000000000000104E
(1485778737.032653) can0 120#0000000000008000
(1485778737.032781) can0 130#50002000E0000000
(1485778737.033026) can0 138#007D84007800820D
(1485778737.033276) can0 0C8#DF873EF2E138C600
(1485778737.033523) can0 1A0#1F40000080000000
(1485778737.033759) can0 310#DB4430602D450074
(1485778737.034631) can0 0A5#007EED7800D52800
(1485778737.034897) can0 1B5#000001D66AD0FFFC
(1485778737.035029) can0 298#0000001BD82B0800
(1485778737.036286) can0 0A0#0000080000008001
(1485778737.036527) can0 200#F200B7BD0000C000
(1485778737.038277) can0 030#8003A180A000B207
(1485778737.039028) can0 160#55FF00005773C5FF
(1485778737.039272) can0 180#03000DF61805F000
(1485778737.039548) can0 190#8000800080008000
(1485778737.039779) can0 010#0477000000008048
(1485778737.040044) can0 1C0#77C0000080000000
(1485778737.040277) can0 1D0#A8FFFF0000000000
(1485778737.040509) can0 1E0#000000000000F873
(1485778737.040796) can0 210#00000000F7910000
(1485778737.041026) can0 213#00F700000FFF8FFF
(1485778737.041272) can0 252#0000000FFF200040
(1485778737.041506) can0 090#0000C1FF620A0000
(1485778737.041631) can0 0B0#00004381E68011C3
(1485778737.041882) can0 0C0#0020000040000000
(1485778737.042132) can0 140#00009C00000F0A24
(1485778737.043256) can0 150#A08B700000000000
(1485778737.044151) can0 170#04000000D0000000
(1485778737.044427) can0 229#6000000000000000
(1485778737.044655) can0 2A0#0000000030000000
(1485778737.044921) can0 2A5#00000000100FF0FF
(1485778737.045270) can0 455#0000000000000000
(1485778737.046404) can0 060#0000000000000000
(1485778737.048152) can0 030#8002A180A000B207
(1485778737.048526) can0 290#0600400100027702
(1485778737.049022) can0 190#8000800080008000
(1485778737.049279) can0 218#00008F003C7DC0D8
(1485778737.049547) can0 010#056400000000804B
(1485778737.051402) can0 070#05A709F469F4F000
(1485778737.051528) can0 080#90007D00008002F7
(1485778737.051789) can0 090#0000C1FF620A0000
(1485778737.052038) can0 0A0#0000080000008001
(1485778737.052286) can0 0F8#000000000000104E
(1485778737.052538) can0 120#0000000000008000
(1485778737.052788) can0 130#50002000E0000000
(1485778737.053027) can0 138#007D84007800820D
(1485778737.053270) can0 0C8#DF873AF6E138C600
(1485778737.053527) can0 1A0#1F40000080000000
(1485778737.053759) can0 1B0#4100000000403000
(1485778737.054007) can0 208#7F062AE60080FF18
(1485778737.054257) can0 260#8882C80DB7E1B800
(1485778737.054507) can0 270#5E2F042100000000
(1485778737.054757) can0 0A5#007EEC7800C53800
(1485778737.055013) can0 280#C400008285254000
(1485778737.055257) can0 2D8#0444808000000000
(1485778737.055507) can0 340#000000000300662F
(1485778737.058257) can0 030#8002A180A000B207
(1485778737.059008) can0 160#55FF00005763CDFF
(1485778737.059256) can0 180#03000DF31804F000
(1485778737.059510) can0 190#8000800080008000
(1485778737.059757) can0 010#0657000000008048
(1485778737.060007) can0 1C0#77C0000080000000
(1485778737.060257) can0 1D0#A8FFFF0000000000
(1485778737.060507) can0 1E0#000000000000F963
(1485778737.060757) can0 210#00000000F6930000
(1485778737.061007) can0 213#00F600000FFF9FFF
(1485778737.061257) can0 252#0000000FFF200040
(1485778737.061507) can0 060#0000000000000000
(1485778737.061756) can0 090#0000C200620D0000
(1485778737.061882) can0 0B0#00004381E68011C3
(1485778737.062132) can0 0C0#0020000040000000
(1485778737.062507) can0 140#00009C000000FA24
(1485778737.062632) can0 200#F200B7BD0000C000
(1485778737.062883) can0 269#00000529AA85FF00
(1485778737.063132) can0 2D0#000001F27C905A85
(1485778737.063380) can0 150#A08B500000000000
(1485778737.064007) can0 170#04000000D0000000
(1485778737.066401) can0 0A0#0000080000007FFF
(1485778737.068417) can0 030#8002A180A000B207
(1485778737.068655) can0 40A#FF03040100201080
(1485778737.069028) can0 190#8000800080008000
(1485778737.069530) can0 010#0747000000008048
(1485778737.071402) can0 070#05A709F469F4F000
(1485778737.071678) can0 080#90007D00008001F7
(1485778737.071765) can0 090#0000C200620D0000
(1485778737.072036) can0 0F8#000000000000104E
(1485778737.072279) can0 120#0000000000008000
(1485778737.072529) can0 130#50002000E0000000
(1485778737.072794) can0 138#007D84007800820D
(1485778737.073027) can0 1A0#1F40000080000000
(1485778737.073278) can0 0C8#DF873EF2E138C600
(1485778737.074671) can0 0A5#007EEB7800B54800
(1485778737.074923) can0 1B5#000001D66AD0FFFC
(1485778737.075008) can0 298#0000001BD82B0800
(1485778737.076294) can0 060#0000000000000000
(1485778737.078404) can0 208#7F092AE60080FF18
(1485778737.078673) can0 030#8002A180A000B207
(1485778737.078761) can0 260#8882C80DB761B800
(1485778737.079029) can0 160#55FF00005753D5FF
(1485778737.079277) can0 180#03000DF51804F000
(1485778737.079530) can0 010#0837000000008048
(1485778737.079772) can0 190#8000800080008000
(1485778737.080027) can0 1C0#77C0000080000000
(1485778737.080278) can0 1D0#A8FFFF0000000000
(1485778737.080521) can0 1E0#000000000000FA53
(1485778737.080776) can0 210#00000000F5950000
(1485778737.081013) can0 213#00F500000FFFAFFF
(1485778737.081263) can0 218#00008F003C7DC0D8
(1485778737.081516) can0 090#0000C200620D0000
(1485778737.081764) can0 0A0#0000080000007FFF
(1485778737.082016) can0 0B0#00004381E68011C3
(1485778737.082265) can0 0C0#0020000040000000
(1485778737.082512) can0 140#00009C000001EA24
(1485778737.082764) can0 1B0#4100000000403000
(1485778737.083014) can0 252#0000000FFF200040
(1485778737.083264) can0 150#A08B500000000000
(1485778737.083510) can0 270#5E2F042100000000
(1485778737.083631) can0 280#C400008285254000
(1485778737.083882) can0 290#0600400100027702
(1485778737.084132) can0 170#04000000D0000000
(1485778737.084507) can0 2D4#00000000E5FEFFFE
(1485778737.084632) can0 229#6000000000000000
(1485778737.084883) can0 360#C0C03F003C7DB8B7
(1485778737.085132) can0 2A0#0000000030000000
(1485778737.085508) can0 2A5#00000000100FF0FF
(1485778737.086385) can0 200#F200B7BD0000C000
(1485778737.088513) can0 030#8002A180A000B207
(1485778737.089050) can0 190#8000800080008000
(1485778737.089520) can0 010#0927000000008048
(1485778737.089780) can0 269#00000529AA85FF00
(1485778737.091404) can0 060#0000000000000000
(1485778737.091650) can0 070#05A709F469F4F000
(1485778737.091780) can0 080#90007D00008000F7
(1485778737.092027) can0 090#0000C200620D0000
(1485778737.092278) can0 0F8#000000000000104E
(1485778737.092529) can0 120#0000000000008000
(1485778737.092778) can0 130#50002000E0000000
(1485778737.093029) can0 138#007D84007800820D
(1485778737.093277) can0 0C8#DF873AF2E138C600
(1485778737.093509) can0 1A0#1F40000080000000
(1485778737.094642) can0 0A5#007EEA7800A55800
(1485778737.096259) can0 0A0#0000080000007FFF
(1485778737.098403) can0 030#800BE180E000B287
(1485778737.099027) can0 160#55FF00005743DDFF
(1485778737.099296) can0 180#03000DF51805F000
(1485778737.099551) can0 190#8000800080008000
(1485778737.099785) can0 010#0A17000000008048
(1485778737.100046) can0 1C0#77C0000080000000
(1485778737.100297) can0 1D0#A8FFFF0000000000
(1485778737.100551) can0 1E0#000000000000FB43
(1485778737.100760) can0 210#00000000F4970000
(1485778737.101007) can0 213#00F400000FFFBFFF
(1485778737.101257) can0 252#0000000FFF200040
(1485778737.101507) can0 090#0000C200620C0000
(1485778737.101658) can0 0B0#00004381E68011C3
(1485778737.101914) can0 0C0#0020000040000000
(1485778737.102151) can0 140#00009C000002DA24
(1485778737.102385) can0 2D0#000001F17D905A85
(1485778737.103135) can0 150#A08B500000000000
(1485778737.103411) can0 208#7F072AE60080FF18
(1485778737.103649) can0 260#8882C80DB7E1B800
(1485778737.104135) can0 170#04000000D0000000
(1485778737.106531) can0 060#0000000000000000
(1485778737.108283) can0 030#8002A180A000B207
(1485778737.108529) can0 290#8600400100027702
(1485778737.109027) can0 190#8000800080008000
(1485778737.109298) can0 218#00008F003C7DC0D8
(1485778737.109554) can0 010#0B07000000008048
(1485778737.111407) can0 070#05A709F469F4F000
(1485778737.111673) can0 080#90007D00008000F7
(1485778737.111893) can0 090#0000C200620C0000
(1485778737.112151) can0 0A0#0000080000008000
(1485778737.112385) can0 0F8#000000000000104E
(1485778737.112652) can0 120#0000000000008000
(1485778737.112887) can0 130#50002000E0000000
(1485778737.113132) can0 138#007D84007800820D
(1485778737.113403) can0 0C8#DF873EF6E138C600
(1485778737.113656) can0 1A0#1F40000080000000
(1485778737.113903) can0 1B0#4100000000403000
(1485778737.114135) can0 200#F200B7BE0000C000
(1485778737.114383) can0 270#5E2F042100000000
(1485778737.114508) can0 280#C400008285254000
(1485778737.114791) can0 2D8#0444808000000000
(1485778737.115008) can0 2F0#30B00082005D9639
(1485778737.115633) can0 0A5#007EE97800956800
(1485778737.115771) can0 1B5#000001D66AD0FFFC
(1485778737.116023) can0 298#0000001BD82B0800
(1485778737.118510) can0 030#8002A180A000B207
(1485778737.119028) can0 160#55FF00005733E5FF
(1485778737.119297) can0 180#03000DF31805F000
(1485778737.119554) can0 190#8000800080008000
(1485778737.119774) can0 010#0CF7000000008048
(1485778737.120051) can0 1C0#77C0000080000000
(1485778737.120279) can0 1D0#A8FFFF0000000000
(1485778737.120510) can0 1E0#000000000000FC33
(1485778737.120775) can0 210#00000000F3990000
(1485778737.121010) can0 213#00F300000FFFCFFF
(1485778737.121257) can0 252#0000000FFF200040
(1485778737.121529) can0 060#0000000000000000
(1485778737.121769) can0 090#0000C200620C0000
(1485778737.121884) can0 0B0#00004381E68011C3
(1485778737.122133) can0 0C0#0020000040000000
(1485778737.122508) can0 140#00009C000003CA24
(1485778737.122633) can0 269#00000529AA85FF00
(1485778737.123259) can0 150#A08B500000000000
(1485778737.124047) can0 170#04000000D0000000
(1485778737.124281) can0 229#6000000000000000
(1485778737.124531) can0 2A0#0000000030000000
(1485778737.124796) can0 2A5#00000000100FF0FF
(1485778737.126386) can0 0A0#0000080000008000
(1485778737.128278) can0 030#8002A180A000B207
(1485778737.128545) can0 17E#C010004000200000
(1485778737.128654) can0 208#7F083AF66F80FF98
(1485778737.128903) can0 260#8882C80DB761B800
(1485778737.129153) can0 190#8000800080008000
(1485778737.129531) can0 010#0DE7000000008048
(1485778737.131404) can0 070#05A709F469F4F000
(1485778737.131652) can0 080#90007D00008000F7
(1485778737.131906) can0 090#0000C200620C0000
(1485778737.132178) can0 0F8#000000000000104E
(1485778737.132402) can0 120#0000000000008000
(1485778737.132510) can0 130#50002000E0000000
(1485778737.132782) can0 138#007D84007800820D
(1485778737.133039) can0 1A0#1F40000080000000
(1485778737.133401) can0 0C8#DF873AF2E138C600
(1485778737.133527) can0 310#D94430602D450074
(1485778737.135635) can0 0A5#007EE87800857800
(1485778737.136286) can0 060#0000000000000000
(1485778737.136545) can0 200#F200B7BE0000C000
(1485778737.138279) can0 030#8002A180A000B207
(1485778737.138548) can0 290#0600400100027702
(1485778737.139025) can0 160#55FF00005723EDFF
(1485778737.139297) can0 180#03000DF61804F000
(1485778737.139529) can0 190#8000800080008000
(1485778737.139767) can0 010#0ED7000000008048
(1485778737.140047) can0 1C0#77C0000080000000
(1485778737.140260) can0 1D0#A8FFFF0000000000
(1485778737.140508) can0 1E0#000000000000FD23
(1485778737.140757) can0 210#00000000F29B0000
(1485778737.140891) can0 213#00F200000FFFDFFF
(1485778737.141165) can0 218#00008F003C7DC0D8
(1485778737.141510) can0 090#0000C200620D0000
(1485778737.141650) can0 0A0#0000080000007FFF
(1485778737.141885) can0 0B0#00004381E68011C3
(1485778737.142133) can0 0C0#0020000040000000
(1485778737.142507) can0 140#00009C000004BA24
(1485778737.142632) can0 1B0#4100000000403000
(1485778737.142885) can0 252#0000000FFF200040
(1485778737.143132) can0 270#5E2F042100000000
(1485778737.143383) can0 150#A08B500000000000
(1485778737.143632) can0 280#C400008285254000
(1485778737.143883) can0 2D0#000001F07E905A85
(1485778737.144133) can0 2D4#00000000E5FEFFFE
(1485778737.144384) can0 170#04000000D0000000
(1485778737.145133) can0 455#0000000000000000
(1485778737.148133) can0 030#8002A180A000B207
(1485778737.148508) can0 405#2300000000000000
(1485778737.149030) can0 190#8000800080008000
(1485778737.149530) can0 010#0FC7000000008048
(1485778737.149780) can0 269#00000529AA85FF00
(1485778737.151403) can0 060#0000000000000000
(1485778737.151534) can0 070#05A709F369F3F000
(1485778737.151903) can0 080#90007D00007FFFF7
(1485778737.152028) can0 090#0000C200620D0000
(1485778737.152277) can0 0F8#000000000000104E
(1485778737.152529) can0 120#0000000000008000
(1485778737.152767) can0 130#50002000E0000000
(1485778737.153027) can0 138#007D84007800820D
(1485778737.153278) can0 0C8#DF873EF2E138C600
(1485778737.153530) can0 1A0#1F40000080000000
(1485778737.153761) can0 208#7F002AE60080FF18
(1485778737.154008) can0 260#8882C80DB761B800
(1485778737.155508) can0 0A5#007EE77800758800
(1485778737.155774) can0 1B5#000001D66AD0FFFC
(1485778737.156025) can0 298#0000001BD82B0800
(1485778737.156656) can0 0A0#0000080000007FFF
(1485778737.158528) can0 030#8003A180A000B207
(1485778737.159030) can0 160#55FF00005713F5FF
(1485778737.159298) can0 180#03000DF61804F000
(1485778737.159530) can0 190#8000800080008000
(1485778737.159778) can0 010#00B7000000008048
(1485778737.160047) can0 1C0#77C0000080000000
(1485778737.160297) can0 1D0#A8FFFF0000000000
(1485778737.160551) can0 1E0#000000000000FE13
(1485778737.160758) can0 210#00000000F19D0000
(1485778737.161008) can0 213#00F100000FFFEFFF
(1485778737.161134) can0 252#0000000FFF200040
(1485778737.161508) can0 090#0000C200620D0000
(1485778737.161633) can0 0B0#00004381E68011C3
(1485778737.161900) can0 0C0#0020000040000000
(1485778737.162146) can0 140#00009C000005AA24
(1485778737.162400) can0 200#F200B7BE0000C000
(1485778737.163275) can0 150#A08B500000000000
(1485778737.164153) can0 170#04000000D0000000
(1485778737.164422) can0 229#6000000000000000
(1485778737.164648) can0 2A0#0000000030000000
(1485778737.164886) can0 2A5#00000000100FF0FF
(1485778737.166405) can0 060#0000000000000000
(1485778737.168404) can0 030#8002A180A000B207
(1485778737.168648) can0 290#0600400100027702
(1485778737.169029) can0 190#8000800080008000
(1485778737.169297) can0 218#00008F003C7DC0D8
(1485778737.169553) can0 010#01A7000000008048
(1485778737.171294) can0 070#05A709F369F3F000
(1485778737.171530) can0 080#90007D00007FFFF7
(1485778737.171776) can0 090#0000C200620D0000
(1485778737.172027) can0 0A0#0000080000007FFF
(1485778737.172261) can0 0F8#000000000000104E
(1485778737.172523) can0 120#0000000000008000
(1485778737.172759) can0 130#50002000E0000000
(1485778737.173024) can0 138#007D84007800820D
(1485778737.173273) can0 0C8#DF873AF6E138C600
(1485778737.173524) can0 1A0#1F40000080000000
(1485778737.173773) can0 1B0#4100000000403000
(1485778737.174011) can0 270#5E2F042100000000
(1485778737.174258) can0 280#C400008285254000
(1485778737.174508) can0 2D8#0444808000000000
(1485778737.174757) can0 340#000000000300662F
(1485778737.175633) can0 0A5#007EE67800659800
(1485778737.178525) can0 030#8002A180A000B207
(1485778737.178649) can0 208#7F052AE60080FF18
(1485778737.178905) can0 260#8882C80DB7E1B800
(1485778737.179152) can0 160#55FF00005703FDFF
(1485778737.179531) can0 180#03000DF51802F000
(1485778737.179653) can0 010#0297000000008048
(1485778737.179903) can0 190#8000800080008000
(1485778737.180152) can0 1C0#77C0000080000000
(1485778737.180426) can0 1D0#A8FFFF0000000000
(1485778737.180647) can0 1E0#000000000000FF03
(1485778737.180897) can0 210#00000000F09F0000
(1485778737.181136) can0 213#00F000000FFFFFFF
(1485778737.181384) can0 060#0000000000000000
(1485778737.181633) can0 090#0000C200620D0000
(1485778737.181883) can0 0B0#00004381E68011C3
(1485778737.182133) can0 0C0#0020000040000000
(1485778737.182383) can0 140#00009C0000069A24
(1485778737.182633) can0 252#0000000FFF200040
(1485778737.182885) can0 269#000005295585FF00
(1485778737.183134) can0 2D0#000001EF7F905A85
(1485778737.183258) can0 150#A08B500000000000
(1485778737.184008) can0 170#04000000D0000000
(1485778737.186403) can0 0A0#0000080000007FFF
(1485778737.186522) can0 200#F200B7BF0000C000
(1485778737.188292) can0 030#800AE180E000B287
(1485778737.189029) can0 190#8000800080008000
(1485778737.189533) can0 010#038400000000804B
(1485778737.191281) can0 070#05A709F369F3F000
(1485778737.191529) can0 080#90007D00007FFFF7
(1485778737.191772) can0 090#0000C200620D0000
(1485778737.192028) can0 0F8#000000000000104E
(1485778737.192278) can0 120#0000000000008000
(1485778737.192528) can0 130#50002000E0000000
(1485778737.192778) can0 138#007D84007800820D
(1485778737.193011) can0 1A0#1F40000080000000
(1485778737.193258) can0 0C8#DF873EF2E138C600
(1485778737.193509) can0 40A#FF04101264000242
(1485778737.195633) can0 0A5#007EE5780055A800
(1485778737.195771) can0 1B5#000001D66AD0FFFC
(1485778737.196027) can0 298#0000001BD82B0800
(1485778737.196278) can0 060#0000000000000000
(1485778737.198528) can0 030#8002A180A000B207
(1485778737.198651) can0 290#8600400100027702
(1485778737.199028) can0 160#55FF000057F385FF
(1485778737.199297) can0 180#03000DF61803F000
(1485778737.199557) can0 190#8000800080008000
(1485778737.199779) can0 010#0477000000008048
(1485778737.200022) can0 1C0#77C0000080000000
(1485778737.200299) can0 1D0#A8FFFF0000000000
(1485778737.200547) can0 1E0#000000000000F0F3
(1485778737.200800) can0 210#00000000FF810000
(1485778737.201011) can0 213#00FF00000FFF0FFF
(1485778737.201259) can0 218#00008F003C7DC0D8
(1485778737.201508) can0 090#0000C200620D0000
(1485778737.201633) can0 0A0#0000080000007FFF
(1485778737.201884) can0 0B0#00004381E68011C3
(1485778737.202134) can0 0C0#0020000040000000
(1485778737.202508) can0 140#00009C0000078A24
(1485778737.202633) can0 1B0#4100000000403000
(1485778737.202886) can0 252#0000000FFF200040
(1485778737.203133) can0 270#5E2F042100000000
(1485778737.203384) can0 150#A08B500000000000
(1485778737.203633) can0 208#7F062AE60080FF18
(1485778737.203884) can0 260#8882C80DB761B800
(1485778737.204133) can0 280#C400008285254000
(1485778737.204383) can0 170#04000000D0000000
(1485778737.204634) can0 2D4#00000000E5FEFFFE
(1485778737.204883) can0 229#6000000000000000
(1485778737.205134) can0 2F0#30B00082005D9639
(1485778737.205384) can0 2A0#0000000030000000
(1485778737.205634) can0 2A5#00000000100FF0FF
(1485778737.208383) can0 030#8002A180A000B207
(1485778737.209008) can0 190#8000800080008000
(1485778737.209509) can0 010#0567000000008048
(1485778737.209779) can0 269#000005295585FF00
(1485778737.211401) can0 060#0000000000000000
(1485778737.211528) can0 070#05A709F369F3F000
(1485778737.211782) can0 080#90007D00007FFFF7
(1485778737.212022) can0 090#0000C200620D0000
(1485778737.212275) can0 0F8#000000000000104E
(1485778737.212528) can0 120#0000000000008000
(1485778737.212780) can0 130#50002000E0000000
(1485778737.213028) can0 138#007D84007800820D
(1485778737.213279) can0 1A0#1F40000080000000
(1485778737.213517) can0 0C8#DF873AF2E138C600
(1485778737.213761) can0 200#F200B7BF0000C000
(1485778737.215634) can0 0A5#007EE4780045B800
(1485778737.216261) can0 0A0#0000080000007FFF
(1485778737.218291) can0 030#8003A180A000B207
(1485778737.218548) can0 400#01450001003A0104
(1485778737.219028) can0 160#55FF000057E38DFF
(1485778737.219298) can0 180#03000DF71803F000
(1485778737.219552) can0 190#8000800080008000
(1485778737.219805) can0 010#0657000000008048
(1485778737.220046) can0 1C0#77C0000080000000
(1485778737.220299) can0 1D0#A8FFFF0000000000
(1485778737.220509) can0 1E0#000000000000F1E3
(1485778737.220759) can0 210#00000000FE830000
(1485778737.220884) can0 213#00FE00000FFF1FFF
(1485778737.221133) can0 252#0000000FFF200040
(1485778737.221509) can0 090#0000C200620D0000
(1485778737.221642) can0 0B0#00004381E68011C3
(1485778737.221886) can0 0C0#0020000040000000
(1485778737.222134) can0 140#00009C0000087A24
(1485778737.222385) can0 2D0#000001FE70905A85
(1485778737.223383) can0 150#A08B500000000000
(1485778737.223907) can0 170#04000000D0000000
(1485778737.226290) can0 060#0000000000000000
(1485778737.228154) can0 030#8002A180A000B207
(1485778737.228428) can0 17E#C010004000200000
(1485778737.228654) can0 260#8882C80DB7E1B800
(1485778737.228781) can0 208#7F083AF66F80FF98
(1485778737.229038) can0 190#8000800080008000
(1485778737.229271) can0 218#00008F003C7DC0D8
(1485778737.229533) can0 010#0747000000008048
(1485778737.229779) can0 290#0600400100027702
(1485778737.230028) can0 380#5394FCA96000C0A9
(1485778737.230280) can0 3B4#401111FF00000000
(1485778737.230529) can0 435#B237B9D276EFB3C4
(1485778737.231384) can0 070#05A709F369F3F000
(1485778737.231508) can0 080#90007D00007FFFF7
(1485778737.231759) can0 090#0000C200620D0000
(1485778737.232010) can0 0A0#0000080000007FFF
(1485778737.232260) can0 0F8#000000000000104E
(1485778737.232634) can0 120#0000000000008000
(1485778737.232758) can0 130#50002000E0000000
