(1485778720.687463) can0 0B0#00004381E68013C3
(1485778720.687713) can0 0A0#0000080000007FFE
(1485778720.687962) can0 140#00009C00000D2A24
(1485778720.688211) can0 200#F200B7220000C000
(1485778720.688338) can0 030#8002A180A000B207
(1485778720.688836) can0 170#04000000D0000000
(1485778720.689087) can0 229#6000000000000000
(1485778720.689336) can0 2A0#0000000030000000
(1485778720.689587) can0 010#01A400000000804B
(1485778720.689837) can0 190#8000800080008000
(1485778720.690087) can0 2A5#00000000100FF0FF
(1485778720.692713) can0 070#05A709F369F3F000
(1485778720.692963) can0 080#90007D00007FFEF7
(1485778720.693216) can0 090#0000C1FF620E0000
(1485778720.693342) can0 0C8#DF873AF2E138C600
(1485778720.693593) can0 0F8#000000000000104D
(1485778720.693843) can0 120#0000000000008000
(1485778720.694090) can0 130#50002000E0000000
(1485778720.694341) can0 138#007D84007800820D
(1485778720.694587) can0 1A0#1F40000080000000
(1485778720.694842) can0 40A#C101474343354645
(1485778720.697716) can0 060#0000000000000000
(1485778720.698338) can0 030#800AE1A0E000B287
(1485778720.698461) can0 290#8600400100027702
(1485778720.699336) can0 269#00000529AA85FF00
(1485778720.699462) can0 010#029400000000804B
(1485778720.699710) can0 160#55FF00005783BDFD
(1485778720.699960) can0 180#03000DF61805F000
(1485778720.700334) can0 190#8000800080008000
(1485778720.700461) can0 1C0#77C0000080000000
(1485778720.700710) can0 1D0#A8FFFF0000000000
(1485778720.700958) can0 1E0#000000000000F783
(1485778720.701334) can0 210#00000000F88F0000
(1485778720.701459) can0 213#00F800000FFF7FFF
(1485778720.701709) can0 218#00008F003C7DC0D8
(1485778720.701960) can0 252#0000000FFF200040
(1485778720.702210) can0 2D0#000001FB73905A85
(1485778720.702460) can0 2D4#00000000E5FEFFFE
(1485778720.702708) can0 090#0000C1FF620E0000
(1485778720.702959) can0 0A0#0000080000007FFE
(1485778720.703209) can0 0C0#0020000040000000
(1485778720.703460) can0 150#A096500000000000
(1485778720.703709) can0 1B0#4100000000403000
(1485778720.703960) can0 260#8882BE0DB661B800
(1485778720.704210) can0 270#5E2F042100000000
(1485778720.704458) can0 0A5#007EEA7800A55800
(1485778720.704585) can0 280#C400008385254000
(1485778720.706335) can0 208#7F082AE60080FF18
(1485778720.707334) can0 0B0#00004381E68013C3
(1485778720.707585) can0 140#00009C00000E1A24
(1485778720.708459) can0 030#8002A180A000B207
(1485778720.708836) can0 170#04000000D0000000
(1485778720.709461) can0 010#038400000000804B
(1485778720.709711) can0 190#8000800080008000
(1485778720.712710) can0 060#0000000000000000
(1485778720.712959) can0 070#05A709F369F3F000
(1485778720.713210) can0 080#90007D00007FFEF7
(1485778720.713461) can0 090#0000C1FF620E0000
(1485778720.713709) can0 0C8#DF873EF2E138C600
(1485778720.713835) can0 0F8#000000000000104D
(1485778720.714209) can0 120#0000000000008000
(1485778720.714460) can0 130#50002000E0000000
(1485778720.714586) can0 138#007D84007800820D
(1485778720.714833) can0 1A0#1F40000080000000
(1485778720.715085) can0 200#F200B7220000C000
(1485778720.717709) can0 0A0#0000080000007FFE
(1485778720.718460) can0 030#8003A180A000B207
(1485778720.718710) can0 400#070701050B010000
(1485778720.719459) can0 010#047400000000804B
(1485778720.719710) can0 160#55FF00005773C5FD
(1485778720.719959) can0 180#03000DF41805F000
(1485778720.720336) can0 190#8000800080008000
(1485778720.720460) can0 1C0#77C0000080000000
(1485778720.720710) can0 1D0#A8FFFF0000000000
(1485778720.720959) can0 1E0#000000000000F873
(1485778720.721355) can0 210#00000000F7910000
(1485778720.721472) can0 213#00F700000FFF8FFF
(1485778720.721728) can0 252#0000000FFF200040
(1485778720.722712) can0 090#0000C20062100000
(1485778720.722975) can0 0C0#0020000040000000
(1485778720.723358) can0 150#A096500000000000
(1485778720.724370) can0 0A5#007EE97800956800
(1485778720.724465) can0 1B5#000001D66AD0FFFC
(1485778720.724731) can0 298#0000001BD82B0800
(1485778720.727482) can0 0B0#00004381E68013C3
(1485778720.727640) can0 140#00009C00000F0A24
(1485778720.728012) can0 060#0000000000000000
(1485778720.728393) can0 030#8002A180A000B207
(1485778720.728630) can0 17E#C010004000200000
(1485778720.728847) can0 260#8882BE0DB6E1B800
(1485778720.729097) can0 170#04000000D0000000
(1485778720.729346) can0 290#0600400100027702
(1485778720.729597) can0 010#056400000000804B
(1485778720.729840) can0 190#8000800080008000
(1485778720.730089) can0 218#00008F003C7DC0D8
(1485778720.730338) can0 229#6000000000000000
(1485778720.730471) can0 269#00000529AA85FF00
(1485778720.730713) can0 2A0#0000000030000000
(1485778720.730962) can0 380#10937CA96000C0A9
(1485778720.731338) can0 2A5#00000000100FF0FF
(1485778720.731534) can0 208#7F022AE60080FF18
(1485778720.731715) can0 3B4#401111FF00000000
(1485778720.731963) can0 435#B232B9D276EFB3C4
(1485778720.732713) can0 070#05A709F369F3F000
(1485778720.732984) can0 080#90007D00007FFDF7
(1485778720.733227) can0 090#0000C20062100000
(1485778720.733479) can0 0A0#0000080000007FFD
(1485778720.733716) can0 0C8#DF873AF6E138C600
(1485778720.733964) can0 0F8#000000000000104D
(1485778720.734213) can0 120#0000000000008000
(1485778720.734463) can0 130#50002000E0000000
(1485778720.734716) can0 138#007D84007800820D
(1485778720.734838) can0 1A0#1F40000080000000
(1485778720.735088) can0 1B0#4100000000403000
(1485778720.735338) can0 270#5E2F042100000000
(1485778720.735588) can0 280#C400008385254000
(1485778720.735838) can0 2D8#0444808000000000
(1485778720.736088) can0 2F0#30B00083005C9638
(1485778720.736339) can0 310#D94430602D450074
(1485778720.736590) can0 340#000000000300662F
(1485778720.736838) can0 360#C0C03F003C7DB8B7
(1485778720.738089) can0 200#F200B7220000C000
(1485778720.738463) can0 030#8002A180A000B207
(1485778720.739463) can0 010#065400000000804B
(1485778720.739780) can0 160#55FF00005763CDFD
(1485778720.740015) can0 180#03000DF51804F000
(1485778720.740389) can0 190#8000800080008000
(1485778720.740463) can0 1C0#77C0000080000000
(1485778720.740733) can0 1D0#A8FFFF0000000000
(1485778720.740978) can0 1E0#000000000000F963
(1485778720.741378) can0 210#00000000F6930000
(1485778720.741476) can0 213#00F600000FFF9FFF
(1485778720.741751) can0 252#0000000FFF200040
(1485778720.741986) can0 2D0#000001FA74905A85
(1485778720.742716) can0 060#0000000000000000
(1485778720.742987) can0 090#0000C20062100000
(1485778720.743235) can0 0C0#0020000040000000
(1485778720.743466) can0 150#A096500000000000
(1485778720.744338) can0 0A5#007EE87800857800
(1485778720.745358) can0 455#0000000000000000
(1485778720.747373) can0 0B0#00004381E68013C3
(1485778720.747610) can0 140#00009C000000FA24
(1485778720.747858) can0 0A0#0000080000007FFD
(1485778720.748377) can0 030#8002A180A000B207
(1485778720.748873) can0 170#04000000D0000000
(1485778720.749485) can0 010#074400000000804B
(1485778720.749733) can0 190#8000800080008000
(1485778720.752734) can0 070#05A709F369F3F000
(1485778720.753017) can0 080#90007D00007FFDF7
(1485778720.753261) can0 090#0000C20062100000
(1485778720.753477) can0 0C8#DF873EF2E138C600
(1485778720.753606) can0 0F8#000000000000104D
(1485778720.753976) can0 120#0000000000008000
(1485778720.754101) can0 130#50002000E0000000
(1485778720.754360) can0 138#007D84007800820D
(1485778720.754612) can0 1A0#1F40000080000000
(1485778720.754855) can0 260#8882BE0DB561B800
(1485778720.756486) can0 208#7F082AE60080FF18
(1485778720.757734) can0 060#0000000000000000
(1485778720.758358) can0 030#8002A180A000B207
(1485778720.758628) can0 290#8600400100027702
(1485778720.759359) can0 269#000005295585FF00
(1485778720.759607) can0 010#083400000000804B
(1485778720.759728) can0 160#55FF00005753D5FD
(1485778720.759977) can0 180#03000DF61802F000
(1485778720.760359) can0 190#8000800080008000
(1485778720.760476) can0 1C0#77C0000080000000
(1485778720.760727) can0 1D0#A8FFFF0000000000
(1485778720.760983) can0 1E0#000000000000FA53
(1485778720.761359) can0 210#00000000F5950000
(1485778720.761477) can0 213#00F500000FFFAFFF
(1485778720.761734) can0 218#00008F003C7DC0D8
(1485778720.761966) can0 252#0000000FFF200040
(1485778720.762213) can0 2D4#00000000E5FEFFFE
(1485778720.762713) can0 090#0000C200620F0000
(1485778720.762986) can0 0A0#0000080000007FFD
(1485778720.763216) can0 0C0#0020000040000000
(1485778720.763464) can0 150#A096500000000000
(1485778720.763713) can0 1B0#4100000000403000
(1485778720.763971) can0 200#F200B7220000C000
(1485778720.764214) can0 270#5E2F042100000000
(1485778720.764463) can0 0A5#007EE77800758800
(1485778720.764589) can0 1B5#000001D66AD0FFFC
(1485778720.764840) can0 280#C400008385254000
(1485778720.765088) can0 298#0000001BD82B0800
(1485778720.767340) can0 0B0#00004381E68013C3
(1485778720.767605) can0 140#00009C000001EA24
(1485778720.768234) can0 030#8002A180A000B207
(1485778720.768622) can0 170#04000000D0000000
(1485778720.768981) can0 229#6000000000000000
(1485778720.769253) can0 2A0#0000000030000000
(1485778720.769502) can0 2A5#00000000100FF0FF
(1485778720.769752) can0 010#092400000000804B
(1485778720.769977) can0 190#8000800080008000
(1485778720.772733) can0 060#0000000000000000
(1485778720.772984) can0 070#05A709F369F3F000
(1485778720.773252) can0 080#90007D00007FFDF7
(1485778720.773466) can0 090#0000C200620F0000
(1485778720.773596) can0 0C8#DF873AF2E138C600
(1485778720.773839) can0 0F8#000000000000104D
(1485778720.774101) can0 120#0000000000008000
(1485778720.774370) can0 130#50002000E0000000
(1485778720.774609) can0 138#007D84007800820D
(1485778720.774840) can0 1A0#1F40000080000000
(1485778720.777591) can0 0A0#0000080000007FFD
(1485778720.778357) can0 030#8003A180A000B207
(1485778720.778487) can0 260#8882BE0DB6E1B800
(1485778720.779484) can0 010#0A1400000000804B
(1485778720.779733) can0 160#55FF00005743DDFD
(1485778720.779972) can0 180#03000DF51805F000
(1485778720.780358) can0 190#8000800080008000
(1485778720.780485) can0 1C0#77C0000080000000
(1485778720.780733) can0 1D0#A8FFFF0000000000
(1485778720.780982) can0 1E0#000000000000FB43
(1485778720.781254) can0 210#00000000F4970000
(1485778720.781485) can0 213#00F400000FFFBFFF
(1485778720.781756) can0 252#0000000FFF200040
(1485778720.781976) can0 208#7F083AF66F80FF98
(1485778720.782210) can0 2D0#000001F975905A85
(1485778720.782719) can0 090#0000C200620F0000
(1485778720.782964) can0 0C0#0020000040000000
(1485778720.783340) can0 150#A096500000000000
(1485778720.784339) can0 0A5#007EE67800659800
(1485778720.787354) can0 0B0#00004381E68013C3
(1485778720.787608) can0 140#00009C000002DA24
(1485778720.787864) can0 060#0000000000000000
(1485778720.788117) can0 200#F200B7220000C000
(1485778720.788384) can0 030#800AE180E000B287
(1485778720.788609) can0 290#0600C00100027702
(1485778720.788859) can0 170#04000000D0000000
(1485778720.789341) can0 269#000005295585FF00
(1485778720.789590) can0 010#0B0400000000804B
(1485778720.789838) can0 190#8000800080008000
(1485778720.790128) can0 218#00008F003C7DC0D8
(1485778720.792732) can0 070#05A709F369F3F000
(1485778720.792984) can0 080#90007D00007FFDF7
(1485778720.793256) can0 090#0000C200620F0000
(1485778720.793485) can0 0A0#0000080000007FFD
(1485778720.793604) can0 0C8#DF873EF6E138C600
(1485778720.793855) can0 0F8#000000000000104D
(1485778720.794235) can0 120#0000000000008000
(1485778720.794355) can0 130#50002000E0000000
(1485778720.794610) can0 138#007D84007800820D
(1485778720.794858) can0 1A0#1F40000080000000
(1485778720.795110) can0 1B0#4100000000403000
(1485778720.795357) can0 270#5E2F042100000000
(1485778720.795593) can0 280#C400008385254000
(1485778720.795849) can0 2D8#0444808000000000
(1485778720.798463) can0 030#8002A180A000B207
(1485778720.799484) can0 010#0CF400000000804B
(1485778720.799730) can0 160#55FF00005733E5FD
(1485778720.799976) can0 180#03000DF51804F000
(1485778720.800358) can0 190#8000800080008000
(1485778720.800486) can0 1C0#77C0000080000000
(1485778720.800734) can0 1D0#A8FFFF0000000000
(1485778720.800983) can0 1E0#000000000000FC33
(1485778720.801359) can0 210#00000000F3990000
(1485778720.801486) can0 213#00F300000FFFCFFF
(1485778720.801731) can0 252#0000000FFF200040
(1485778720.802748) can0 060#0000000000000000
(1485778720.802990) can0 090#0000C1FF620D0000
(1485778720.803359) can0 0C0#0020000040000000
(1485778720.803485) can0 150#A096700000000000
(1485778720.803730) can0 260#8882BE0DB561B800
(1485778720.804358) can0 0A5#007EE5780055A800
(1485778720.804485) can0 1B5#000001D66AD0FFFC
(1485778720.804735) can0 298#0000001BD82B0800
(1485778720.806610) can0 208#7F092AE60080FF18
(1485778720.807357) can0 0B0#00004381E68013C3
(1485778720.807608) can0 140#00009C000003CA24
(1485778720.807851) can0 0A0#0000080000007FFD
(1485778720.808374) can0 030#8002A180A000B207
(1485778720.808735) can0 170#04000000D0000000
(1485778720.809009) can0 229#6000000000000000
(1485778720.809236) can0 2A0#0000000030000000
(1485778720.809510) can0 2A5#00000000100FF0FF
(1485778720.809733) can0 010#0DE400000000804B
(1485778720.809964) can0 190#8000800080008000
(1485778720.812714) can0 070#05A709F369F3F000
(1485778720.813005) can0 080#90007D00007FFEF7
(1485778720.813116) can0 090#0000C1FF620D0000
(1485778720.813358) can0 0C8#DF873AF2E138C600
(1485778720.813620) can0 0F8#000000000000104D
(1485778720.813851) can0 120#0000000000008000
(1485778720.814109) can0 130#50002000E0000000
(1485778720.814361) can0 138#007D84007800820D
(1485778720.814599) can0 1A0#1F40000080000000
(1485778720.814859) can0 200#F200B7230000C000
(1485778720.817726) can0 060#0000000000000000
(1485778720.818355) can0 030#8002A180A000B207
(1485778720.818621) can0 290#0600400100027702
(1485778720.818866) can0 40A#C102333133373000
(1485778720.819356) can0 269#000005295585FF00
(1485778720.819609) can0 010#0ED400000000804B
(1485778720.819886) can0 160#55FF00005723EDFD
(1485778720.820112) can0 180#03000DF61805F000
(1485778720.820382) can0 190#8000800080008000
(1485778720.820590) can0 1C0#77C0000080000000
(1485778720.820838) can0 1D0#A8FFFF0000000000
(1485778720.821088) can0 1E0#000000000000FD23
(1485778720.821339) can0 210#00000000F29B0000
(1485778720.821589) can0 213#00F200000FFFDFFF
(1485778720.821721) can0 218#00008F003C7DC0D8
(1485778720.821964) can0 252#0000000FFF200040
(1485778720.822338) can0 2D0#000001F876905A85
(1485778720.822464) can0 2D4#00000000E5FEFFFE
(1485778720.822714) can0 090#0000C1FF620D0000
(1485778720.822964) can0 0A0#0000080000007FFE
(1485778720.823340) can0 0C0#0020000040000000
(1485778720.823463) can0 150#A096500000000000
(1485778720.823714) can0 1B0#4100000000403000
(1485778720.823964) can0 270#5E2F042100000000
(1485778720.824214) can0 280#C400008385254000
(1485778720.824464) can0 0A5#007EE4780045B800
(1485778720.824713) can0 2F0#30B00083005C9638
(1485778720.827339) can0 0B0#00004381E68013C3
(1485778720.827610) can0 140#00009C000004BA24
(1485778720.828361) can0 030#8002A180A000B207
(1485778720.828605) can0 17E#C010004000278000
(1485778720.828859) can0 170#04000000D0000000
(1485778720.829101) can0 260#8882BE0DB661B800
(1485778720.829479) can0 010#0FC400000000804B
(1485778720.829737) can0 190#8000800080008000
(1485778720.831734) can0 208#7F062AE60080FF18
(1485778720.832980) can0 060#0000000000000000
(1485778720.833256) can0 070#05A709F369F3F000
(1485778720.833510) can0 080#90007D00007FFEF7
(1485778720.833756) can0 090#0000C20062100000
(1485778720.834005) can0 0C8#DF873EF2E138C600
(1485778720.834260) can0 0F8#000000000000104D
(1485778720.834465) can0 120#0000000000008000
(1485778720.834714) can0 130#50002000E0000000
(1485778720.834964) can0 138#007D84007800820D
(1485778720.835214) can0 1A0#1F40000080000000
(1485778720.835348) can0 310#DB4430602D450074
(1485778720.837623) can0 0A0#0000080000007FFE
(1485778720.837859) can0 200#F200B7230000C000
(1485778720.838367) can0 030#8003A180A000B207
(1485778720.839488) can0 010#00B400000000804B
(1485778720.839734) can0 160#55FF00005713F5FD
(1485778720.839977) can0 180#03000DF31805F000
(1485778720.840360) can0 190#8000800080008000
(1485778720.840486) can0 1C0#77C0000080000000
(1485778720.840733) can0 1D0#A8FFFF0000000000
(1485778720.840985) can0 1E0#000000000000FE13
(1485778720.841357) can0 210#00000000F19D0000
(1485778720.841483) can0 213#00F100000FFFEFFF
(1485778720.841717) can0 252#0000000FFF200040
(1485778720.842715) can0 090#0000C20062100000
(1485778720.842983) can0 0C0#0020000040000000
(1485778720.843359) can0 581#8100FFFFFFFFFFFF
(1485778720.843488) can0 150#A096500000000000
(1485778720.844359) can0 0A5#007EE3780035C800
(1485778720.844487) can0 1B5#000001D66AD0FFFC
(1485778720.844757) can0 298#0000001BD82B0800
(1485778720.845735) can0 3DA#0000000000000000
(1485778720.845977) can0 3E2#0000000000000000
(1485778720.846362) can0 3EA#0000000000006000
(1485778720.846607) can0 455#0000000000000000
(1485778720.847356) can0 0B0#00004381E68013C3
(1485778720.847609) can0 140#00009C000005AA24
(1485778720.847861) can0 060#0000000000000000
(1485778720.848342) can0 030#8002A180A000B207
(1485778720.848474) can0 290#8600400100027702
(1485778720.848841) can0 170#04000000D0000000
(1485778720.849107) can0 229#6000000000000000
(1485778720.849346) can0 2A0#0000000030000000
(1485778720.849592) can0 010#01A400000000804B
(1485778720.849839) can0 190#8000800080008000
(1485778720.850090) can0 218#00008F003C7DC0D8
(1485778720.850339) can0 269#00000529AA85FF00
(1485778720.850589) can0 2A5#00000000100FF0FF
(1485778720.852716) can0 070#05A709F369F3F000
(1485778720.852967) can0 080#90007D00007FFDF7
(1485778720.853214) can0 090#0000C20062100000
(1485778720.853464) can0 0A0#0000080000007FFC
(1485778720.853599) can0 0C8#DF873AF6E138C600
(1485778720.853859) can0 0F8#000000000000104D
(1485778720.854117) can0 120#0000000000008000
(1485778720.854363) can0 130#50002000E0000000
(1485778720.854613) can0 138#007D84007800820D
(1485778720.854842) can0 1A0#1F40000080000000
(1485778720.855089) can0 1B0#4100000000403000
(1485778720.855340) can0 260#8882BE0DB5E1B800
(1485778720.855589) can0 270#5E2F042100000000
(1485778720.855839) can0 280#C400008385254000
(1485778720.856089) can0 2D8#0444808000000000
(1485778720.856339) can0 340#000000000300662F
(1485778720.856714) can0 208#7F062AE60080FF18
(1485778720.858340) can0 030#8002A180A000B207
(1485778720.859464) can0 010#029400000000804B
(1485778720.859736) can0 160#55FF00005703FDFD
(1485778720.859988) can0 180#03000DF51804F000
(1485778720.860353) can0 190#8000800080008000
(1485778720.860481) can0 1C0#77C0000080000000
(1485778720.860734) can0 1D0#A8FFFF0000000000
(1485778720.860985) can0 1E0#000000000000FF03
(1485778720.861358) can0 210#00000000F09F0000
(1485778720.861484) can0 213#00F000000FFFFFFF
(1485778720.861717) can0 252#0000000FFF200040
(1485778720.861965) can0 2D0#000001F777905A85
(1485778720.862714) can0 060#0000000000000000
(1485778720.862986) can0 090#0000C20062100000
(1485778720.863256) can0 0C0#0020000040000000
(1485778720.863478) can0 150#A096500000000000
(1485778720.863753) can0 200#F200B7230000C000
(1485778720.864357) can0 0A5#007EE2780025D800
(1485778720.867350) can0 0B0#00004381E68013C3
(1485778720.867610) can0 140#00009C0000069A24
(1485778720.867885) can0 0A0#0000080000007FFC
(1485778720.868092) can0 030#800AE180E000B287
(1485778720.868843) can0 170#04000000D0000000
(1485778720.869483) can0 010#038400000000804B
(1485778720.869733) can0 190#8000800080008000
(1485778720.872736) can0 070#05A709F369F3F000
(1485778720.872984) can0 080#90007D00007FFDF7
(1485778720.873251) can0 090#0000C200620F0000
(1485778720.873361) can0 0C8#DF873EF2E138C600
(1485778720.873598) can0 0F8#000000000000104D
(1485778720.873875) can0 120#0000000000008000
(1485778720.874235) can0 130#50002000E0000000
(1485778720.874364) can0 138#007D84007800820D
(1485778720.874609) can0 1A0#1F40000080000000
(1485778720.877735) can0 060#0000000000000000
(1485778720.878253) can0 030#8002A180A000B207
(1485778720.878486) can0 260#8882BE0DB561B800
(1485778720.878751) can0 290#0600400100027702
(1485778720.879359) can0 269#00000529AA85FF00
(1485778720.879601) can0 010#047400000000804B
(1485778720.879854) can0 160#55FF000057F385FD
(1485778720.880103) can0 180#03000DF61803F000
(1485778720.880355) can0 190#8000800080008000
(1485778720.880592) can0 1C0#77C0000080000000
(1485778720.880840) can0 1D0#A8FFFF0000000000
(1485778720.881113) can0 1E0#000000000000F0F3
(1485778720.881355) can0 210#00000000FF810000
(1485778720.881604) can0 213#00FF00000FFF0FFF
(1485778720.881861) can0 218#00008F003C7DC0D8
(1485778720.882092) can0 208#7F053AF66F80FF98
(1485778720.882339) can0 252#0000000FFF200040
(1485778720.882474) can0 2D4#00000000E5FEFFFE
(1485778720.882714) can0 090#0000C200620F0000
(1485778720.882964) can0 0A0#0000080000007FFD
(1485778720.883340) can0 0C0#0020000040000000
(1485778720.883464) can0 150#A096500000000000
(1485778720.883715) can0 1B0#4100000000403000
(1485778720.883965) can0 270#5E2F042100000000
(1485778720.884215) can0 280#C400008385254000
(1485778720.884465) can0 0A5#007EE1780015E800
(1485778720.884715) can0 1B5#000001D66AD0FFFC
(1485778720.884965) can0 298#0000001BD82B0800
(1485778720.885214) can0 360#C0C03F003C7DB8B7
(1485778720.887342) can0 0B0#00004381E68013C3
(1485778720.887589) can0 140#00009C0000078A24
(1485778720.887840) can0 200#F200B7230000C000
(1485778720.888216) can0 030#8002A180A000B207
(1485778720.888589) can0 170#04000000D0000000
(1485778720.888985) can0 229#6000000000000000
(1485778720.889253) can0 2A0#0000000030000000
(1485778720.889510) can0 2A5#00000000100FF0FF
(1485778720.889735) can0 010#056400000000804B
(1485778720.890005) can0 190#8000800080008000
(1485778720.892733) can0 060#0000000000000000
(1485778720.892985) can0 070#05A709F369F3F000
(1485778720.893235) can0 080#90007D00007FFDF7
(1485778720.893467) can0 090#0000C200620F0000
(1485778720.893590) can0 0C8#DF873AF2E138C600
(1485778720.893839) can0 0F8#000000000000104D
(1485778720.894116) can0 120#0000000000008000
(1485778720.894363) can0 130#50002000E0000000
(1485778720.894608) can0 138#007D84007800820D
(1485778720.894873) can0 1A0#1F40000080000000
(1485778720.897615) can0 0A0#0000080000007FFD
(1485778720.898478) can0 030#8003A180A000B207
(1485778720.898734) can0 405#2600000000000000
(1485778720.899478) can0 010#065400000000804B
(1485778720.899732) can0 160#55FF000057E38DFD
(1485778720.899985) can0 180#03000DF41804F000
(1485778720.900360) can0 190#8000800080008000
(1485778720.900484) can0 1C0#77C0000080000000
(1485778720.900726) can0 1D0#A8FFFF0000000000
(1485778720.900989) can0 1E0#000000000000F1E3
(1485778720.901245) can0 210#00000000FE830000
(1485778720.901506) can0 213#00FE00000FFF1FFF
(1485778720.901717) can0 252#0000000FFF200040
(1485778720.901964) can0 2D0#000001F678905A85
(1485778720.902714) can0 090#0000C200620F0000
(1485778720.903005) can0 0C0#0020000040000000
(1485778720.903236) can0 150#A096500000000000
(1485778720.903508) can0 260#8882BE0DB5E1B800
(1485778720.905342) can0 0A5#007EE0780005F800
(1485778720.906861) can0 208#7F052AE60080FF18
(1485778720.907364) can0 0B0#00004381E68013C3
(1485778720.907630) can0 140#00009C0000087A24
(1485778720.907860) can0 060#0000000000000000
(1485778720.908357) can0 030#8002A180A000B207
(1485778720.908487) can0 290#0600400100027702
(1485778720.908852) can0 170#04000000D0000000
(1485778720.909483) can0 010#074400000000804B
(1485778720.909729) can0 269#00000529AA85FF00
(1485778720.909975) can0 190#8000800080008000
(1485778720.910105) can0 218#00008F003C7DC0D8
(1485778720.912727) can0 070#05A709F369F3F000
(1485778720.912977) can0 080#90007D00007FFEF7
(1485778720.913231) can0 090#0000C1FF620D0000
(1485778720.913486) can0 0A0#0000080000007FFF
(1485778720.913725) can0 0C8#DF873EF6E138C600
(1485778720.913979) can0 0F8#000000000000104D
(1485778720.914231) can0 120#0000000000008000
(1485778720.914480) can0 130#50002000E0000000
(1485778720.914592) can0 138#007D84007800820D
(1485778720.914965) can0 1A0#1F40000080000000
(1485778720.915090) can0 1B0#4100000000403000
(1485778720.915341) can0 200#F200B7240000C000
(1485778720.915590) can0 270#5E2F042100000000
(1485778720.915840) can0 280#C400008385254000
(1485778720.916091) can0 2D8#0444808000000000
(1485778720.916340) can0 2F0#30B00083005C9638
(1485778720.918465) can0 030#8002A180A000B207
(1485778720.919486) can0 010#083400000000804B
(1485778720.919727) can0 160#55FF000057D395FD
(1485778720.919981) can0 180#03000DF51804F000
(1485778720.920359) can0 190#8000800080008000
(1485778720.920482) can0 1C0#77C0000080000000
(1485778720.920735) can0 1D0#A8FFFF0000000000
(1485778720.920985) can0 1E0#000000000000F2D3
(1485778720.921360) can0 210#00000000FD850000
(1485778720.921482) can0 213#00FD00000FFF2FFF
(1485778720.921760) can0 252#0000000FFF200040
(1485778720.922716) can0 060#0000000000000000
(1485778720.922987) can0 090#0000C1FF620D0000
(1485778720.923252) can0 0C0#0020000040000000
(1485778720.923469) can0 150#A096500000000000
(1485778720.925216) can0 0A5#007EEF7800F50800
(1485778720.925485) can0 1B5#000001D66AD0FFFC
(1485778720.925730) can0 298#0000001BD82B0800
(1485778720.927367) can0 0B0#00004381E68013C3
(1485778720.927599) can0 140#00009C0000096A24
(1485778720.927978) can0 0A0#0000080000007FFF
(1485778720.928361) can0 030#8002A180A000B207
(1485778720.928614) can0 17E#C010004000200000
(1485778720.928720) can0 260#8882BE0DB561B800
(1485778720.928998) can0 170#04000000D0000000
(1485778720.929359) can0 229#6000000000000000
(1485778720.929488) can0 010#092400000000804B
(1485778720.929717) can0 190#8000800080008000
(1485778720.929965) can0 2A0#0000000030000000
(1485778720.930340) can0 2A5#00000000100FF0FF
(1485778720.932091) can0 208#7F072AE60080FF18
(1485778720.932735) can0 070#05A709F369F3F000
(1485778720.933005) can0 080#90007D00007FFEF7
(1485778720.933261) can0 090#0000C1FF620D0000
(1485778720.933342) can0 0C8#DF873AF2E138C600
(1485778720.933606) can0 0F8#000000000000104D
(1485778720.933861) can0 120#0000000000008000
(1485778720.934111) can0 130#50002000E0000000
(1485778720.934341) can0 138#007D84007800820D
(1485778720.934590) can0 1A0#1F40000080000000
(1485778720.934838) can0 310#D94430602D450074
(1485778720.937715) can0 060#0000000000000000
(1485778720.937848) can0 200#F200B7240000C000
(1485778720.938488) can0 030#800AE180E000B287
(1485778720.938754) can0 290#8600400100027702
(1485778720.939355) can0 269#00000529AA85FF00
(1485778720.939615) can0 010#0A1400000000804B
(1485778720.939860) can0 160#55FF000057C39DFD
(1485778720.940109) can0 180#03000DF51803F000
(1485778720.940360) can0 190#8000800080008000
(1485778720.940613) can0 1C0#77C0000080000000
(1485778720.940843) can0 1D0#A8FFFF0000000000
(1485778720.941090) can0 1E0#000000000000F3C3
(1485778720.941340) can0 210#00000000FC870000
(1485778720.941590) can0 213#00FC00000FFF3FFF
(1485778720.941840) can0 218#00008F003C7DC0D8
(1485778720.942090) can0 252#0000000FFF200040
(1485778720.942340) can0 2D0#000001F579905A85
(1485778720.942591) can0 2D4#00000000E5FEFFFE
(1485778720.942843) can0 090#0000C1FF620D0000
(1485778720.943091) can0 0A0#0000080000007FFF
(1485778720.943340) can0 0C0#0020000040000000
(1485778720.943590) can0 150#A096500000000000
(1485778720.943839) can0 1B0#4100000000403000
(1485778720.943965) can0 270#5E2F042100000000
(1485778720.944341) can0 280#C400008385254000
(1485778720.944465) can0 40A#C103108022898887
(1485778720.945215) can0 0A5#007EEE7800E51800
(1485778720.945466) can0 455#0000000000000000
(1485778720.947340) can0 0B0#00004381E68013C3
(1485778720.947632) can0 140#00009C00000A5A24
(1485778720.948234) can0 030#8002A180A000B207
(1485778720.948735) can0 170#04000000D0000000
(1485778720.949490) can0 010#0B0400000000804B
(1485778720.949736) can0 190#8000800080008000
(1485778720.952734) can0 060#0000000000000000
(1485778720.952984) can0 070#05A709F369F3F000
(1485778720.953262) can0 080#90007D00007FFEF7
(1485778720.953487) can0 090#0000C200620F0000
(1485778720.953615) can0 0C8#DF873EF2E138C600
(1485778720.953863) can0 0F8#000000000000104D
(1485778720.954120) can0 120#0000000000008000
(1485778720.954360) can0 130#50002000E0000000
(1485778720.954609) can0 138#007D84007800820D
(1485778720.954860) can0 1A0#1F40000080000000
(1485778720.955109) can0 260#8882BE0DB561B800
(1485778720.956999) can0 208#7F072AE60080FF18
(1485778720.957626) can0 0A0#0000080000007FFF
(1485778720.958343) can0 030#8003A180A000B207
(1485778720.959490) can0 010#0CF400000000804B
(1485778720.959735) can0 160#55FF000057B3A5FD
(1485778720.959985) can0 180#03000DF51804F000
(1485778720.960342) can0 190#8000800080008000
(1485778720.960465) can0 1C0#77C0000080000000
(1485778720.960715) can0 1D0#A8FFFF0000000000
(1485778720.960966) can0 1E0#000000000000F4B3
(1485778720.961215) can0 210#00000000FB890000
(1485778720.961465) can0 213#00FB00000FFF4FFF
(1485778720.961716) can0 252#0000000FFF200040
(1485778720.962716) can0 090#0000C200620F0000
(1485778720.962986) can0 0C0#0020000040000000
(1485778720.963224) can0 200#F200B7240000C000
(1485778720.963483) can0 150#A096500000000000
(1485778720.965229) can0 0A5#007EED7800D52800
(1485778720.965488) can0 1B5#000001D66AD0FFFC
(1485778720.965737) can0 298#0000001BD82B0800
(1485778720.967387) can0 0B0#00004381E68013C3
(1485778720.967621) can0 140#00009C00000B4A24
(1485778720.967842) can0 060#0000000000000000
(1485778720.968217) can0 030#8002A180A000B207
(1485778720.968506) can0 290#0600400100027702
(1485778720.968737) can0 400#0801580A00000001
(1485778720.968986) can0 170#04000000D0000000
(1485778720.969225) can0 229#6000000000000000
(1485778720.969507) can0 269#000005295585FF00
(1485778720.969718) can0 010#0DE400000000804B
(1485778720.969966) can0 190#8000800080008000
(1485778720.970216) can0 218#00008F003C7DC0D8
(1485778720.970465) can0 2A0#0000000030000000
(1485778720.970730) can0 2A5#00000000100FF0FF
(1485778720.972731) can0 070#05A709F369F3F000
(1485778720.973006) can0 080#90007D00007FFEF7
(1485778720.973118) can0 090#0000C200620F0000
(1485778720.973485) can0 0A0#0000080000007FFD
(1485778720.973611) can0 0C8#DF873AF2E138C600
(1485778720.973861) can0 0F8#000000000000104D
(1485778720.974109) can0 120#0000000000008000
(1485778720.974360) can0 130#50002000E0000000
(1485778720.974609) can0 138#007D84007800820D
(1485778720.974862) can0 1A0#1F40000080000000
(1485778720.975091) can0 1B0#4100000000403000
(1485778720.975340) can0 270#5E2F042100000000
(1485778720.975591) can0 280#C400008385254000
(1485778720.975840) can0 2D8#0444808000000000
(1485778720.976091) can0 340#000000000300662F
(1485778720.978341) can0 030#8002A180A000B207
(1485778720.978632) can0 260#8882BE0DB5E1B800
(1485778720.979488) can0 010#0ED400000000804B
(1485778720.979718) can0 160#55FF000057A3ADFD
(1485778720.979965) can0 180#03000DF51804F000
(1485778720.980341) can0 190#8000800080008000
(1485778720.980478) can0 1C0#77C0000080000000
(1485778720.980735) can0 1D0#A8FFFF0000000000
(1485778720.980987) can0 1E0#000000000000F5A3
(1485778720.981225) can0 210#00000000FA8B0000
(1485778720.981486) can0 213#00FA00000FFF5FFF
(1485778720.981717) can0 252#0000000FFF200040
(1485778720.981966) can0 2D0#000001F47A905A85
(1485778720.982215) can0 208#7F083AF66F80FF98
(1485778720.982715) can0 060#0000000000000000
(1485778720.982986) can0 090#0000C200620F0000
(1485778720.983216) can0 0C0#0020000040000000
(1485778720.983465) can0 150#A096500000000000
(1485778720.985220) can0 0A5#007EEC7800C53800
(1485778720.987340) can0 0B0#00004381E68013C3
(1485778720.987633) can0 140#00009C00000C3A24
(1485778720.987861) can0 0A0#0000080000007FFD
(1485778720.987990) can0 200#F200B7250000C000
(1485778720.988360) can0 030#8002A180A000B207
(1485778720.988754) can0 170#04000000D0000000
(1485778720.989488) can0 010#0FC400000000804B
(1485778720.989736) can0 190#8000800080008000
(1485778720.992736) can0 070#05A709F369F3F000
(1485778720.992993) can0 080#90007D00007FFEF7
(1485778720.993237) can0 090#0000C1FF620E0000
(1485778720.993510) can0 0C8#DF873EF2E138C600
(1485778720.993736) can0 0F8#000000000000104D
(1485778720.994012) can0 120#0000000000008000
(1485778720.994218) can0 130#50002000E0000000
(1485778720.994467) can0 138#007D84007800820D
(1485778720.994716) can0 1A0#1F40000080000000
(1485778720.997591) can0 060#0000000000000000
(1485778720.998486) can0 030#8002A180A000B207
(1485778720.998614) can0 290#8600400100027702
(1485778720.999487) can0 269#000005295585FF00
(1485778720.999756) can0 010#00B400000000804B
(1485778720.999866) can0 160#55FF00005793B5FD
(1485778721.000112) can0 180#03000DF61804F000
(1485778721.000360) can0 190#8000800080008000
(1485778721.000613) can0 1C0#77C0000080000000
(1485778721.000862) can0 1D0#A8FFFF0000000000
(1485778721.001106) can0 1E0#000000000000F693
(1485778721.001343) can0 210#00000000F98D0000
(1485778721.001591) can0 213#00F900000FFF6FFF
(1485778721.001840) can0 218#00008F003C7DC0D8
(1485778721.002091) can0 252#0000000FFF200040
(1485778721.002341) can0 2D4#00000000E5FEFFFE
(1485778721.002716) can0 090#0000C1FF620E0000
(1485778721.002968) can0 0A0#0000080000007FFE
(1485778721.003216) can0 0C0#0020000040000000
(1485778721.003466) can0 150#A096500000000000
(1485778721.003716) can0 1B0#4100000000403000
(1485778721.003966) can0 260#8882BE0DB561B800
(1485778721.004090) can0 270#5E2F042100000000
(1485778721.004341) can0 280#C400008385254000
(1485778721.004592) can0 2F0#30B00083005C9638
(1485778721.005216) can0 0A5#007EEB7800B54800
(1485778721.005467) can0 1B5#000001D66AD0FFFC
(1485778721.005716) can0 298#0000001BD82B0800
(1485778721.007090) can0 208#7F072AE60080FF18
(1485778721.007362) can0 0B0#00004381E68013C3
(1485778721.007610) can0 140#00009C00000D2A24
(1485778721.008486) can0 030#8002A180A000B207
(1485778721.008860) can0 170#04000000D0000000
(1485778721.009106) can0 229#6000000000000000
(1485778721.009360) can0 2A0#0000000030000000
(1485778721.009615) can0 010#01A400000000804B
(1485778721.009861) can0 190#8000800080008000
(1485778721.010093) can0 2A5#00000000100FF0FF
(1485778721.012732) can0 060#0000000000000000
(1485778721.012859) can0 070#05A709F369F3F000
(1485778721.013114) can0 080#90007D00007FFEF7
(1485778721.013364) can0 090#0000C1FF620E0000
(1485778721.013611) can0 0C8#DF873AF2E138C600
(1485778721.013843) can0 0F8#000000000000104D
(1485778721.014090) can0 120#0000000000008000
(1485778721.014341) can0 130#50002000E0000000
(1485778721.014591) can0 138#007D84007800820D
(1485778721.014841) can0 1A0#1F40000080000000
(1485778721.015091) can0 200#F200B7250000C000
(1485778721.017608) can0 0A0#0000080000007FFF
(1485778721.018483) can0 030#8003A180A000B207
(1485778721.019490) can0 010#029400000000804B
(1485778721.019736) can0 160#55FF00005783BDFD
(1485778721.019983) can0 180#03000DF41804F000
(1485778721.020361) can0 190#8000800080008000
(1485778721.020486) can0 1C0#77C0000080000000
(1485778721.020738) can0 1D0#A8FFFF0000000000
(1485778721.020986) can0 1E0#000000000000F783
(1485778721.021219) can0 210#00000000F88F0000
(1485778721.021466) can0 213#00F800000FFF7FFF
(1485778721.021716) can0 252#0000000FFF200040
(1485778721.021967) can0 2D0#000001F37B905A85
(1485778721.023217) can0 150#A096500000000000
(1485778721.023358) can0 090#0000C1FE620A0000
(1485778721.023738) can0 0C0#0020000040000000
(1485778721.025237) can0 0A5#007EEA7800A55800
(1485778721.027361) can0 0B0#00004381E68013C3
(1485778721.027612) can0 140#00009C00000E1A24
(1485778721.027862) can0 060#0000000000000000
(1485778721.028363) can0 030#800AE1A0E000B287
(1485778721.028487) can0 17E#C010004000200000
(1485778721.028737) can0 260#8882BE0DB5E1B800
(1485778721.028967) can0 170#04000000D0000000
(1485778721.029216) can0 290#0600400100027702
(1485778721.029483) can0 010#038400000000804B
(1485778721.029735) can0 269#000005295585FF00
(1485778721.029969) can0 190#8000800080008000
(1485778721.030216) can0 218#00008F003C7DC0D8
(1485778721.030491) can0 380#5394FCA96000C0A9
(1485778721.030732) can0 3B4#401111FF00000000
(1485778721.030841) can0 435#B232B9D276EFB3C4
(1485778721.032341) can0 208#7F062AE60080FF18
(1485778721.032716) can0 070#05A709F469F4F000
(1485778721.032987) can0 080#90007D00008000F7
(1485778721.033239) can0 090#0000C1FE620A0000
(1485778721.033488) can0 0A0#0000080000008001
(1485778721.033736) can0 0C8#DF873EF6E138C600
(1485778721.033988) can0 0F8#000000000000104D
(1485778721.034218) can0 120#0000000000008000
(1485778721.034467) can0 130#50002000E0000000
(1485778721.034716) can0 138#007D84007800820D
(1485778721.034967) can0 1A0#1F40000080000000
(1485778721.035216) can0 1B0#4100000000403000
(1485778721.035466) can0 270#5E2F042100000000
(1485778721.035717) can0 280#C400008385254000
(1485778721.035966) can0 2D8#0444808000000000
(1485778721.036092) can0 310#D94430602D450074
(1485778721.036341) can0 360#C0C03F003C7DB8B7
(1485778721.037606) can0 200#F200B7250000C000
(1485778721.038370) can0 030#8002A180A000B207
(1485778721.039488) can0 010#047400000000804B
(1485778721.039737) can0 160#55FF00005773C5FD
(1485778721.039987) can0 180#03000DF61804F000
(1485778721.040361) can0 190#8000800080008000
(1485778721.040472) can0 1C0#77C0000080000000
(1485778721.040716) can0 1D0#A8FFFF0000000000
(1485778721.040966) can0 1E0#000000000000F873
(1485778721.041216) can0 210#00000000F7910000
(1485778721.041466) can0 213#00F700000FFF8FFF
(1485778721.041716) can0 252#0000000FFF200040
(1485778721.042716) can0 060#0000000000000000
(1485778721.042986) can0 090#0000C1FE620A0000
(1485778721.043218) can0 0C0#0020000040000000
(1485778721.043480) can0 150#A096500000000000
(1485778721.045241) can0 455#0000000000000000
(1485778721.045486) can0 0A5#007EE97800956800
(1485778721.045734) can0 1B5#000001D66AD0FFFC
(1485778721.046007) can0 298#0000001BD82B0800
(1485778721.047362) can0 0B0#00004381E68013C3
(1485778721.047614) can0 140#00009C00000F0A24
(1485778721.047871) can0 0A0#0000080000008001
(1485778721.048219) can0 030#8002A180A000B207
(1485778721.048608) can0 170#04000000D0000000
(1485778721.048861) can0 229#6000000000000000
(1485778721.049233) can0 2A0#0000000030000000
(1485778721.049505) can0 2A5#00000000100FF0FF
(1485778721.049742) can0 010#056400000000804B
(1485778721.049983) can0 190#8000800080008000
(1485778721.052625) can0 070#05A709F469F4F000
(1485778721.052865) can0 080#90007D00008000F7
(1485778721.053112) can0 090#0000C1FE620A0000
(1485778721.053344) can0 0C8#DF873AF2E138C600
(1485778721.053592) can0 0F8#000000000000104D
(1485778721.053841) can0 120#0000000000008000
(1485778721.054092) can0 130#50002000E0000000
(1485778721.054341) can0 138#007D84007800820D
(1485778721.054611) can0 1A0#1F40000080000000
(1485778721.054861) can0 260#8882BE0DB561B800
(1485778721.057361) can0 208#7F0A2AE60080FF18
(1485778721.057609) can0 060#0000000000000000
(1485778721.058361) can0 030#8002A180A000B207
(1485778721.058488) can0 290#0600400100027702
(1485778721.059487) can0 010#065400000000804B
(1485778721.059613) can0 269#00000529AA85FF00
(1485778721.059860) can0 160#55FF00005763CDFD
(1485778721.060110) can0 180#03000DF41804F000
(1485778721.060344) can0 190#8000800080008000
(1485778721.060611) can0 1C0#77C0000080000000
(1485778721.060859) can0 1D0#A8FFFF0000000000
(1485778721.061112) can0 1E0#000000000000F963
(1485778721.061360) can0 210#00000000F6930000
(1485778721.061594) can0 213#00F600000FFF9FFF
(1485778721.061842) can0 218#00008F003C7DC0D8
(1485778721.062107) can0 252#0000000FFF200040
(1485778721.062344) can0 2D0#000001F27C905A85
(1485778721.062605) can0 2D4#00000000E5FEFFFE
(1485778721.062859) can0 090#0000C1FE620A0000
(1485778721.063106) can0 0A0#0000080000008001
(1485778721.063358) can0 0C0#0020000040000000
(1485778721.063607) can0 150#A096500000000000
(1485778721.063844) can0 1B0#4100000000403000
(1485778721.064091) can0 200#F200B7250000C000
(1485778721.064354) can0 270#5E2F042100000000
(1485778721.064594) can0 280#C400008285254000
(1485778721.065231) can0 0A5#007EE87800857800
(1485778721.067357) can0 0B0#00004381E68013C3
(1485778721.067485) can0 140#00009C000000FA24
(1485778721.068237) can0 030#8002A180A000B207
(1485778721.068506) can0 40A#C104FFFF078A0000
(1485778721.068757) can0 170#04000000D0000000
(1485778721.069488) can0 010#074400000000804B
(1485778721.069738) can0 190#8000800080008000
(1485778721.072737) can0 060#0000000000000000
(1485778721.072988) can0 070#05A709F469F4F000
(1485778721.073236) can0 080#90007D00008000F7
(1485778721.073485) can0 090#0000C1FE620A0000
(1485778721.073719) can0 0C8#DF873EF2E138C600
(1485778721.073982) can0 0F8#000000000000104D
(1485778721.074230) can0 120#0000000000008000
(1485778721.074469) can0 130#50002000E0000000
(1485778721.074736) can0 138#007D84007800820D
(1485778721.074971) can0 1A0#1F40000080000000
(1485778721.077604) can0 0A0#0000080000008001
(1485778721.078362) can0 030#8003A180A000B207
(1485778721.078487) can0 260#8882BE0DB5E1B800
(1485778721.079485) can0 010#083400000000804B
(1485778721.079737) can0 160#55FF00005753D5FD
(1485778721.079986) can0 180#03000DF61805F000
(1485778721.080354) can0 190#8000800080008000
(1485778721.080481) can0 1C0#77C0000080000000
(1485778721.080736) can0 1D0#A8FFFF0000000000
(1485778721.080984) can0 1E0#000000000000FA53
(1485778721.081232) can0 210#00000000F5950000
(1485778721.081482) can0 213#00F500000FFFAFFF
(1485778721.081719) can0 252#0000000FFF200040
(1485778721.082483) can0 208#7F063AF66F80FF98
(1485778721.082732) can0 090#0000C1FE620A0000
(1485778721.082982) can0 0C0#0020000040000000
(1485778721.083356) can0 150#A096700000000000
(1485778721.086229) can0 0A5#007EE77800758800
(1485778721.086487) can0 1B5#000001D66AD0FFFC
(1485778721.086756) can0 298#0000001BD82B0800
(1485778721.087361) can0 0B0#00004381E68013C3
(1485778721.087606) can0 140#00009C000001EA24
(1485778721.087884) can0 060#0000000000000000
(1485778721.087983) can0 200#F200B7250000C000
(1485778721.088467) can0 030#8002A180A000B207
(1485778721.088719) can0 170#04000000D0000000
(1485778721.088967) can0 290#8600C00100027702
(1485778721.089220) can0 229#6000000000000000
(1485778721.089468) can0 2A0#0000000030000000
(1485778721.089722) can0 010#092400000000804B
(1485778721.089977) can0 190#8000800080008000
(1485778721.090238) can0 218#00008F003C7DC0D8
(1485778721.090481) can0 269#00000529AA85FF00
(1485778721.090756) can0 2A5#00000000100FF0FF
(1485778721.092593) can0 070#05A709F469F4F000
(1485778721.092861) can0 080#90007D00008001F7
(1485778721.093107) can0 090#0000C1FE620A0000
(1485778721.093356) can0 0A0#0000080000008001
(1485778721.093594) can0 0C8#DF873AF6E138C600
(1485778721.093858) can0 0F8#000000000000104D
(1485778721.094108) can0 120#0000000000008000
(1485778721.094343) can0 130#50002000E0000000
(1485778721.094592) can0 138#007D84007800820D
(1485778721.094842) can0 1A0#1F40000080000000
(1485778721.095092) can0 1B0#4100000000403000
(1485778721.095342) can0 270#5E2F042100000000
(1485778721.095592) can0 280#C400008285254000
(1485778721.095842) can0 2D8#0444808000000000
(1485778721.096092) can0 2F0#30B00082005C9638
(1485778721.096342) can0 340#000000000300662F
(1485778721.098467) can0 030#8002A180A000B207
(1485778721.099466) can0 010#0A1400000000804B
(1485778721.099717) can0 160#55FF00005743DDFD
(1485778721.099966) can0 180#03000DF51804F000
(1485778721.100218) can0 190#8000800080008000
(1485778721.100467) can0 1C0#77C0000080000000
(1485778721.100716) can0 1D0#A8FFFF0000000000
(1485778721.100967) can0 1E0#000000000000FB43
(1485778721.101216) can0 210#00000000F4970000
(1485778721.101467) can0 213#00F400000FFFBFFF
(1485778721.101716) can0 252#0000000FFF200040
(1485778721.101967) can0 2D0#000001F17D905A85
(1485778721.102718) can0 060#0000000000000000
(1485778721.102968) can0 090#0000C1FF620A0000
(1485778721.103217) can0 0C0#0020000040000000
(1485778721.103466) can0 150#A096500000000000
(1485778721.103590) can0 260#8882BE0DB561B800
(1485778721.106219) can0 0A5#007EE67800659800
(1485778721.107359) can0 0B0#00004381E68013C3
(1485778721.107471) can0 140#00009C000002DA24
(1485778721.107735) can0 0A0#0000080000008001
(1485778721.107977) can0 208#7F042AE60080FF18
(1485778721.108363) can0 030#800AE180E000B287
(1485778721.108604) can0 170#04000000D0000000
(1485778721.109478) can0 010#0B0400000000804B
(1485778721.109729) can0 190#8000800080008000
(1485778721.112605) can0 070#05A709F469F4F000
(1485778721.112859) can0 080#90007D00008002F7
(1485778721.113108) can0 090#0000C1FF620A0000
(1485778721.113357) can0 0C8#DF873EF2E138C600
(1485778721.113594) can0 0F8#000000000000104D
(1485778721.113859) can0 120#0000000000008000
(1485778721.114094) can0 130#50002000E0000000
(1485778721.114356) can0 138#007D84007800820D
(1485778721.114631) can0 1A0#1F40000080000000
(1485778721.114845) can0 200#F200B7260000C000
(1485778721.117594) can0 060#0000000000000000
(1485778721.118365) can0 030#8002A180A000B207
(1485778721.118614) can0 290#0600400100027702
(1485778721.119491) can0 010#0CF400000000804B
(1485778721.119730) can0 269#00000529AA85FF00
(1485778721.119862) can0 160#55FF00005733E5FD
(1485778721.120117) can0 180#03000DF51804F000
(1485778721.120357) can0 190#8000800080008000
(1485778721.120605) can0 1C0#77C0000080000000
(1485778721.120850) can0 1D0#A8FFFF0000000000
(1485778721.121111) can0 1E0#000000000000FC33
(1485778721.121356) can0 210#00000000F3990000
(1485778721.121610) can0 213#00F300000FFFCFFF
(1485778721.121845) can0 218#00008F003C7DC0D8
(1485778721.122092) can0 252#0000000FFF200040
(1485778721.122342) can0 2D4#00000000E5FEFFFE
(1485778721.122718) can0 090#0000C1FF620A0000
(1485778721.122968) can0 0A0#0000080000008001
(1485778721.123217) can0 0C0#0020000040000000
(1485778721.123468) can0 150#A096500000000000
(1485778721.123593) can0 1B0#4100000000403000
(1485778721.123843) can0 270#5E2F042100000000
(1485778721.124092) can0 280#C400008285254000
(1485778721.126221) can0 0A5#007EE5780055A800
(1485778721.126487) can0 1B5#000001D66AD0FFFC
(1485778721.126746) can0 298#0000001BD82B0800
(1485778721.127363) can0 0B0#00004381E68013C3
(1485778721.127481) can0 140#00009C000003CA24
(1485778721.128358) can0 030#8002A180A000B207
(1485778721.128613) can0 17E#C010004000228000
(1485778721.128864) can0 170#04000000D0000000
(1485778721.129113) can0 260#8882BE0DB661B800
(1485778721.129361) can0 229#6000000000000000
(1485778721.129612) can0 010#0DE400000000804B
(1485778721.129861) can0 190#8000800080008000
(1485778721.130112) can0 2A0#0000000030000000
(1485778721.130345) can0 2A5#00000000100FF0FF
(1485778721.132593) can0 208#7F082AE60080FF18
(1485778721.132845) can0 060#0000000000000000
(1485778721.133106) can0 070#05A709F469F4F000
(1485778721.133380) can0 080#90007D00008002F7
(1485778721.133593) can0 090#0000C1FF620A0000
(1485778721.133882) can0 0C8#DF873AF2E138C600
(1485778721.133981) can0 0F8#000000000000104D
(1485778721.134363) can0 120#0000000000008000
(1485778721.134491) can0 130#50002000E0000000
(1485778721.134749) can0 138#007D84007800820D
(1485778721.134970) can0 1A0#1F40000080000000
(1485778721.135342) can0 310#D94430602D450074
(1485778721.137843) can0 0A0#0000080000008001
(1485778721.138111) can0 200#F200B7260000C000
(1485778721.138362) can0 030#8003A180A000B207
(1485778721.139490) can0 010#0ED400000000804B
(1485778721.139736) can0 160#55FF00005723EDFD
(1485778721.139987) can0 180#03000DF61803F000
(1485778721.140237) can0 190#8000800080008000
(1485778721.140487) can0 1C0#77C0000080000000
(1485778721.140720) can0 1D0#A8FFFF0000000000
(1485778721.140967) can0 1E0#000000000000FD23
(1485778721.141218) can0 210#00000000F29B0000
(1485778721.141488) can0 213#00F200000FFFDFFF
(1485778721.141719) can0 252#0000000FFF200040
(1485778721.141968) can0 2D0#000001F07E905A85
(1485778721.142715) can0 090#0000C200620B0000
(1485778721.143008) can0 0C0#0020000040000000
(1485778721.143220) can0 150#A096500000000000
(1485778721.145343) can0 455#0000000000000000
(1485778721.146219) can0 0A5#007EE4780045B800
(1485778721.147362) can0 0B0#00004381E68013C3
(1485778721.147492) can0 140#00009C000004BA24
(1485778721.147737) can0 060#0000000000000000
(1485778721.148113) can0 030#8002A180A000B207
(1485778721.148386) can0 290#0600400100027702
(1485778721.148606) can0 170#04000000D0000000
(1485778721.148885) can0 405#2700000000000000
(1485778721.149489) can0 010#0FC400000000804B
(1485778721.149755) can0 269#000005295585FF00
(1485778721.149986) can0 190#8000800080008000
(1485778721.150219) can0 218#00008F003C7DC0D8
(1485778721.152617) can0 070#05A709F469F4F000
(1485778721.152863) can0 080#90007D00008001F7
(1485778721.153111) can0 090#0000C200620B0000
(1485778721.153358) can0 0A0#0000080000008001
(1485778721.153615) can0 0C8#DF873EF6E138C600
(1485778721.153844) can0 0F8#000000000000104D
(1485778721.154108) can0 120#0000000000008000
(1485778721.154362) can0 130#50002000E0000000
(1485778721.154595) can0 138#007D84007800820D
(1485778721.154843) can0 1A0#1F40000080000000
(1485778721.155093) can0 1B0#4100000000403000
(1485778721.155353) can0 260#8882BE0DB5E1B800
(1485778721.155592) can0 270#5E2F042100000000
(1485778721.155843) can0 280#C400008285254000
(1485778721.156092) can0 2D8#0444808000000000
(1485778721.157592) can0 208#7F082AE60080FF18
(1485778721.158342) can0 030#8002A180A000B207
(1485778721.159477) can0 010#00B400000000804B
(1485778721.159723) can0 160#55FF00005713F5FD
(1485778721.159975) can0 180#03000DF51804F000
(1485778721.160353) can0 190#8000800080008000
(1485778721.160473) can0 1C0#77C0000080000000
(1485778721.160724) can0 1D0#A8FFFF0000000000
(1485778721.160972) can0 1E0#000000000000FE13
(1485778721.161231) can0 210#00000000F19D0000
(1485778721.161485) can0 213#00F100000FFFEFFF
(1485778721.161733) can0 252#0000000FFF200040
(1485778721.162718) can0 060#0000000000000000
(1485778721.162981) can0 090#0000C200620B0000
(1485778721.163231) can0 0C0#0020000040000000
(1485778721.163481) can0 150#A096500000000000
(1485778721.163592) can0 200#F200B7260000C000
(1485778721.166217) can0 0A5#007EE3780035C800
(1485778721.166495) can0 1B5#000001D66AD0FFFC
(1485778721.166717) can0 298#0000001BD82B0800
(1485778721.167356) can0 0B0#00004381E68013C3
(1485778721.167480) can0 140#00009C000005AA24
(1485778721.167729) can0 0A0#0000080000008000
(1485778721.168229) can0 030#8002A180A000B207
(1485778721.168605) can0 170#04000000D0000000
(1485778721.168852) can0 229#6000000000000000
(1485778721.169218) can0 2A0#0000000030000000
(1485778721.169466) can0 2A5#00000000100FF0FF
(1485778721.169717) can0 010#01A400000000804B
(1485778721.169965) can0 190#8000800080008000
(1485778721.172592) can0 070#05A709F469F4F000
(1485778721.172864) can0 080#90007D00008001F7
(1485778721.173105) can0 090#0000C200620B0000
(1485778721.173354) can0 0C8#DF873AF2E138C600
(1485778721.173605) can0 0F8#000000000000104D
(1485778721.173855) can0 120#0000000000008000
(1485778721.174105) can0 130#50002000E0000000
(1485778721.174343) can0 138#007D84007800820D
(1485778721.174590) can0 1A0#1F40000080000000
(1485778721.177720) can0 060#0000000000000000
(1485778721.178466) can0 030#8002A180A000B207
(1485778721.178590) can0 260#8882BE0DB561B800
(1485778721.178842) can0 290#8600400100027702
(1485778721.179466) can0 010#029400000000804B
(1485778721.179730) can0 269#000005295585FF00
(1485778721.179851) can0 160#55FF00005703FDFD
(1485778721.180093) can0 180#03000DF41805F000
(1485778721.180341) can0 190#8000800080008000
(1485778721.180591) can0 1C0#77C0000080000000
(1485778721.180840) can0 1D0#A8FFFF0000000000
(1485778721.181091) can0 1E0#000000000000FF03
(1485778721.181341) can0 210#00000000F09F0000
(1485778721.181594) can0 213#00F000000FFFFFFF
(1485778721.181841) can0 218#00008F003C7DC0D8
(1485778721.182090) can0 252#0000000FFF200040
(1485778721.182341) can0 2D0#000001EF7F905A85
(1485778721.182591) can0 2D4#00000000E5FEFFFE
(1485778721.182842) can0 090#0000C201620D0000
(1485778721.183091) can0 0A0#0000080000007FFF
(1485778721.183341) can0 0C0#0020000040000000
(1485778721.183591) can0 150#A096500000000000
(1485778721.183840) can0 1B0#4100000000403000
(1485778721.184091) can0 208#7F083AF66F80FF98
(1485778721.184342) can0 270#5E2F042100000000
(1485778721.184594) can0 280#C400008385254000
(1485778721.184843) can0 2F0#30B00083005C9638
(1485778721.184967) can0 360#C0C03F003C7DB8B7
(1485778721.186276) can0 0A5#007EE2780025D800
(1485778721.187235) can0 0B0#00004381E68013C3
(1485778721.187485) can0 140#00009C0000069A24
(1485778721.187735) can0 200#F200B7260000C000
(1485778721.188484) can0 030#800AE180E000B287
(1485778721.188735) can0 170#04000000D0000000
(1485778721.189477) can0 010#038400000000804B
(1485778721.189735) can0 190#8000800080008000
(1485778721.192738) can0 060#0000000000000000
(1485778721.192865) can0 070#05A709F369F3F000
(1485778721.193113) can0 080#90007D00008000F7
(1485778721.193365) can0 090#0000C201620D0000
(1485778721.193613) can0 0C8#DF873EF2E138C600
(1485778721.193863) can0 0F8#000000000000104D
(1485778721.194125) can0 120#0000000000008000
(1485778721.194361) can0 130#50002000E0000000
(1485778721.194612) can0 138#007D84007800820D
(1485778721.194845) can0 1A0#1F40000080000000
(1485778721.195093) can0 40A#C105089C09000A8D
(1485778721.197593) can0 0A0#0000080000007FFF
(1485778721.198353) can0 030#8003A180A000B207
(1485778721.199495) can0 010#047400000000804B
(1485778721.199743) can0 160#55FF000057F385FD
(1485778721.199988) can0 180#03000DF71803F000
(1485778721.200264) can0 190#8000800080008000
(1485778721.200489) can0 1C0#77C0000080000000
(1485778721.200762) can0 1D0#A8FFFF0000000000
(1485778721.200988) can0 1E0#000000000000F0F3
(1485778721.201219) can0 210#00000000FF810000
(1485778721.201468) can0 213#00FF00000FFF0FFF
(1485778721.201718) can0 252#0000000FFF200040
(1485778721.202738) can0 090#0000C201620D0000
(1485778721.202882) can0 0C0#0020000040000000
(1485778721.203111) can0 150#A096500000000000
(1485778721.203363) can0 260#8882BE0DB6E1B800
(1485778721.206228) can0 0A5#007EE1780015E800
(1485778721.206507) can0 1B5#000001D66AD0FFFC
(1485778721.206739) can0 298#0000001BD82B0800
(1485778721.207364) can0 0B0#00004381E68013C3
(1485778721.207530) can0 140#00009C0000078A24
(1485778721.207744) can0 060#0000000000000000
(1485778721.207989) can0 208#7F072AE60080FF18
(1485778721.208363) can0 030#8002A180A000B207
(1485778721.208631) can0 290#0600400100027702
(1485778721.208863) can0 170#04000000D0000000
(1485778721.209137) can0 229#6000000000000000
(1485778721.209343) can0 2A0#0000000030000000
(1485778721.209593) can0 010#056400000000804B
(1485778721.209843) can0 190#8000800080008000
(1485778721.210094) can0 218#00008F003C7DC0D8
(1485778721.210343) can0 269#000005295585FF00
(1485778721.210594) can0 2A5#00000000100FF0FF
(1485778721.212593) can0 070#05A709F369F3F000
(1485778721.212891) can0 080#90007D00007FFFF7
(1485778721.213096) can0 090#0000C201620D0000
(1485778721.213343) can0 0A0#0000080000007FFF
(1485778721.213593) can0 0C8#DF873EF6E138C600
(1485778721.213843) can0 0F8#000000000000104D
(1485778721.214093) can0 120#0000000000008000
(1485778721.214344) can0 130#50002000E0000000
(1485778721.214594) can0 138#007D84007800820D
(1485778721.214843) can0 1A0#1F40000080000000
(1485778721.215093) can0 1B0#4100000000403000
(1485778721.215343) can0 200#F200B7260000C000
(1485778721.215593) can0 270#5E2F042100000000
(1485778721.215843) can0 280#C400008385254000
(1485778721.216093) can0 2D8#0444808000000000
(1485778721.216343) can0 340#000000000300662F
(1485778721.218468) can0 030#8002A180A000B207
(1485778721.218718) can0 400#0903030201010200
(1485778721.219468) can0 010#065400000000804B
(1485778721.219718) can0 160#55FF000057E38DFD
(1485778721.219968) can0 180#03000DF51804F000
(1485778721.220230) can0 190#8000800080008000
(1485778721.220484) can0 1C0#77C0000080000000
(1485778721.220733) can0 1D0#A8FFFF0000000000
(1485778721.220981) can0 1E0#000000000000F1E3
(1485778721.221233) can0 210#00000000FE830000
(1485778721.221471) can0 213#00FE00000FFF1FFF
(1485778721.221718) can0 252#0000000FFF200040
(1485778721.221968) can0 2D0#000001FE70905A85
(1485778721.222719) can0 060#0000000000000000
(1485778721.222982) can0 090#0000C200620C0000
(1485778721.223234) can0 0C0#0020000040000000
(1485778721.223483) can0 150#A096500000000000
(1485778721.226223) can0 0A5#007EE0780005F800
(1485778721.227235) can0 0B0#00004381E68013C3
(1485778721.227478) can0 140#00009C0000087A24
(1485778721.227757) can0 0A0#0000080000007FFF
(1485778721.228363) can0 030#8002A180A000B207
(1485778721.228632) can0 17E#C010004000200000
(1485778721.228864) can0 170#04000000D0000000
(1485778721.228981) can0 260#8882BE0DB561B800
(1485778721.229493) can0 010#074400000000804B
(1485778721.229738) can0 190#8000800080008000
(1485778721.232880) can0 208#7F032AE60080FF18
(1485778721.233233) can0 070#05A709F369F3F000
(1485778721.233507) can0 080#90007D00007FFFF7
(1485778721.233760) can0 090#0000C200620C0000
(1485778721.233858) can0 0C8#DF873AF2E138C600
(1485778721.234111) can0 0F8#000000000000104D
(1485778721.234364) can0 120#0000000000008000
(1485778721.234612) can0 130#50002000E0000000
(1485778721.234864) can0 138#007D84007800820D
(1485778721.235106) can0 1A0#1F40000080000000
(1485778721.235364) can0 310#D94430602D450074
(1485778721.237595) can0 060#0000000000000000
(1485778721.237864) can0 200#F200B7260000C000
(1485778721.238346) can0 030#8002A180A000B207
(1485778721.238478) can0 290#8600400100027702
(1485778721.239469) can0 010#083400000000804B
(1485778721.239758) can0 269#000005295585FF00
(1485778721.239866) can0 160#55FF000057D395FF
(1485778721.240115) can0 180#03000DF41804F000
(1485778721.240363) can0 190#8000800080008000
(1485778721.240613) can0 1C0#77C0000080000000
(1485778721.240863) can0 1D0#A8FFFF0000000000
(1485778721.241112) can0 1E0#000000000000F2D3
(1485778721.241364) can0 210#00000000FD850000
(1485778721.241613) can0 213#00FD00000FFF2FFF
(1485778721.241861) can0 218#00008F003C7DC0D8
(1485778721.242095) can0 252#0000000FFF200040
(1485778721.242345) can0 2D4#00000000E5FEFFFE
(1485778721.242718) can0 090#0000C200620C0000
(1485778721.242989) can0 0A0#0000080000007FFF
(1485778721.243235) can0 0C0#0020000040000000
(1485778721.243359) can0 150#A096500000000000
(1485778721.243609) can0 1B0#4100000000403000
(1485778721.243857) can0 270#5E2F042100000000
(1485778721.244096) can0 280#C400008385254000
(1485778721.245469) can0 455#0000000000000000
(1485778721.246242) can0 0A5#007EEF7800F50800
(1485778721.246490) can0 1B5#000001D66AD0FFFC
(1485778721.246765) can0 298#0000001BD82B0800
(1485778721.247244) can0 0B0#00004381E68013C3
(1485778721.247489) can0 140#00009C0000096A24
(1485778721.248366) can0 030#8002A180A000B207
(1485778721.248728) can0 170#04000000D0000000
(1485778721.248990) can0 229#6000000000000000
(1485778721.249365) can0 2A0#0000000030000000
(1485778721.249489) can0 010#092400000000804B
(1485778721.249739) can0 2A5#00000000100FF0FF
(1485778721.249989) can0 190#8000800080008000
(1485778721.252595) can0 060#0000000000000000
(1485778721.252857) can0 070#05A709F369F3F000
(1485778721.253112) can0 080#90007D00007FFFF7
(1485778721.253367) can0 090#0000C1FF620B0000
(1485778721.253631) can0 0C8#DF873AF2E138C600
(1485778721.253884) can0 0F8#000000000000104D
(1485778721.254096) can0 120#0000000000008000
(1485778721.254343) can0 130#50002000E0000000
(1485778721.254593) can0 138#007D84007800820D
(1485778721.254843) can0 1A0#1F40000080000000
(1485778721.255113) can0 260#8882BE0DB661B800
(1485778721.257738) can0 0A0#0000080000008000
(1485778721.258010) can0 208#7F092AE60080FF18
(1485778721.258362) can0 030#800BE180E000B287
(1485778721.259490) can0 010#0A1400000000804B
(1485778721.259755) can0 160#55FF000057C39DFD
(1485778721.259989) can0 180#03000DF61803F000
(1485778721.260259) can0 190#8000800080008000
(1485778721.260482) can0 1C0#77C0000080000000
(1485778721.260738) can0 1D0#A8FFFF0000000000
(1485778721.260971) can0 1E0#000000000000F3C3
(1485778721.261240) can0 210#00000000FC870000
(1485778721.261471) can0 213#00FC00000FFF3FFF
(1485778721.261718) can0 252#0000000FFF200040
(1485778721.261989) can0 2D0#000001FD71905A85
(1485778721.262721) can0 090#0000C1FF620B0000
(1485778721.262990) can0 0C0#0020000040000000
(1485778721.263221) can0 200#F200B7260000C000
(1485778721.263468) can0 150#A096500000000000
(1485778721.266221) can0 0A5#007EEE7800E51800
(1485778721.267219) can0 0B0#00004381E68013C3
(1485778721.267488) can0 140#00009C00000A5A24
(1485778721.267764) can0 060#0000000000000000
(1485778721.268128) can0 030#8002A180A000B207
(1485778721.268358) can0 290#0600400100027702
(1485778721.268746) can0 170#04000000D0000000
(1485778721.269492) can0 010#0B0400000000804B
(1485778721.269613) can0 269#00000529AA85FF00
(1485778721.269987) can0 190#8000800080008000
(1485778721.270115) can0 218#00008F003C7DC0D8
(1485778721.272620) can0 070#05A709F469F4F000
(1485778721.272862) can0 080#90007D00008000F7
(1485778721.273113) can0 090#0000C1FF620B0000
(1485778721.273364) can0 0A0#0000080000008000
(1485778721.273616) can0 0C8#DF873EF6E138C600
(1485778721.273888) can0 0F8#000000000000104D
(1485778721.274103) can0 120#0000000000008000
(1485778721.274386) can0 130#50002000E0000000
(1485778721.274596) can0 138#007D84007800820D
(1485778721.274844) can0 1A0#1F40000080000000
(1485778721.275093) can0 1B0#4100000000403000
(1485778721.275365) can0 270#5E2F042100000000
(1485778721.275634) can0 280#C400008385254000
(1485778721.275846) can0 2D8#0444808000000000
(1485778721.276094) can0 2F0#30B00083005C9638
(1485778721.278594) can0 030#8002A180A000B207
(1485778721.278734) can0 260#8882BE0DB5E1B800
(1485778721.279492) can0 010#0CF400000000804B
(1485778721.279738) can0 160#55FF000057B3A5FD
(1485778721.279991) can0 180#03000DF61805F000
(1485778721.280263) can0 190#8000800080008000
(1485778721.280490) can0 1C0#77C0000080000000
(1485778721.280733) can0 1D0#A8FFFF0000000000
(1485778721.281009) can0 1E0#000000000000F4B3
(1485778721.281241) can0 210#00000000FB890000
(1485778721.281470) can0 213#00FB00000FFF4FFF
(1485778721.281719) can0 252#0000000FFF200040
(1485778721.282720) can0 060#0000000000000000
(1485778721.283006) can0 090#0000C1FF620B0000
(1485778721.283239) can0 0C0#0020000040000000
(1485778721.283472) can0 150#A096500000000000
(1485778721.283593) can0 208#7F043AF66F80FF98
(1485778721.286221) can0 0A5#007EED7800D52800
(1485778721.286489) can0 1B5#000001D66AD0FFFC
(1485778721.286734) can0 298#0000001BD82B0800
(1485778721.287238) can0 0B0#00004381E68013C3
(1485778721.287507) can0 140#00009C00000B4A24
(1485778721.287737) can0 0A0#0000080000008000
(1485778721.288010) can0 200#F200B7280000C000
(1485778721.288358) can0 030#8002A180A000B207
(1485778721.288616) can0 170#04000000D0000000
(1485778721.288846) can0 229#6000000000000000
(1485778721.289241) can0 2A0#0000000030000000
(1485778721.289490) can0 2A5#00000000100FF0FF
(1485778721.289722) can0 010#0DE400000000804B
(1485778721.289969) can0 190#8000800080008000
(1485778721.292719) can0 070#05A709F469F4F000
(1485778721.292989) can0 080#90007D00008000F7
(1485778721.293233) can0 090#0000C1FF620C0000
(1485778721.293487) can0 0C8#DF873AF2E138C600
(1485778721.293739) can0 0F8#000000000000104D
(1485778721.293972) can0 120#0000000000008000
(1485778721.294235) can0 130#50002000E0000000
(1485778721.294509) can0 138#007D84007800820D
(1485778721.294720) can0 1A0#1F40000080000000
(1485778721.297602) can0 060#0000000000000000
(1485778721.298345) can0 030#8002A180A000B207
(1485778721.298594) can0 290#0600400100027702
(1485778721.299492) can0 010#0ED400000000804B
(1485778721.299733) can0 269#00000529AA85FF00
(1485778721.299857) can0 160#55FF000057A3ADFD
(1485778721.300112) can0 180#03000DF21803F000
(1485778721.300364) can0 190#8000800080008000
(1485778721.300612) can0 1C0#77C0000080000000
(1485778721.300857) can0 1D0#A8FFFF0000000000
(1485778721.301109) can0 1E0#000000000000F5A3
(1485778721.301360) can0 210#00000000FA8B0000
(1485778721.301617) can0 213#00FA00000FFF5FFF
(1485778721.301846) can0 218#00008F003C7DC0D8
(1485778721.302094) can0 252#0000000FFF200040
(1485778721.302345) can0 2D0#000001FC72905A85
(1485778721.302594) can0 2D4#00000000E5FEFFFE
(1485778721.302845) can0 090#0000C1FF620C0000
(1485778721.303094) can0 0A0#0000080000008000
(1485778721.303344) can0 0C0#0020000040000000
(1485778721.303594) can0 150#A096500000000000
(1485778721.303844) can0 1B0#4100000000403000
(1485778721.304095) can0 260#8882BE0DB661B800
(1485778721.304349) can0 270#5E2F042100000000
(1485778721.304594) can0 280#C400008385254000
(1485778721.306346) can0 0A5#007EEC7800C53800
(1485778721.307220) can0 0B0#00004381E68013C3
(1485778721.307485) can0 140#00009C00000C3A24
(1485778721.308003) can0 208#7F052AE60080FF18
(1485778721.308365) can0 030#8002A180A000B207
(1485778721.308615) can0 170#04000000D0000000
(1485778721.309492) can0 010#0FC400000000804B
(1485778721.309738) can0 190#8000800080008000
(1485778721.312620) can0 060#0000000000000000
(1485778721.312867) can0 070#05A709F469F4F000
(1485778721.313113) can0 080#90007D00008000F7
(1485778721.313365) can0 090#0000C1FF620C0000
(1485778721.313615) can0 0C8#DF873EF2E138C600
(1485778721.313845) can0 0F8#000000000000104D
(1485778721.314109) can0 120#0000000000008000
(1485778721.314346) can0 130#50002000E0000000
(1485778721.314617) can0 138#007D84007800820D
(1485778721.314846) can0 1A0#1F40000080000000
(1485778721.315113) can0 200#F200B7280000C000
(1485778721.317597) can0 0A0#0000080000008000
(1485778721.318469) can0 030#8003A180A000B207
(1485778721.318720) can0 40A#C0003E212C0C023B
(1485778721.319469) can0 010#00B400000000804B
(1485778721.319740) can0 160#55FF00005793B5FD
(1485778721.320007) can0 180#03000DF61805F000
(1485778721.320239) can0 190#8000800080008000
(1485778721.320489) can0 1C0#77C0000080000000
(1485778721.320738) can0 1D0#A8FFFF0000000000
(1485778721.320984) can0 1E0#000000000000F693
(1485778721.321221) can0 210#00000000F98D0000
(1485778721.321470) can0 213#00F900000FFF6FFF
(1485778721.321719) can0 252#0000000FFF200040
(1485778721.322726) can0 090#0000C1FF620C0000
(1485778721.322858) can0 0C0#0020000040000000
(1485778721.323362) can0 150#A096500000000000
(1485778721.327258) can0 0B0#00004381E68013C3
(1485778721.327513) can0 0A5#007EEB7800B54800
(1485778721.327760) can0 140#00009C00000D2A24
(1485778721.328010) can0 1B5#000001D66AD0FFFC
(1485778721.328264) can0 060#0000000000000000
(1485778721.328364) can0 030#8002A180A000B207
(1485778721.328631) can0 170#04000000D0000000
(1485778721.328865) can0 17E#C010004000200000
(1485778721.329115) can0 229#6000000000000000
(1485778721.329364) can0 260#8882BE0DB5E1B800
(1485778721.329616) can0 010#01A400000000804B
(1485778721.329865) can0 190#8000800080008000
(1485778721.330119) can0 218#00008F003C7DC0D8
(1485778721.330365) can0 269#00000529AA85FF00
(1485778721.330596) can0 290#8600400100027702
(1485778721.330846) can0 298#0000001BD82B0800
(1485778721.331094) can0 2A0#0000000030000000
(1485778721.331345) can0 380#10947CA96000C0A9
(1485778721.331594) can0 2A5#00000000100FF0FF
(1485778721.331845) can0 3B4#401111FF00000000
(1485778721.331969) can0 435#B232B9D276EFB3C4
(1485778721.332594) can0 070#05A709F369F3F000
(1485778721.332846) can0 080#90007D00007FFFF7
(1485778721.333095) can0 090#0000C200620D0000
(1485778721.333343) can0 0A0#0000080000007FFF
(1485778721.333595) can0 0C8#DF873AF6E138C600
(1485778721.333844) can0 0F8#000000000000104D
(1485778721.334095) can0 120#0000000000008000
(1485778721.334344) can0 130#50002000E0000000
(1485778721.334600) can0 138#007D84007800820D
(1485778721.334845) can0 1A0#1F40000080000000
(1485778721.335094) can0 1B0#4100000000403000
(1485778721.335345) can0 208#7F062AE60080FF18
(1485778721.335594) can0 270#5E2F042100000000
(1485778721.335845) can0 280#C400008385254000
(1485778721.336094) can0 2D8#0444808000000000
(1485778721.336383) can0 310#D94430602D450074
(1485778721.336617) can0 340#000000000300662F
(1485778721.336745) can0 360#C0C03F003C7DBCB7
(1485778721.337596) can0 200#F200B7280000C000
(1485778721.338365) can0 030#8002A180A000B207
(1485778721.339494) can0 010#029400000000804B
(1485778721.339740) can0 160#55FF00005783BDFD
(1485778721.339990) can0 180#03000DF51803F000
(1485778721.340238) can0 190#8000800080008000
(1485778721.340492) can0 1C0#77C0000080000000
(1485778721.340730) can0 1D0#A8FFFF0000000000
(1485778721.340969) can0 1E0#000000000000F783
(1485778721.341220) can0 210#00000000F88F0000
(1485778721.341469) can0 213#00F800000FFF7FFF
(1485778721.341720) can0 252#0000000FFF200040
(1485778721.341970) can0 2D0#000001FB73905A85
(1485778721.342594) can0 060#0000000000000000
(1485778721.342873) can0 090#0000C200620D0000
(1485778721.343097) can0 0C0#0020000040000000
(1485778721.343345) can0 150#A096500000000000
(1485778721.345220) can0 455#0000000000000000
(1485778721.347095) can0 0B0#00004381E68013C3
(1485778721.347361) can0 0A5#007EEA7800A55800
(1485778721.347612) can0 0A0#0000080000007FFF
(1485778721.347864) can0 140#00009C00000E1A24
(1485778721.348118) can0 030#800AE1A0E000B287
(1485778721.348485) can0 170#04000000D0000000
(1485778721.349472) can0 010#038400000000804B
(1485778721.349736) can0 190#8000800080008000
(1485778721.352627) can0 070#05A709F369F3F000
(1485778721.352866) can0 080#90007D00007FFFF7
(1485778721.353112) can0 090#0000C200620D0000
(1485778721.353365) can0 0C8#DF873EF2E138C600
(1485778721.353596) can0 0F8#000000000000104D
(1485778721.353865) can0 120#0000000000008000
(1485778721.354097) can0 130#50002000E0000000
(1485778721.354360) can0 138#007D84007800820D
(1485778721.354614) can0 1A0#1F40000080000000
(1485778721.354846) can0 260#8882BE0DB661B800
(1485778721.357620) can0 060#0000000000000000
(1485778721.358239) can0 208#7F072AE60080FF18
(1485778721.358363) can0 030#8002A180A000B207
(1485778721.358608) can0 290#0600400100027702
(1485778721.359492) can0 010#047400000000804B
(1485778721.359722) can0 269#000005295585FF00
(1485778721.359844) can0 160#55FF00005773C5FF
(1485778721.360095) can0 180#03000DF41804F000
(1485778721.360345) can0 190#8000800080008000
(1485778721.360594) can0 1C0#77C0000080000000
(1485778721.360861) can0 1D0#A8FFFF0000000000
(1485778721.361116) can0 1E0#000000000000F873
(1485778721.361347) can0 210#00000000F7910000
(1485778721.361614) can0 213#00F700000FFF8FFF
(1485778721.361861) can0 218#00008F003C7DC0D8
(1485778721.362108) can0 252#0000000FFF200040
(1485778721.362346) can0 2D4#00000000E5FEFFFE
(1485778721.362595) can0 090#0000C200620D0000
(1485778721.362986) can0 0A0#0000080000007FFF
(1485778721.363259) can0 0C0#0020000040000000
(1485778721.363346) can0 150#A095700000000000
(1485778721.363595) can0 1B0#4100000000403000
(1485778721.363845) can0 200#F200B7280000C000
(1485778721.364095) can0 270#5E2F042100000000
(1485778721.364345) can0 280#C400008385254000
(1485778721.364594) can0 2F0#30B00083005C9638
(1485778721.367234) can0 0B0#00004381E68013C3
(1485778721.367363) can0 0A5#007EE97800956800
(1485778721.367614) can0 140#00009C00000F0A24
(1485778721.367874) can0 1B5#000001D66AD0FFFC
(1485778721.368115) can0 298#0000001BD82B0800
(1485778721.368366) can0 030#8002A180A000B207
(1485778721.368631) can0 170#04000000D0000000
(1485778721.368863) can0 229#6000000000000000
(1485778721.369115) can0 2A0#0000000030000000
(1485778721.369365) can0 2A5#00000000100FF0FF
(1485778721.369598) can0 010#056400000000804B
(1485778721.369844) can0 190#8000800080008000
(1485778721.372719) can0 060#0000000000000000
(1485778721.372987) can0 070#05A709F369F3F000
(1485778721.373259) can0 080#90007D00007FFFF7
(1485778721.373491) can0 090#0000C200620C0000
(1485778721.373616) can0 0C8#DF873AF2E138C600
(1485778721.373982) can0 0F8#000000000000104D
(1485778721.374259) can0 120#0000000000008000
(1485778721.374366) can0 130#50002000E0000000
(1485778721.374614) can0 138#007D84007800820D
(1485778721.374865) can0 1A0#1F40000080000000
(1485778721.377743) can0 0A0#0000080000007FFF
(1485778721.378500) can0 030#8003A180A000B207
(1485778721.378739) can0 260#8882BE0DB5E1B800
(1485778721.379491) can0 010#065400000000804B
(1485778721.379735) can0 160#55FF00005763CDFD
(1485778721.380012) can0 180#03000DF61804F000
(1485778721.380239) can0 190#8000800080008000
(1485778721.380472) can0 1C0#77C0000080000000
(1485778721.380719) can0 1D0#A8FFFF0000000000
(1485778721.380970) can0 1E0#000000000000F963
(1485778721.381220) can0 210#00000000F6930000
(1485778721.381470) can0 213#00F600000FFF9FFF
(1485778721.381720) can0 252#0000000FFF200040
(1485778721.381969) can0 2D0#000001FA74905A85
(1485778721.382603) can0 090#0000C200620C0000
(1485778721.382849) can0 0C0#0020000040000000
(1485778721.383240) can0 150#A095500000000000
(1485778721.383614) can0 208#7F043AF66F80FF98
(1485778721.383858) can0 388#0000414279421600
(1485778721.387108) can0 0B0#00004381E68013C3
(1485778721.387370) can0 0A5#007EE87800857800
(1485778721.387620) can0 060#0000000000000000
(1485778721.387844) can0 140#00009C000000FA24
(1485778721.388103) can0 200#F200B7280000C000
(1485778721.388355) can0 030#8002A180A000B207
(1485778721.388609) can0 290#0600C00100027702
(1485778721.388844) can0 170#04000000D0000000
(1485778721.389486) can0 010#074400000000804B
(1485778721.389735) can0 269#000005295585FF00
(1485778721.389985) can0 190#8000800080008000
(1485778721.390236) can0 218#00008F003C7DC0D8
(1485778721.392606) can0 070#05A709F369F3F000
(1485778721.392858) can0 080#90007D00007FFFF7
(1485778721.393110) can0 090#0000C200620C0000
(1485778721.393361) can0 0A0#0000080000007FFF
(1485778721.393610) can0 0C8#DF873EF6E138C600
(1485778721.393858) can0 0F8#000000000000104D
(1485778721.394107) can0 120#0000000000008000
(1485778721.394360) can0 130#50002000E0000000
(1485778721.394594) can0 138#007D84007800820D
(1485778721.394844) can0 1A0#1F40000080000000
(1485778721.395094) can0 1B0#4100000000403000
(1485778721.395345) can0 270#5E2F042100000000
(1485778721.395601) can0 280#C400008385254000
(1485778721.395845) can0 2D8#0444808000000000
(1485778721.398355) can0 04A#02000018000000C0
(1485778721.398490) can0 030#8002A180A000B207
(1485778721.398732) can0 04B#00D8D8D8D8D8C000
(1485778721.398985) can0 405#0167212C0C03F763
(1485778721.399470) can0 010#083400000000804B
(1485778721.399751) can0 160#55FF00005753D5FD
(1485778721.399990) can0 180#03000DF41804F000
(1485778721.400240) can0 190#8000800080008000
(1485778721.400475) can0 1C0#77C0000080000000
(1485778721.400720) can0 1D0#A8FFFF0000000000
(1485778721.400970) can0 1E0#000000000000FA53
(1485778721.401220) can0 210#00000000F5950000
(1485778721.401490) can0 213#00F500000FFFAFFF
(1485778721.401735) can0 252#0000000FFF200040
(1485778721.402622) can0 060#0000000000000000
(1485778721.402871) can0 090#0000C200620C0000
(1485778721.403115) can0 0C0#0020000040000000
(1485778721.403364) can0 150#A095500000000000
(1485778721.403612) can0 260#8882BE0DB561B800
(1485778721.407121) can0 0B0#00004381E68013C3
(1485778721.407365) can0 0A5#007EE77800758800
(1485778721.407618) can0 0A0#0000080000007FFF
(1485778721.407865) can0 140#00009C000001EA24
(1485778721.408115) can0 1B5#000001D66AD0FFFC
(1485778721.408367) can0 030#8002A180A000B207
(1485778721.408596) can0 208#7F092AE60080FF18
(1485778721.408845) can0 170#04000000D0000000
(1485778721.409111) can0 298#0000001BD82B0800
(1485778721.409347) can0 229#6000000000000000
(1485778721.409618) can0 010#092400000000804B
(1485778721.409848) can0 190#8000800080008000
(1485778721.410115) can0 2A0#0000000030000000
(1485778721.410358) can0 2A5#00000000100FF0FF
(1485778721.412738) can0 070#05A709F369F3F000
(1485778721.412994) can0 080#90007D00007FFFF7
(1485778721.413237) can0 090#0000C200620E0000
(1485778721.413367) can0 0C8#DF873AF2E138C600
(1485778721.413617) can0 0F8#000000000000104D
(1485778721.413865) can0 120#0000000000008000
(1485778721.414115) can0 130#50002000E0000000
(1485778721.414365) can0 138#007D84007800820D
(1485778721.414616) can0 1A0#1F40000080000000
(1485778721.414869) can0 200#F200B7290000C000
(1485778721.417615) can0 060#0000000000000000
(1485778721.418490) can0 030#800AE180E000B287
(1485778721.418723) can0 290#8600400100027702
(1485778721.419484) can0 010#0A1400000000804B
(1485778721.419736) can0 269#000005295585FF00
(1485778721.420016) can0 160#55FF00005743DDFD
(1485778721.420239) can0 180#03000DF51804F000
(1485778721.420509) can0 190#8000800080008000
(1485778721.420740) can0 1C0#77C0000080000000
(1485778721.420990) can0 1D0#A8FFFF0000000000
(1485778721.421240) can0 1E0#000000000000FB43
(1485778721.421365) can0 210#00000000F4970000
(1485778721.421622) can0 213#00F400000FFFBFFF
(1485778721.421865) can0 218#00008F003C7DC0D8
(1485778721.422115) can0 252#0000000FFF200040
(1485778721.422362) can0 2D0#000001F975905A85
(1485778721.422618) can0 2D4#00000000E5FEFFFE
(1485778721.422866) can0 090#0000C200620E0000
(1485778721.423114) can0 0A0#0000080000007FFE
(1485778721.423360) can0 0C0#0020000040000000
(1485778721.423596) can0 150#A095500000000000
(1485778721.423845) can0 1B0#4100000000403000
(1485778721.424095) can0 270#5E2F042100000000
(1485778721.424361) can0 280#C400008385254000
(1485778721.427124) can0 0B0#00004381E68013C3
(1485778721.427366) can0 0A5#007EE67800659800
(1485778721.427614) can0 140#00009C000002DA24
(1485778721.428121) can0 030#8002A180A000B207
(1485778721.428367) can0 17E#C010004000278000
(1485778721.428615) can0 260#8882BE0DB561B800
(1485778721.428848) can0 170#04000000D0000000
(1485778721.429511) can0 010#0B0400000000804B
(1485778721.429741) can0 190#8000800080008000
(1485778721.432612) can0 060#0000000000000000
(1485778721.432867) can0 070#05A709F369F3F000
(1485778721.433117) can0 080#90007D00007FFEF7
(1485778721.433362) can0 090#0000C200620E0000
(1485778721.433615) can0 0C8#DF873EF6E138C600
(1485778721.433864) can0 0F8#000000000000104D
(1485778721.434098) can0 120#0000000000008000
(1485778721.434345) can0 130#50002000E0000000
(1485778721.434595) can0 138#007D84007800820D
(1485778721.434845) can0 1A0#1F40000080000000
(1485778721.435107) can0 208#7F072AE60080FF18
(1485778721.435346) can0 310#DB4430602D450074
(1485778721.437596) can0 0A0#0000080000007FFE
(1485778721.437845) can0 200#F200B7290000C000
(1485778721.438346) can0 030#8003A180A000B207
(1485778721.439492) can0 010#0CF400000000804B
(1485778721.439741) can0 160#55FF00005733E5FD
(1485778721.439991) can0 180#03000DF61805F000
(1485778721.440233) can0 190#8000800080008000
(1485778721.440510) can0 1C0#77C0000080000000
(1485778721.440767) can0 1D0#A8FFFF0000000000
(1485778721.440973) can0 1E0#000000000000FC33
(1485778721.441221) can0 210#00000000F3990000
(1485778721.441470) can0 213#00F300000FFFCFFF
(1485778721.441721) can0 252#0000000FFF200040
(1485778721.442595) can0 090#0000C200620E0000
(1485778721.442867) can0 0C0#0020000040000000
(1485778721.443239) can0 150#A095500000000000
(1485778721.443491) can0 40A#FF20000000000000
(1485778721.445741) can0 455#0000000000000000
(1485778721.447120) can0 0B0#00004381E68013C3
(1485778721.447366) can0 0A5#007EE5780055A800
(1485778721.447616) can0 140#00009C000003CA24
(1485778721.447864) can0 060#0000000000000000
(1485778721.448115) can0 1B5#000001D66AD0FFFC
(1485778721.448347) can0 030#8002A180A000B207
(1485778721.448612) can0 290#0600400100027702
(1485778721.448865) can0 170#04000000D0000000
(1485778721.449098) can0 298#0000001BD82B0800
(1485778721.449346) can0 229#6000000000000000
(1485778721.449595) can0 010#0DE400000000804B
(1485778721.449886) can0 190#8000800080008000
(1485778721.450115) can0 218#00008F003C7DC0D8
(1485778721.450386) can0 269#00000529AA85FF00
(1485778721.450614) can0 2A0#0000000030000000
(1485778721.450859) can0 2A5#00000000100FF0FF
(1485778721.452612) can0 070#05A709F369F3F000
(1485778721.452868) can0 080#90007D00007FFEF7
(1485778721.453098) can0 090#0000C200620E0000
(1485778721.453346) can0 0A0#0000080000007FFD
(1485778721.453610) can0 0C8#DF873AF2E138C600
(1485778721.453886) can0 0F8#000000000000104D
(1485778721.454110) can0 120#0000000000008000
(1485778721.454386) can0 130#50002000E0000000
(1485778721.454616) can0 138#007D84007800820D
(1485778721.454848) can0 1A0#1F40000080000000
(1485778721.455112) can0 1B0#4100000000403000
(1485778721.455348) can0 260#8882BE0DB5E1B800
(1485778721.455596) can0 270#5E2F042100000000
(1485778721.455737) can0 280#C400008385254000
(1485778721.455986) can0 2D8#0444808000000000
(1485778721.456362) can0 2F0#30B00083005C9638
(1485778721.456488) can0 340#000000000300662F
(1485778721.458361) can0 030#8002A180A000B207
(1485778721.458634) can0 208#7F082AE60080FF18
(1485778721.459493) can0 010#0ED400000000804B
(1485778721.459742) can0 160#55FF00005723EDFD
(1485778721.460016) can0 180#03000DF51804F000
(1485778721.460240) can0 190#8000800080008000
(1485778721.460513) can0 1C0#77C0000080000000
(1485778721.460736) can0 1D0#A8FFFF0000000000
(1485778721.460973) can0 1E0#000000000000FD23
(1485778721.461221) can0 210#00000000F29B0000
(1485778721.461491) can0 213#00F200000FFFDFFF
(1485778721.461722) can0 252#0000000FFF200040
(1485778721.462011) can0 2D0#000001F876905A85
(1485778721.462630) can0 060#0000000000000000
(1485778721.462865) can0 090#0000C200620E0000
(1485778721.463113) can0 0C0#0020000040000000
(1485778721.463364) can0 150#A095500000000000
(1485778721.463617) can0 200#F200B7290000C000
(1485778721.467100) can0 0B0#00004381E68013C3
(1485778721.467362) can0 0A5#007EE4780045B800
(1485778721.467598) can0 0A0#0000080000007FFE
(1485778721.467863) can0 140#00009C000004BA24
(1485778721.468348) can0 030#8002A180A000B207
(1485778721.468737) can0 170#04000000D0000000
(1485778721.468859) can0 400#0A01030102001353
(1485778721.469486) can0 010#0FC400000000804B
(1485778721.469767) can0 190#8000800080008000
(1485778721.472627) can0 070#05A709F369F3F000
(1485778721.472870) can0 080#90007D00007FFEF7
(1485778721.473112) can0 090#0000C200620E0000
(1485778721.473384) can0 0C8#DF873EF2E138C600
(1485778721.473617) can0 0F8#000000000000104D
(1485778721.473891) can0 120#0000000000008000
(1485778721.474098) can0 130#50002000E0000000
(1485778721.474345) can0 138#007D84007800820D
(1485778721.474596) can0 1A0#1F40000080000000
(1485778721.477597) can0 060#0000000000000000
(1485778721.478370) can0 030#8002A180A000B207
(1485778721.478633) can0 260#8882BE0DB561B800
(1485778721.478866) can0 290#8600400100027702
(1485778721.479491) can0 010#00B400000000804B
(1485778721.479760) can0 160#55FF00005713F5FD
(1485778721.479992) can0 180#03000DF41804F000
(1485778721.480267) can0 190#8000800080008000
(1485778721.480490) can0 1C0#77C0000080000000
(1485778721.480722) can0 1D0#A8FFFF0000000000
(1485778721.480971) can0 1E0#000000000000FE13
(1485778721.481259) can0 210#00000000F19D0000
(1485778721.481491) can0 213#00F100000FFFEFFF
(1485778721.481765) can0 218#00008F003C7DC0D8
(1485778721.481991) can0 252#0000000FFF200040
(1485778721.482267) can0 269#00000529AA85FF00
(1485778721.482486) can0 2D4#00000000E5FEFFFE
(1485778721.482737) can0 090#0000C1FC62050000
(1485778721.482973) can0 0A0#0000080000008005
(1485778721.483221) can0 0C0#0020000040000000
(1485778721.483471) can0 150#A095500000000000
(1485778721.483736) can0 1B0#4100000000403000
(1485778721.483986) can0 208#7F063AF66F80FF98
(1485778721.484235) can0 270#5E2F042100000000
(1485778721.484485) can0 280#C400008385254000
(1485778721.484611) can0 360#C0C03F003C7DB8B7
(1485778721.487111) can0 0B0#00004381E68013C3
(1485778721.487366) can0 0A5#007EE3780035C800
(1485778721.487640) can0 140#00009C000005AA24
(1485778721.487868) can0 1B5#000001D66AD0FFFC
(1485778721.488141) can0 200#F200B7290000C000
(1485778721.488367) can0 298#0000001BD82B0800
(1485778721.488639) can0 030#8002A180A000B207
(1485778721.488861) can0 170#04000000D0000000
(1485778721.489099) can0 229#6000000000000000
(1485778721.489346) can0 2A0#0000000030000000
(1485778721.489599) can0 010#01A400000000804B
(1485778721.489866) can0 190#8000800080008000
(1485778721.490142) can0 2A5#00000000100FF0FF
(1485778721.492611) can0 060#0000000000000000
(1485778721.492864) can0 070#05A709F369F3F000
(1485778721.493113) can0 080#90007D00007FFDF7
(1485778721.493362) can0 090#0000C1FC62050000
(1485778721.493614) can0 0C8#DF873AF2E138C600
(1485778721.493849) can0 0F8#000000000000104D
(1485778721.494096) can0 120#0000000000008000
(1485778721.494359) can0 130#50002000E0000000
(1485778721.494611) can0 138#007D84007800820D
(1485778721.494849) can0 1A0#1F40000080000000
(1485778721.497614) can0 0A0#0000080000008005
(1485778721.498360) can0 030#800BE180E000B287
(1485778721.499490) can0 010#029400000000804B
(1485778721.499765) can0 160#55FF00005703FDFD
(1485778721.499993) can0 180#03000DF71805F000
(1485778721.500268) can0 190#8000800080008000
(1485778721.500492) can0 1C0#77C0000080000000
(1485778721.500739) can0 1D0#A8FFFF0000000000
(1485778721.500987) can0 1E0#000000000000FF03
(1485778721.501224) can0 210#00000000F09F0000
(1485778721.501471) can0 213#00F000000FFFFFFF
(1485778721.501721) can0 252#0000000FFF200040
(1485778721.501988) can0 2D0#000001F777905A85
(1485778721.502616) can0 090#0000C1FC62050000
(1485778721.502870) can0 0C0#0020000040000000
(1485778721.503118) can0 150#A095500000000000
(1485778721.503385) can0 260#8882BE0DB6E1B800
(1485778721.507111) can0 0B0#00004381E68013C3
(1485778721.507364) can0 0A5#007EE2780025D800
(1485778721.507640) can0 060#0000000000000000
(1485778721.507848) can0 140#00009C0000069A24
(1485778721.508221) can0 030#8002A180A000B207
(1485778721.508346) can0 290#0600400100027702
(1485778721.508597) can0 170#04000000D0000000
(1485778721.508864) can0 208#7F092AE60080FF18
(1485778721.509489) can0 010#038400000000804B
(1485778721.509737) can0 190#8000800080008000
(1485778721.509991) can0 218#00008F003C7DC0D8
(1485778721.510263) can0 269#00000529AA85FF00
(1485778721.512622) can0 070#05A709F469F4F000
(1485778721.512871) can0 080#90007D00008002F7
(1485778721.513116) can0 090#0000C1FC62050000
(1485778721.513349) can0 0A0#0000080000008005
(1485778721.513635) can0 0C8#DF873EF6E138C600
(1485778721.513849) can0 0F8#000000000000104D
(1485778721.514096) can0 120#0000000000008000
(1485778721.514362) can0 130#50002000E0000000
(1485778721.514612) can0 138#007D84007800820D
(1485778721.514847) can0 1A0#1F40000080000000
(1485778721.515108) can0 1B0#4100000000403000
(1485778721.515348) can0 200#F200B7290000C000
(1485778721.515596) can0 270#5E2F042100000000
(1485778721.515864) can0 280#C400008285254000
(1485778721.516114) can0 2D8#0444808000000000
(1485778721.518360) can0 030#8002A180A000B207
(1485778721.519493) can0 010#047400000000804B
(1485778721.519745) can0 160#55FF000057F385FD
(1485778721.519991) can0 180#03000DF31804F000
(1485778721.520263) can0 190#8000800080008000
(1485778721.520492) can0 1C0#77C0000080000000
(1485778721.520724) can0 1D0#A8FFFF0000000000
(1485778721.521011) can0 1E0#000000000000F0F3
(1485778721.521245) can0 210#00000000FF810000
(1485778721.521488) can0 213#00FF00000FFF0FFF
(1485778721.521723) can0 252#0000000FFF200040
(1485778721.522613) can0 060#0000000000000000
(1485778721.522865) can0 090#0000C1FF620A0000
(1485778721.523105) can0 0C0#0020000040000000
(1485778721.523358) can0 150#A095500000000000
(1485778721.527117) can0 0B0#00004381E68013C3
(1485778721.527387) can0 0A5#007EE1780015E800
(1485778721.527636) can0 0A0#0000080000008005
(1485778721.527866) can0 140#00009C0000078A24
(1485778721.528098) can0 1B5#000001D66AD0FFFC
(1485778721.528346) can0 030#8002A180A000B207
(1485778721.528614) can0 17E#C010004000200000
(1485778721.528867) can0 170#04000000D0000000
(1485778721.529110) can0 260#8882C30DB661B800
(1485778721.529349) can0 229#6000000000000000
(1485778721.529484) can0 010#056400000000804B
(1485778721.529756) can0 190#8000800080008000
(1485778721.529990) can0 298#0000001BD82B0800
(1485778721.530365) can0 2A0#0000000030000000
(1485778721.530490) can0 2A5#00000000100FF0FF
(1485778721.532611) can0 070#05A709F469F4F000
(1485778721.532872) can0 080#90007D00008003F7
(1485778721.533105) can0 090#0000C1FF620A0000
(1485778721.533366) can0 0F8#000000000000104D
(1485778721.533617) can0 0C8#DF873EF2E138C600
(1485778721.533887) can0 120#0000000000008000
(1485778721.534136) can0 130#50002000E0000000
(1485778721.534389) can0 138#007D84007800820D
(1485778721.534599) can0 1A0#1F40000080000000
(1485778721.534846) can0 208#7F062AE60080FF18
(1485778721.535097) can0 310#D94430602D450074
(1485778721.537597) can0 060#0000000000000000
(1485778721.537846) can0 200#F200B7290000C000
(1485778721.538243) can0 030#8002A180A000B207
(1485778721.538489) can0 290#0600400100027702
(1485778721.539493) can0 010#065400000000804B
(1485778721.539743) can0 160#55FF000057E38DFD
(1485778721.540011) can0 180#03000DF51805F000
(1485778721.540240) can0 190#8000800080008000
(1485778721.540516) can0 1C0#77C0000080000000
(1485778721.540738) can0 1D0#A8FFFF0000000000
(1485778721.540972) can0 1E0#000000000000F1E3
(1485778721.541221) can0 210#00000000FE830000
(1485778721.541490) can0 213#00FE00000FFF1FFF
(1485778721.541724) can0 218#00008F003C7DC0D8
(1485778721.542012) can0 252#0000000FFF200040
(1485778721.542241) can0 269#00000529AA85FF00
(1485778721.542369) can0 2D0#000001F678905A85
(1485778721.542613) can0 090#0000C1FF620A0000
(1485778721.542866) can0 0A0#0000080000008002
(1485778721.543112) can0 0C0#0020000040000000
(1485778721.543361) can0 150#A095500000000000
(1485778721.543610) can0 1B0#4100000000403000
(1485778721.543862) can0 270#5E2F042100000000
(1485778721.544114) can0 280#C400008285254000
(1485778721.544364) can0 2D4#00000000E5FEFFFE
(1485778721.544600) can0 2F0#30B00082005C9638
(1485778721.545471) can0 455#0000000000000000
(1485778721.547107) can0 0B0#00004381E68013C3
(1485778721.547361) can0 0A5#007EE0780005F800
(1485778721.547612) can0 140#00009C0000087A24
(1485778721.548236) can0 030#8002A180A000B207
(1485778721.548491) can0 170#04000000D0000000
(1485778721.549491) can0 010#074400000000804B
(1485778721.549742) can0 190#8000800080008000
(1485778721.552630) can0 060#0000000000000000
(1485778721.552866) can0 070#05A709F469F4F000
(1485778721.553139) can0 080#90007D00008003F7
(1485778721.553367) can0 090#0000C1FF620A0000
(1485778721.553633) can0 0C8#DF873AF2E138C600
(1485778721.553859) can0 0F8#000000000000104D
(1485778721.554096) can0 120#0000000000008000
(1485778721.554346) can0 130#50002000E0000000
(1485778721.554616) can0 138#007D84007800820D
(1485778721.554888) can0 1A0#1F40000080000000
(1485778721.555142) can0 260#8882C30DB561B800
(1485778721.557618) can0 0A0#0000080000008002
(1485778721.558493) can0 030#8003A180A000B207
(1485778721.558741) can0 208#7F052AE60080FF18
(1485778721.559491) can0 010#083400000000804B
(1485778721.559767) can0 160#55FF000057D395FD
(1485778721.560019) can0 180#03000DF51804F000
(1485778721.560267) can0 190#8000800080008000
(1485778721.560509) can0 1C0#77C0000080000000
(1485778721.560760) can0 1D0#A8FFFF0000000000
(1485778721.560980) can0 1E0#000000000000F2D3
(1485778721.561222) can0 210#00000000FD850000
(1485778721.561471) can0 213#00FD00000FFF2FFF
(1485778721.561722) can0 252#0000000FFF200040
(1485778721.562616) can0 090#0000C200620B0000
(1485778721.562868) can0 0C0#0020000040000000
(1485778721.563117) can0 200#F200B7290000C000
(1485778721.563366) can0 150#A095500000000000
(1485778721.567105) can0 0B0#00004381E68013C3
(1485778721.567366) can0 140#00009C0000096A24
(1485778721.567616) can0 060#0000000000000000
(1485778721.568243) can0 0A5#007EEF7800F50800
(1485778721.568492) can0 030#8002A180A000B207
(1485778721.568724) can0 170#04000000D0000000
(1485778721.568986) can0 1B5#000001D66AD0FFFC
(1485778721.569261) can0 229#6000000000000000
(1485778721.569493) can0 290#8600400100027502
(1485778721.569597) can0 010#092400000000804B
(1485778721.569993) can0 190#8000800080008000
(1485778721.570117) can0 218#00008F003C7DC0D8
(1485778721.570362) can0 269#000005295585FF00
(1485778721.570617) can0 298#0000001BD82B0800
(1485778721.570866) can0 2A0#0000000030000000
(1485778721.571117) can0 40A#FF21000000000000
(1485778721.571361) can0 2A5#00000000100FF0FF
(1485778721.572612) can0 070#05A709F469F4F000
(1485778721.572869) can0 080#90007D00008002F7
(1485778721.573117) can0 090#0000C200620B0000
(1485778721.573349) can0 0A0#0000080000008001
(1485778721.573597) can0 0C8#DF873AF6E138C600
(1485778721.573863) can0 0F8#000000000000104D
(1485778721.574116) can0 120#0000000000008000
(1485778721.574386) can0 130#50002000E0000000
(1485778721.574611) can0 138#007D84007800820D
(1485778721.574849) can0 1A0#1F40000080000000
(1485778721.575113) can0 1B0#4100000000403000
(1485778721.575362) can0 270#5E2F042100000000
(1485778721.575599) can0 280#C400008385254000
(1485778721.575847) can0 2D8#0444808000000000
(1485778721.575993) can0 340#000000000300662F
(1485778721.578489) can0 030#8002A180A000B207
(1485778721.578739) can0 260#8882C30DB6E1B800
(1485778721.579488) can0 010#0A1400000000804B
(1485778721.579762) can0 160#55FF000057C39DFD
(1485778721.579992) can0 180#03000DF51804F000
(1485778721.580264) can0 190#8000800080008000
(1485778721.580495) can0 1C0#77C0000080000000
(1485778721.580728) can0 1D0#A8FFFF0000000000
(1485778721.580980) can0 1E0#000000000000F3C3
(1485778721.581230) can0 210#00000000FC870000
(1485778721.581494) can0 213#00FC00000FFF3FFF
(1485778721.581729) can0 252#0000000FFF200040
(1485778721.582014) can0 2D0#000001F579905A85
(1485778721.582621) can0 060#0000000000000000
(1485778721.582870) can0 090#0000C200620B0000
(1485778721.583118) can0 0C0#0020000040000000
(1485778721.583366) can0 150#A095500000000000
(1485778721.583864) can0 208#7F0A3AF66F80FF98
(1485778721.587119) can0 0B0#00004381E68013C3
(1485778721.587367) can0 140#00009C00000A5A24
(1485778721.587636) can0 0A0#0000080000008001
(1485778721.587866) can0 200#F200B72A0000C000
(1485778721.588223) can0 0A5#007EEE7800E51800
(1485778721.588513) can0 030#800AE180E000B287
(1485778721.588743) can0 170#04000000D0000000
(1485778721.589488) can0 010#0B0400000000804B
(1485778721.589741) can0 190#8000800080008000
(1485778721.592599) can0 070#05A709F469F4F000
(1485778721.592868) can0 080#90007D00008002F7
(1485778721.593120) can0 090#0000C200620B0000
(1485778721.593355) can0 0C8#DF873EF2E138C600
(1485778721.593600) can0 0F8#000000000000104D
(1485778721.593865) can0 120#0000000000008000
(1485778721.594136) can0 130#50002000E0000000
(1485778721.594350) can0 138#007D84007800820D
(1485778721.594598) can0 1A0#1F40000080000000
(1485778721.597598) can0 060#0000000000000000
(1485778721.598373) can0 030#8002A180A000B207
(1485778721.598614) can0 290#0600400100027502
(1485778721.599493) can0 010#0CF400000000804B
(1485778721.599761) can0 160#55FF000057B3A5FD
(1485778721.600016) can0 180#03000DF61804F000
(1485778721.600232) can0 190#8000800080008000
(1485778721.600492) can0 1C0#77C0000080000000
(1485778721.600769) can0 1D0#A8FFFF0000000000
(1485778721.600974) can0 1E0#000000000000F4B3
(1485778721.601223) can0 210#00000000FB890000
(1485778721.601472) can0 213#00FB00000FFF4FFF
(1485778721.601722) can0 218#00008F003C7DC0D8
(1485778721.602012) can0 252#0000000FFF200040
(1485778721.602111) can0 269#000005295585FF00
(1485778721.602377) can0 2D4#00000000E5FEFFFE
(1485778721.602611) can0 090#0000C1FF62090000
(1485778721.602865) can0 0A0#0000080000008003
(1485778721.603113) can0 0C0#0020000040000000
(1485778721.603365) can0 150#A095500000000000
(1485778721.603614) can0 1B0#4100000000403000
(1485778721.603865) can0 260#8882C30DB561B800
(1485778721.604114) can0 270#5E2F042100000000
(1485778721.604349) can0 280#C400008385254000
(1485778721.607098) can0 0B0#00004381E68013C3
(1485778721.607348) can0 140#00009C00000B4A24
(1485778721.608238) can0 0A5#007EED7800D52800
(1485778721.608487) can0 030#8002A180A000B207
(1485778721.608737) can0 170#04000000D0000000
(1485778721.608987) can0 1B5#000001D66AD0FFFC
(1485778721.609238) can0 208#7F082AE60080FF18
(1485778721.609489) can0 229#6000000000000000
(1485778721.609738) can0 010#0DE400000000804B
(1485778721.609848) can0 190#8000800080008000
(1485778721.610122) can0 298#0000001BD82B0800
(1485778721.610367) can0 2A0#0000000030000000
(1485778721.610617) can0 2A5#00000000100FF0FF
(1485778721.612630) can0 060#0000000000000000
(1485778721.612866) can0 070#05A709F469F4F000
(1485778721.613141) can0 080#90007D00008002F7
(1485778721.613361) can0 090#0000C1FF62090000
(1485778721.613637) can0 0C8#DF873EF2E138C600
(1485778721.613850) can0 0F8#000000000000104D
(1485778721.614097) can0 120#0000000000008000
(1485778721.614386) can0 130#50002000E0000000
(1485778721.614618) can0 138#007D84007800820D
(1485778721.614875) can0 1A0#1F40000080000000
(1485778721.615138) can0 200#F200B72A0000C000
(1485778721.617613) can0 0A0#0000080000008003
(1485778721.618368) can0 030#8003A180A000B207
(1485778721.619487) can0 010#0ED400000000804B
(1485778721.619761) can0 160#55FF000057A3ADFD
(1485778721.619992) can0 180#03000DF71804F000
(1485778721.620260) can0 190#8000800080008000
(1485778721.620492) can0 1C0#77C0000080000000
(1485778721.620741) can0 1D0#A8FFFF0000000000
(1485778721.620991) can0 1E0#000000000000F5A3
(1485778721.621225) can0 210#00000000FA8B0000
(1485778721.621473) can0 213#00FA00000FFF5FFF
(1485778721.621722) can0 252#0000000FFF200040
(1485778721.622013) can0 2D0#000001F47A905A85
(1485778721.622612) can0 090#0000C1FF62090000
(1485778721.622868) can0 0C0#0020000040000000
(1485778721.623366) can0 150#A095500000000000
(1485778721.627118) can0 0B0#00004381E68013C3
(1485778721.627367) can0 140#00009C00000C3A24
(1485778721.627642) can0 060#0000000000000000
(1485778721.628122) can0 030#8002A180A000B207
(1485778721.628367) can0 0A5#007EEC7800C53800
(1485778721.628606) can0 170#04000000D0000000
(1485778721.628886) can0 17E#C010004000200000
(1485778721.629119) can0 260#8882C30DB6E1B800
(1485778721.629350) can0 290#0600400100027502
(1485778721.629602) can0 010#0FC400000000804B
(1485778721.629865) can0 190#8000800080008000
(1485778721.630111) can0 218#00008F003C7DC0D8
(1485778721.630349) can0 269#000005295585FF00
(1485778721.630473) can0 380#5393FCA96000C0A9
(1485778721.630724) can0 3B4#401111FF00000000
(1485778721.630972) can0 435#B232B9D276EFB3C4
(1485778721.632597) can0 070#05A709F469F4F000
(1485778721.632876) can0 080#90007D00008002F7
(1485778721.633111) can0 090#0000C1FF62090000
(1485778721.633367) can0 0A0#0000080000008003
(1485778721.633638) can0 0C8#DF873AF6E138C600
(1485778721.633890) can0 0F8#000000000000104D
(1485778721.634141) can0 120#0000000000008000
(1485778721.634349) can0 130#50002000E0000000
(1485778721.634598) can0 138#007D84007800820D
(1485778721.634847) can0 1A0#1F40000080000000
(1485778721.635098) can0 1B0#4100000000403000
(1485778721.635348) can0 208#7F062AE60080FF18
(1485778721.635597) can0 270#5E2F042100000000
(1485778721.635723) can0 280#C400008285254000
(1485778721.635972) can0 2D8#0444808000000000
(1485778721.636348) can0 2F0#30B00082005C9638
(1485778721.636489) can0 310#D94430602D450074
(1485778721.636724) can0 360#C0C03F003C7DB8B7
(1485778721.637598) can0 200#F200B72A0000C000
(1485778721.638373) can0 030#8002A180A000B207
(1485778721.639492) can0 010#00B400000000804B
(1485778721.639743) can0 160#55FF00005793B5FD
(1485778721.640012) can0 180#03000DF41804F000
(1485778721.640234) can0 190#8000800080008000
(1485778721.640493) can0 1C0#77C0000080000000
(1485778721.640763) can0 1D0#A8FFFF0000000000
(1485778721.641013) can0 1E0#000000000000F693
(1485778721.641225) can0 210#00000000F98D0000
(1485778721.641473) can0 213#00F900000FFF6FFF
(1485778721.641722) can0 252#0000000FFF200040
(1485778721.642598) can0 060#0000000000000000
(1485778721.642889) can0 090#0000C1FF62090000
(1485778721.643119) can0 0C0#0020000040000000
(1485778721.643369) can0 150#A095700000000000
(1485778721.645350) can0 455#0000000000000000
(1485778721.647119) can0 0B0#00004381E68013C3
(1485778721.647367) can0 140#00009C00000D2A24
(1485778721.647642) can0 0A0#0000080000008003
(1485778721.648110) can0 030#8002A180A000B207
(1485778721.648368) can0 0A5#007EEB7800B54800
(1485778721.648618) can0 170#04000000D0000000
(1485778721.648867) can0 1B5#000001D66AD0FFFC
(1485778721.649143) can0 229#6000000000000000
(1485778721.649350) can0 298#0000001BD82B0800
(1485778721.649601) can0 010#01A400000000804B
(1485778721.649848) can0 190#8000800080008000
(1485778721.650117) can0 2A0#0000000030000000
(1485778721.650350) can0 405#023833003B003C7D
(1485778721.650597) can0 2A5#00000000100FF0FF
(1485778721.652598) can0 070#05A709F469F4F000
(1485778721.652867) can0 080#90007D00008003F7
(1485778721.653121) can0 090#0000C1FF62090000
(1485778721.653366) can0 0F8#000000000000104D
(1485778721.653637) can0 0C8#DF873AF2E138C600
(1485778721.653863) can0 120#0000000000008000
(1485778721.654147) can0 130#50002000E0000000
(1485778721.654369) can0 138#007D84007800820D
(1485778721.654600) can0 1A0#1F40000080000000
(1485778721.654730) can0 260#8882C33DB661B800
(1485778721.657598) can0 060#0000000000000000
(1485778721.658617) can0 030#800AE1A0E000B287
(1485778721.658746) can0 290#8600400100027502
(1485778721.658994) can0 208#7F072AE60080FF18
(1485778721.659494) can0 010#029400000000804B
(1485778721.659769) can0 160#55FF00005783BDFD
(1485778721.659985) can0 180#03000DF61804F000
(1485778721.660264) can0 190#8000800080008000
(1485778721.660494) can0 1C0#77C0000080000000
(1485778721.660765) can0 1D0#A8FFFF0000000000
(1485778721.660992) can0 1E0#000000000000F783
