(1485778707.419452) can0 010#029400000000804B
(1485778707.420453) can0 160#55FF00005703FDFD
(1485778707.420701) can0 180#03000DF31803F000
(1485778707.420951) can0 190#8000800080008000
(1485778707.421199) can0 1C0#77C0000080000000
(1485778707.421326) can0 1D0#A8FFFF0000000000
(1485778707.421575) can0 1E0#000000000000FF03
(1485778707.421951) can0 210#00000000F09F0000
(1485778707.422200) can0 213#00EF00010FFFFFFF
(1485778707.422325) can0 252#0000010FFF200040
(1485778707.422576) can0 2D0#000001F777905A85
(1485778707.423201) can0 150#A09F500000000000
(1485778707.423825) can0 060#0000000000000000
(1485778707.424075) can0 090#0000C1FF620B0000
(1485778707.424325) can0 0C0#0020000040000000
(1485778707.426826) can0 0A5#007EEF7800F50800
(1485778707.427076) can0 1B5#000001D66AD0FFFC
(1485778707.427205) can0 298#0000001BD82B0800
(1485778707.428345) can0 030#8002A180A000B207
(1485778707.428580) can0 17E#C010004000200000
(1485778707.428832) can0 0A0#0000080000008001
(1485778707.429089) can0 260#8882BE0DB561B800
(1485778707.429460) can0 010#038400000000804B
(1485778707.430461) can0 190#8000800080008000
(1485778707.430835) can0 269#000005295585FF00
(1485778707.432206) can0 0B0#00004381E68013C3
(1485778707.432452) can0 140#00009C0000069A24
(1485778707.432701) can0 170#04000000D0000000
(1485778707.432951) can0 0C8#DF873AF2E138C600
(1485778707.433200) can0 310#D94430602D450074
(1485778707.433825) can0 070#05A709F469F4F000
(1485778707.434076) can0 080#90007D00008001F7
(1485778707.434326) can0 090#0000C1FE62080000
(1485778707.434576) can0 0F8#000000000000104D
(1485778707.434825) can0 120#0000000000008000
(1485778707.435075) can0 130#50002000E0000000
(1485778707.435326) can0 138#007D84007800820D
(1485778707.435575) can0 1A0#1F40000080000000
(1485778707.438451) can0 030#8002A180A000B207
(1485778707.438574) can0 290#0600400100027702
(1485778707.438827) can0 060#0000000000000000
(1485778707.439202) can0 200#F200B7A20000C000
(1485778707.439452) can0 010#047400000000804B
(1485778707.440453) can0 160#55FF000057F385FD
(1485778707.440577) can0 180#03000DF51805F000
(1485778707.440826) can0 190#8000800080008000
(1485778707.441202) can0 1C0#77C0000080000000
(1485778707.441325) can0 1D0#A8FFFF0000000000
(1485778707.441576) can0 1E0#000000000000F0F3
(1485778707.441825) can0 210#00000000FF810000
(1485778707.442200) can0 213#00FE00010FFF0FFF
(1485778707.442326) can0 218#00008F003C7DC0D8
(1485778707.442575) can0 252#0000010FFF200040
(1485778707.442826) can0 2D4#00000000E5FEFFFE
(1485778707.443326) can0 208#7F043AF66F80FF98
(1485778707.443575) can0 150#A09F500000000000
(1485778707.443826) can0 090#0000C1FE62080000
(1485778707.444075) can0 0A0#0000080000008004
(1485778707.444325) can0 0C0#0020000040000000
(1485778707.444576) can0 1B0#4100000000403000
(1485778707.444861) can0 270#5E2F042100000000
(1485778707.445076) can0 280#C400008185254000
(1485778707.445325) can0 40A#C0013833003C7D00
(1485778707.445950) can0 455#0000000000000000
(1485778707.446826) can0 0A5#007EEE7800E51800
(1485778707.448200) can0 030#8002A180A000B207
(1485778707.449451) can0 010#056400000000804B
(1485778707.450452) can0 190#8000800080008000
(1485778707.452202) can0 0B0#00004381E68013C3
(1485778707.452450) can0 140#00009C0000078A24
(1485778707.452702) can0 170#04000000D0000000
(1485778707.452952) can0 229#6000000000000000
(1485778707.453201) can0 0C8#DF873EF2E138C600
(1485778707.453451) can0 260#8882BE0DB561B800
(1485778707.453701) can0 2A0#0000000030000000
(1485778707.453950) can0 060#0000000000000000
(1485778707.454201) can0 070#05A709F469F4F000
(1485778707.454450) can0 080#90007D00008002F7
(1485778707.454699) can0 090#0000C1FE62080000
(1485778707.454950) can0 0F8#000000000000104D
(1485778707.455199) can0 120#0000000000008000
(1485778707.455451) can0 130#50002000E0000000
(1485778707.455700) can0 138#007D84007800820D
(1485778707.455824) can0 1A0#1F40000080000000
(1485778707.456200) can0 2A5#00000000100FF0FF
(1485778707.458326) can0 030#8003A180A000B207
(1485778707.458701) can0 0A0#0000080000008003
(1485778707.459451) can0 010#065400000000804B
(1485778707.460328) can0 160#55FF000057E38DFD
(1485778707.460579) can0 180#03000DF51803F000
(1485778707.460828) can0 190#8000800080008000
(1485778707.461203) can0 1C0#77C0000080000000
(1485778707.461325) can0 1D0#A8FFFF0000000000
(1485778707.461576) can0 1E0#000000000000F1E3
(1485778707.461826) can0 210#00000000FE830000
(1485778707.462201) can0 213#00FD00010FFF1FFF
(1485778707.462325) can0 252#0000010FFF200040
(1485778707.462576) can0 269#00000529AA85FF00
(1485778707.462828) can0 2D0#000001F678905A85
(1485778707.463201) can0 150#A09F500000000000
(1485778707.463826) can0 090#0000C1FE62080000
(1485778707.464075) can0 0C0#0020000040000000
(1485778707.464327) can0 200#F200B7A20000C000
(1485778707.466826) can0 0A5#007EED7800D52800
(1485778707.466951) can0 1B5#000001D66AD0FFFC
(1485778707.467203) can0 298#0000001BD82B0800
(1485778707.468203) can0 030#8002A180A000B207
(1485778707.468452) can0 208#7F082AE60080FF18
(1485778707.468704) can0 290#8600400100027702
(1485778707.468953) can0 060#0000000000000000
(1485778707.469199) can0 400#1A00010200000000
(1485778707.469451) can0 010#074400000000804B
(1485778707.470452) can0 190#8000800080008000
(1485778707.470576) can0 218#00008F003C7DC0D8
(1485778707.472201) can0 0B0#00004381E68013C3
(1485778707.472453) can0 140#00009C0000087A24
(1485778707.472704) can0 170#04000000D0000000
(1485778707.473203) can0 0C8#DF873AF6E138C600
(1485778707.473837) can0 070#05A709F469F4F000
(1485778707.474078) can0 080#90007D00008002F7
(1485778707.474327) can0 090#0000C200620A0000
(1485778707.474577) can0 0A0#0000080000008001
(1485778707.474827) can0 0F8#000000000000104D
(1485778707.475077) can0 120#0000000000008000
(1485778707.475335) can0 130#50002000E0000000
(1485778707.475577) can0 138#007D84007800820D
(1485778707.475826) can0 1A0#1F40000080000000
(1485778707.476078) can0 1B0#4100000000403000
(1485778707.476326) can0 270#5E2F042100000000
(1485778707.476576) can0 280#C400008185274000
(1485778707.476827) can0 2D8#0444808000000000
(1485778707.478326) can0 030#8002A180A000B207
(1485778707.478578) can0 260#8882BE0DB6E1B800
(1485778707.479451) can0 010#083400000000804B
(1485778707.480453) can0 160#55FF000057D395FD
(1485778707.480578) can0 180#03000DF51804F000
(1485778707.480828) can0 190#8000800080008000
(1485778707.481201) can0 1C0#77C0000080000000
(1485778707.481325) can0 1D0#A8FFFF0000000000
(1485778707.481576) can0 1E0#000000000000F2D3
(1485778707.481826) can0 210#00000000FD850000
(1485778707.482212) can0 213#00FC00010FFF2FFF
(1485778707.482341) can0 252#0000010FFF200040
(1485778707.483203) can0 150#A09F500000000000
(1485778707.483827) can0 060#0000000000000000
(1485778707.484088) can0 090#0000C200620A0000
(1485778707.484327) can0 0C0#0020000040000000
(1485778707.486828) can0 0A5#007EEC7800C53800
(1485778707.488327) can0 030#8002A180A000B207
(1485778707.488703) can0 0A0#0000080000008001
(1485778707.488954) can0 200#F200B7A30000C000
(1485778707.489453) can0 010#092400000000804B
(1485778707.490327) can0 190#8000800080008000
(1485778707.490953) can0 269#00000529AA85FF00
(1485778707.492203) can0 0B0#00004381E68013C3
(1485778707.492451) can0 140#00009C0000096A24
(1485778707.492703) can0 170#04000000D0000000
(1485778707.492955) can0 229#6000000000000000
(1485778707.493203) can0 0C8#DF873EF2E138C600
(1485778707.493453) can0 2A0#0000000030000000
(1485778707.493701) can0 208#7F052AE60080FF18
(1485778707.493837) can0 070#05A709F469F4F000
(1485778707.494201) can0 080#90007D00008002F7
(1485778707.494326) can0 090#0000C200620A0000
(1485778707.494576) can0 0F8#000000000000104D
(1485778707.494827) can0 120#0000000000008000
(1485778707.495201) can0 130#50002000E0000000
(1485778707.495327) can0 138#007D84007800820D
(1485778707.495575) can0 1A0#1F40000080000000
(1485778707.495827) can0 2A5#00000000100FF0FF
(1485778707.498451) can0 030#800AE180E000B287
(1485778707.498704) can0 060#0000000000000000
(1485778707.498953) can0 290#0600400100027702
(1485778707.499454) can0 010#0A1400000000804B
(1485778707.500328) can0 160#55FF000057C39DFD
(1485778707.500579) can0 180#03000DF51804F000
(1485778707.500828) can0 190#8000800080008000
(1485778707.501202) can0 1C0#77C0000080000000
(1485778707.501336) can0 1D0#A8FFFF0000000000
(1485778707.501578) can0 1E0#000000000000F3C3
(1485778707.501827) can0 210#00000000FC870000
(1485778707.502202) can0 213#00FC00000FFF3FFF
(1485778707.502338) can0 218#00008F003C7DC0D8
(1485778707.502575) can0 252#0000000FFF200040
(1485778707.502829) can0 2D0#000001F579905A85
(1485778707.503076) can0 2D4#00000000E5FEFFFE
(1485778707.503329) can0 150#A09F500000000000
(1485778707.503577) can0 260#8882BE0DB561B800
(1485778707.503952) can0 090#0000C200620B0000
(1485778707.504202) can0 0A0#0000080000008001
(1485778707.504452) can0 0C0#0020000040000000
(1485778707.504702) can0 1B0#4100000000403000
(1485778707.504951) can0 270#5E2F042100000000
(1485778707.505202) can0 280#C400008185274000
(1485778707.505451) can0 2F0#30B00081005C9638
(1485778707.506829) can0 0A5#007EEB7800B54800
(1485778707.506952) can0 1B5#000001D66AD0FFFC
(1485778707.507201) can0 298#0000001BD82B0800
(1485778707.508326) can0 030#8002A180A000B207
(1485778707.509453) can0 010#0B0400000000804B
(1485778707.510454) can0 190#8000800080008000
(1485778707.512204) can0 0B0#00004381E68013C3
(1485778707.512453) can0 140#00009C00000A5A24
(1485778707.512830) can0 170#04000000D0000000
(1485778707.513204) can0 0C8#DF873AF6E138C600
(1485778707.513829) can0 060#0000000000000000
(1485778707.514078) can0 070#05A709F369F3F000
(1485778707.514329) can0 080#90007D00008000F7
(1485778707.514452) can0 090#0000C200620B0000
(1485778707.514701) can0 0F8#000000000000104D
(1485778707.515077) can0 120#0000000000008000
(1485778707.515201) can0 130#50002000E0000000
(1485778707.515452) can0 138#007D84007800820D
(1485778707.515701) can0 1A0#1F40000080000000
(1485778707.515951) can0 200#F200B7A30000C000
(1485778707.518457) can0 030#8003A180A000B207
(1485778707.518754) can0 208#7F082AE60080FF18
(1485778707.519002) can0 0A0#0000080000008000
(1485778707.519468) can0 010#0CF400000000804B
(1485778707.520361) can0 160#55FF000057B3A5FD
(1485778707.520629) can0 180#03000DF51803F000
(1485778707.520840) can0 190#8000800080008000
(1485778707.521223) can0 1C0#77C0000080000000
(1485778707.521347) can0 1D0#A8FFFF0000000000
(1485778707.521596) can0 1E0#000000000000F4B3
(1485778707.521842) can0 210#00000000FB890000
(1485778707.522217) can0 213#00FA00010FFF4FFF
(1485778707.522353) can0 252#0000010FFF200040
(1485778707.522579) can0 269#00000529AA85FF00
(1485778707.523202) can0 150#A09F500000000000
(1485778707.523848) can0 090#0000C200620B0000
(1485778707.524112) can0 0C0#0020000040000000
(1485778707.526848) can0 0A5#007EEA7800A55800
(1485778707.528254) can0 030#8002A180A000B207
(1485778707.528516) can0 17E#C010004000200000
(1485778707.528744) can0 260#8882BE0DB6E1B800
(1485778707.529003) can0 060#0000000000000000
(1485778707.529261) can0 290#0600400100027702
(1485778707.529327) can0 380#10937CA96000C0A9
(1485778707.529643) can0 010#0DE400000000804B
(1485778707.529838) can0 3B4#401111FF00000000
(1485778707.530095) can0 435#B22EB9D276EFB3C4
(1485778707.530328) can0 190#8000800080008000
(1485778707.530577) can0 218#00008F003C7DC0D8
(1485778707.532221) can0 0B0#00004381E68013C3
(1485778707.532525) can0 140#00009C00000B4A24
(1485778707.532747) can0 170#04000000D0000000
(1485778707.532980) can0 229#6000000000000000
(1485778707.533220) can0 2A0#0000000030000000
(1485778707.533474) can0 0C8#DF873EF2E138C600
(1485778707.533722) can0 2A5#00000000100FF0FF
(1485778707.533972) can0 070#05A709F469F4F000
(1485778707.534204) can0 080#90007D00008001F7
(1485778707.534451) can0 090#0000C200620B0000
(1485778707.534702) can0 0A0#0000080000008000
(1485778707.534951) can0 0F8#000000000000104D
(1485778707.535202) can0 120#0000000000008000
(1485778707.535451) can0 130#50002000E0000000
(1485778707.535702) can0 138#007D84007800820D
(1485778707.535952) can0 1A0#1F40000080000000
(1485778707.536200) can0 1B0#4100000000403000
(1485778707.536453) can0 270#5E2F042100000000
(1485778707.536701) can0 280#C400008185274000
(1485778707.536952) can0 2D8#0444808000000000
(1485778707.537201) can0 310#D94430602D450074
(1485778707.537326) can0 340#000000000300662F
(1485778707.537577) can0 360#C0C03F003C7DB8B7
(1485778707.538451) can0 030#8002A180A000B207
(1485778707.538720) can0 200#F200B7A30000C000
(1485778707.539469) can0 010#0ED400000000804B
(1485778707.540473) can0 160#55FF000057A3ADFD
(1485778707.540590) can0 180#03000DF41803F000
(1485778707.540852) can0 190#8000800080008000
(1485778707.541222) can0 1C0#77C0000080000000
(1485778707.541347) can0 1D0#A8FFFF0000000000
(1485778707.541600) can0 1E0#000000000000F5A3
(1485778707.541851) can0 210#00000000FA8B0000
(1485778707.542205) can0 213#00F900010FFF5FFF
(1485778707.542326) can0 252#0000010FFF200040
(1485778707.542576) can0 2D0#000001F47A905A85
(1485778707.543231) can0 150#A09F500000000000
(1485778707.543704) can0 208#7F093AF66F80FF98
(1485778707.543977) can0 060#0000000000000000
(1485778707.544204) can0 090#0000C1FF620A0000
(1485778707.544452) can0 0C0#0020000040000000
(1485778707.545583) can0 455#0000000000000000
(1485778707.546849) can0 0A5#007EE97800956800
(1485778707.546965) can0 1B5#000001D66AD0FFFC
(1485778707.547226) can0 298#0000001BD82B0800
(1485778707.548220) can0 030#8002A180A000B207
(1485778707.548716) can0 0A0#0000080000008001
(1485778707.549470) can0 010#0FC400000000804B
(1485778707.550341) can0 190#8000800080008000
(1485778707.550976) can0 269#000005295585FF00
(1485778707.552221) can0 0B0#00004381E68013C3
(1485778707.552344) can0 140#00009C00000C3A24
(1485778707.552610) can0 170#04000000D0000000
(1485778707.553224) can0 0C8#DF873AF2E138C600
(1485778707.553350) can0 260#8882BE0DB561B800
(1485778707.553847) can0 070#05A709F469F4F000
(1485778707.553971) can0 080#90007D00008001F7
(1485778707.554228) can0 090#0000C1FF620A0000
(1485778707.554470) can0 0F8#000000000000104D
(1485778707.554729) can0 120#0000000000008000
(1485778707.554974) can0 130#50002000E0000000
(1485778707.555204) can0 138#007D84007800820D
(1485778707.555452) can0 1A0#1F40000080000000
(1485778707.558203) can0 030#8002A180A000B207
(1485778707.558472) can0 290#8600400100027702
(1485778707.558704) can0 060#0000000000000000
(1485778707.559466) can0 010#00B400000000804B
(1485778707.560360) can0 160#55FF00005793B5FD
(1485778707.560597) can0 180#03000DF71805F000
(1485778707.560857) can0 190#8000800080008000
(1485778707.561222) can0 1C0#77C0000080000000
(1485778707.561350) can0 1D0#A8FFFF0000000000
(1485778707.561597) can0 1E0#000000000000F693
(1485778707.561847) can0 210#00000000F98D0000
(1485778707.562222) can0 213#00F900000FFF6FFF
(1485778707.562350) can0 218#00008F003C7DC0D8
(1485778707.562589) can0 252#0000000FFF200040
(1485778707.562829) can0 2D4#00000000E5FEFFFE
(1485778707.563327) can0 150#A09F500000000000
(1485778707.563844) can0 090#0000C1FF620A0000
(1485778707.564092) can0 0A0#0000080000008001
(1485778707.564366) can0 0C0#0020000040000000
(1485778707.564597) can0 1B0#4100000000403000
(1485778707.564830) can0 200#F200B7A30000C000
(1485778707.564961) can0 270#5E2F042100000000
(1485778707.565202) can0 280#C400008185274000
(1485778707.566828) can0 0A5#007EE87800857800
(1485778707.568222) can0 030#8002A180A000B207
(1485778707.568490) can0 40A#FF05010000088000
(1485778707.568724) can0 208#7F072AE60080FF18
(1485778707.569472) can0 010#01A400000000804B
(1485778707.570362) can0 190#8000800080008000
(1485778707.572223) can0 0B0#00004381E68013C3
(1485778707.572498) can0 140#00009C00000D2A24
(1485778707.572725) can0 170#04000000D0000000
(1485778707.572975) can0 229#6000000000000000
(1485778707.573244) can0 2A0#0000000030000000
(1485778707.573474) can0 0C8#DF873AF2E138C600
(1485778707.573723) can0 2A5#00000000100FF0FF
(1485778707.573955) can0 060#0000000000000000
(1485778707.574202) can0 070#05A709F469F4F000
(1485778707.574452) can0 080#90007D00008001F7
(1485778707.574718) can0 090#0000C1FF620A0000
(1485778707.574967) can0 0F8#000000000000104D
(1485778707.575205) can0 120#0000000000008000
(1485778707.575452) can0 130#50002000E0000000
(1485778707.575703) can0 138#007D84007800820D
(1485778707.575952) can0 1A0#1F40000080000000
(1485778707.578453) can0 030#8003A180A000B207
(1485778707.578727) can0 0A0#0000080000008001
(1485778707.578973) can0 260#8882BE0DB5E1B800
(1485778707.579471) can0 010#029400000000804B
(1485778707.580350) can0 160#55FF00005783BDFD
(1485778707.580584) can0 180#03000DF41804F000
(1485778707.580836) can0 190#8000800080008000
(1485778707.581211) can0 1C0#77C0000080000000
(1485778707.581332) can0 1D0#A8FFFF0000000000
(1485778707.581585) can0 1E0#000000000000F783
(1485778707.581835) can0 210#00000000F88F0000
(1485778707.582211) can0 213#00F800000FFF7FFF
(1485778707.582332) can0 252#0000000FFF200040
(1485778707.582585) can0 269#000005295585FF00
(1485778707.582834) can0 2D0#000001F37B905A85
(1485778707.583225) can0 150#A09F500000000000
(1485778707.583848) can0 090#0000C200620B0000
(1485778707.584117) can0 0C0#0020000040000000
(1485778707.586849) can0 0A5#007EE77800758800
(1485778707.586966) can0 1B5#000001D66AD0FFFC
(1485778707.587218) can0 298#0000001BD82B0800
(1485778707.588472) can0 030#800AE1A0E000B287
(1485778707.588741) can0 290#0600C00100027702
(1485778707.588996) can0 060#0000000000000000
(1485778707.589248) can0 200#F200B7A30000C000
(1485778707.589501) can0 010#038400000000804B
(1485778707.590353) can0 190#8000800080008000
(1485778707.590613) can0 218#00008F003C7DC0D8
(1485778707.592203) can0 0B0#00004381E68013C3
(1485778707.592336) can0 140#00009C00000E1A24
(1485778707.592592) can0 170#04000000D0000000
(1485778707.593101) can0 0C8#DF873EF6E138C600
(1485778707.593738) can0 070#05A709F469F4F000
(1485778707.593972) can0 080#90007D00008002F7
(1485778707.594222) can0 090#0000C200620B0000
(1485778707.594475) can0 0A0#0000080000008001
(1485778707.594719) can0 0F8#000000000000104D
(1485778707.594954) can0 120#0000000000008000
(1485778707.595218) can0 130#50002000E0000000
(1485778707.595466) can0 138#007D84007800820D
(1485778707.595705) can0 1A0#1F40000080000000
(1485778707.595952) can0 1B0#4100000000403000
(1485778707.596228) can0 208#7F062AE60080FF18
(1485778707.596455) can0 270#5E2F042100000000
(1485778707.596702) can0 280#C400008185274000
(1485778707.596953) can0 2D8#0444808000000000
(1485778707.597201) can0 2F0#30B00081005C9638
(1485778707.598452) can0 030#8002A180A000B207
(1485778707.599452) can0 010#047400000000804B
(1485778707.600329) can0 160#55FF00005773C5FD
(1485778707.600601) can0 180#03000DF51804F000
(1485778707.600847) can0 190#8000800080008000
(1485778707.601219) can0 1C0#77C0000080000000
(1485778707.601340) can0 1D0#A8FFFF0000000000
(1485778707.601598) can0 1E0#000000000000F873
(1485778707.601847) can0 210#00000000F7910000
(1485778707.602222) can0 213#00F600010FFF8FFF
(1485778707.602351) can0 252#0000010FFF200040
(1485778707.603204) can0 150#A09F700000000000
(1485778707.603342) can0 260#8882BE0DB661B800
(1485778707.603848) can0 060#0000000000000000
(1485778707.604100) can0 090#0000C200620B0000
(1485778707.604340) can0 0C0#0020000040000000
(1485778707.606846) can0 0A5#007EE67800659800
(1485778707.608223) can0 030#8002A180A000B207
(1485778707.608716) can0 0A0#0000080000008000
(1485778707.609473) can0 010#056400000000804B
(1485778707.610362) can0 190#8000800080008000
(1485778707.610972) can0 269#000005295585FF00
(1485778707.612225) can0 0B0#00004381E68013C3
(1485778707.612341) can0 140#00009C00000F0A24
(1485778707.612596) can0 170#04000000D0000000
(1485778707.612859) can0 229#6000000000000000
(1485778707.613221) can0 0C8#DF873EF2E138C600
(1485778707.613345) can0 2A0#0000000030000000
(1485778707.613606) can0 2A5#00000000100FF0FF
(1485778707.613848) can0 070#05A709F469F4F000
(1485778707.614223) can0 080#90007D00008002F7
(1485778707.614348) can0 090#0000C200620B0000
(1485778707.614597) can0 0F8#000000000000104D
(1485778707.614845) can0 120#0000000000008000
(1485778707.615080) can0 130#50002000E0000000
(1485778707.615327) can0 138#007D84007800820D
(1485778707.615578) can0 1A0#1F40000080000000
(1485778707.615827) can0 200#F200B7A40000C000
(1485778707.618452) can0 030#8002A180A000B207
(1485778707.618727) can0 060#0000000000000000
(1485778707.618968) can0 208#7F072AE60080FF18
(1485778707.619218) can0 290#0600400100027702
(1485778707.619478) can0 010#065400000000804B
(1485778707.620341) can0 160#55FF00005763CDFD
(1485778707.620588) can0 180#03000DF61804F000
(1485778707.620839) can0 190#8000800080008000
(1485778707.621205) can0 1C0#77C0000080000000
(1485778707.621338) can0 1D0#A8FFFF0000000000
(1485778707.621594) can0 1E0#000000000000F963
(1485778707.621841) can0 210#00000000F6930000
(1485778707.622235) can0 213#00F500010FFF9FFF
(1485778707.622341) can0 218#00008F003C7DC0D8
(1485778707.622580) can0 252#0000010FFF200040
(1485778707.622829) can0 2D0#000001F27C905A85
(1485778707.623079) can0 2D4#00000000E5FEFFFE
(1485778707.623327) can0 150#A09F500000000000
(1485778707.623827) can0 090#0000C200620B0000
(1485778707.624110) can0 0A0#0000080000008000
(1485778707.624330) can0 0C0#0020000040000000
(1485778707.624577) can0 1B0#4100000000403000
(1485778707.624828) can0 270#5E2F042100000000
(1485778707.625077) can0 280#C400008185264000
(1485778707.626827) can0 0A5#007EE5780055A800
(1485778707.627078) can0 1B5#000001D66AD0FFFC
(1485778707.627327) can0 298#0000001BD82B0800
(1485778707.628452) can0 030#8002A180A000B207
(1485778707.628577) can0 17E#C010004000278000
(1485778707.628846) can0 260#8882BE0DB661B800
(1485778707.629472) can0 010#074400000000804B
(1485778707.630360) can0 190#8000800080008000
(1485778707.632227) can0 0B0#00004381E68013C3
(1485778707.632331) can0 140#00009C000000FA24
(1485778707.632723) can0 170#04000000D0000000
(1485778707.633226) can0 0C8#DF873AF6E138C600
(1485778707.633491) can0 310#DB4430602D450074
(1485778707.633847) can0 060#0000000000000000
(1485778707.634118) can0 070#05A709F469F4F000
(1485778707.634226) can0 080#90007D00008001F7
(1485778707.634478) can0 090#0000C200620B0000
(1485778707.634726) can0 0F8#000000000000104D
(1485778707.634979) can0 120#0000000000008000
(1485778707.635205) can0 130#50002000E0000000
(1485778707.635452) can0 138#007D84007800820D
(1485778707.635703) can0 1A0#1F40000080000000
(1485778707.638327) can0 030#8003A180A000B207
(1485778707.638716) can0 0A0#0000080000008000
(1485778707.638968) can0 200#F200B7A40000C000
(1485778707.639472) can0 010#083400000000804B
(1485778707.640341) can0 160#55FF00005753D5FD
(1485778707.640599) can0 180#03000DF51803F000
(1485778707.640849) can0 190#8000800080008000
(1485778707.641222) can0 1C0#77C0000080000000
(1485778707.641347) can0 1D0#A8FFFF0000000000
(1485778707.641591) can0 1E0#000000000000FA53
(1485778707.641848) can0 210#00000000F5950000
(1485778707.642093) can0 213#00F400010FFFAFFF
(1485778707.642330) can0 252#0000010FFF200040
(1485778707.642578) can0 269#00000529AA85FF00
(1485778707.643329) can0 150#A09F500000000000
(1485778707.643848) can0 090#0000C200620B0000
(1485778707.644124) can0 0C0#0020000040000000
(1485778707.644205) can0 208#7F073AF66F80FF98
(1485778707.645828) can0 455#0000000000000000
(1485778707.647849) can0 0A5#007EE4780045B800
(1485778707.648224) can0 030#8002A180A000B207
(1485778707.648346) can0 290#8600400100027702
(1485778707.648599) can0 405#023833003B003C7D
(1485778707.648847) can0 060#0000000000000000
(1485778707.649473) can0 010#092400000000804B
(1485778707.650465) can0 190#8000800080008000
(1485778707.650596) can0 218#00008F003C7DC0D8
(1485778707.652216) can0 0B0#00004381E68013C3
(1485778707.652494) can0 140#00009C000001EA24
(1485778707.652724) can0 170#04000000D0000000
(1485778707.652971) can0 229#6000000000000000
(1485778707.653247) can0 2A0#0000000030000000
(1485778707.653466) can0 0C8#DF873AF2E138C600
(1485778707.653743) can0 260#8882BE0DB5E1B800
(1485778707.653975) can0 070#05A709F469F4F000
(1485778707.654206) can0 080#90007D00008001F7
(1485778707.654327) can0 090#0000C200620B0000
(1485778707.654578) can0 0A0#0000080000008000
(1485778707.654828) can0 0F8#000000000000104D
(1485778707.655204) can0 120#0000000000008000
(1485778707.655326) can0 130#50002000E0000000
(1485778707.655578) can0 138#007D84007800820D
(1485778707.655829) can0 1A0#1F40000080000000
(1485778707.656205) can0 1B0#4100000000403000
(1485778707.656328) can0 270#5E2F042100000000
(1485778707.656578) can0 280#C400008185264000
(1485778707.656828) can0 2A5#00000000100FF0FF
(1485778707.657078) can0 2D8#0444808000000000
(1485778707.657328) can0 340#000000000300662F
(1485778707.658453) can0 030#800AE180E000B287
(1485778707.659479) can0 010#0A1400000000804B
(1485778707.660353) can0 160#55FF00005743DDFD
(1485778707.660598) can0 180#03000DF51803F000
(1485778707.660845) can0 190#8000800080008000
(1485778707.661223) can0 1C0#77C0000080000000
(1485778707.661348) can0 1D0#A8FFFF0000000000
(1485778707.661592) can0 1E0#000000000000FB43
(1485778707.661846) can0 210#00000000F4970000
(1485778707.662205) can0 213#00F300010FFFBFFF
(1485778707.662328) can0 252#0000010FFF200040
(1485778707.662578) can0 2D0#000001F17D905A85
(1485778707.663204) can0 150#A09F500000000000
(1485778707.663858) can0 060#0000000000000000
(1485778707.664102) can0 090#0000C200620C0000
(1485778707.664368) can0 0C0#0020000040000000
(1485778707.664580) can0 200#F200B7A40000C000
(1485778707.667703) can0 0A5#007EE3780035C800
(1485778707.667976) can0 1B5#000001D66AD0FFFC
(1485778707.668224) can0 030#8002A180A000B207
(1485778707.668472) can0 298#0000001BD82B0800
(1485778707.668833) can0 0A0#0000080000008000
(1485778707.669079) can0 208#7F072AE60080FF18
(1485778707.669466) can0 010#0B0400000000804B
(1485778707.670363) can0 190#8000800080008000
(1485778707.670970) can0 269#00000529AA85FF00
(1485778707.672224) can0 0B0#00004381E68013C3
(1485778707.672350) can0 140#0000BC010002DA24
(1485778707.672598) can0 170#04000000D0000000
(1485778707.673351) can0 0C8#DF873EF2E138C600
(1485778707.673724) can0 070#05A709F469F4F000
(1485778707.673973) can0 080#90007D00008001F7
(1485778707.674223) can0 090#0000C200620C0000
(1485778707.674474) can0 0F8#000000000000104D
(1485778707.674724) can0 120#0000000000008000
(1485778707.674975) can0 130#50002000E0000000
(1485778707.675206) can0 138#007D84007800820D
(1485778707.675467) can0 1A0#1F40000080000000
(1485778707.678331) can0 030#8002A180A000B207
(1485778707.678578) can0 260#8882BE0DB561B800
(1485778707.678828) can0 060#0000000000000000
(1485778707.679078) can0 290#0600400100027702
(1485778707.679463) can0 010#0CF400000000804B
(1485778707.680352) can0 160#55FF00005733E5FD
(1485778707.680598) can0 180#03000DF51804F000
(1485778707.680848) can0 190#8000800080008000
(1485778707.681225) can0 1C0#77C0000080000000
(1485778707.681354) can0 1D0#A8FFFF0000000000
(1485778707.681599) can0 1E0#000000000000FC33
(1485778707.681850) can0 210#00000000F3990000
(1485778707.682222) can0 213#00F200010FFFCFFF
(1485778707.682347) can0 218#00008F003C7DC0D8
(1485778707.682621) can0 252#0000010FFF200040
(1485778707.682850) can0 2D4#00000000E5FEFFFE
(1485778707.683220) can0 150#A09F500000000000
(1485778707.683477) can0 360#C0C03F003C7DB8B7
(1485778707.683844) can0 090#0000C200620C0000
(1485778707.684117) can0 0A0#0000080000008000
(1485778707.684348) can0 0C0#0020000040000000
(1485778707.684593) can0 1B0#4100000000403000
(1485778707.684705) can0 270#5E2F042100000000
(1485778707.684969) can0 280#C400008285264000
(1485778707.685217) can0 2F0#30B00082005C9638
(1485778707.687842) can0 0A5#007EE2780025D800
(1485778707.688238) can0 030#8002A180A000B207
(1485778707.688735) can0 200#F200B7A40000C000
(1485778707.689463) can0 010#0DE400000000804B
(1485778707.690344) can0 190#8000800080008000
(1485778707.692224) can0 0B0#00004381E68013C3
(1485778707.692350) can0 140#0000BC010003CA24
(1485778707.692597) can0 170#04000000D0000000
(1485778707.692976) can0 229#6000000000000000
(1485778707.693239) can0 0C8#DF873AF2E138C600
(1485778707.693337) can0 2A0#0000000030000000
(1485778707.693598) can0 40A#FF06111010000000
(1485778707.693849) can0 060#0000000000000000
(1485778707.694125) can0 070#05A709F469F4F000
(1485778707.694347) can0 080#90007D00008000F7
(1485778707.694598) can0 090#0000C200620C0000
(1485778707.694848) can0 0F8#000000000000104D
(1485778707.695098) can0 120#0000000000008000
(1485778707.695343) can0 130#50002000E0000000
(1485778707.695580) can0 138#007D84007800820D
(1485778707.695829) can0 1A0#1F40000080000000
(1485778707.696078) can0 208#7F072AE60080FF18
(1485778707.696329) can0 2A5#00000000100FF0FF
(1485778707.698453) can0 030#8003A180A000B207
(1485778707.698731) can0 0A0#0000080000008000
(1485778707.699466) can0 010#0ED400000000804B
(1485778707.700354) can0 160#55FF00005723EDFD
(1485778707.700598) can0 180#03000DF41804F000
(1485778707.700846) can0 190#8000800080008000
(1485778707.701225) can0 1C0#77C0000080000000
(1485778707.701341) can0 1D0#A8FFFF0000000000
(1485778707.701600) can0 1E0#000000000000FD23
(1485778707.701847) can0 210#00000000F29B0000
(1485778707.702224) can0 213#00F100010FFFDFFF
(1485778707.702344) can0 252#0000010FFF200040
(1485778707.702600) can0 269#00000529AA85FF00
(1485778707.702834) can0 2D0#000001F07E905A85
(1485778707.703204) can0 150#A09F500000000000
(1485778707.703328) can0 260#8882BE0DB5E1B800
(1485778707.703829) can0 090#0000C200620C0000
(1485778707.704098) can0 0C0#0020000040000000
(1485778707.707705) can0 0A5#007EE1780015E800
(1485778707.707972) can0 1B5#000001D66AD0FFFC
(1485778707.708219) can0 298#0000001BD82B0800
(1485778707.708464) can0 030#8002A180A000B207
(1485778707.708718) can0 060#0000000000000000
(1485778707.708989) can0 290#8600400100027702
(1485778707.709455) can0 010#0FC400000000804B
(1485778707.710328) can0 190#8000800080008000
(1485778707.710605) can0 218#00008F003C7DC0D8
(1485778707.712204) can0 0B0#00004381E68013C3
(1485778707.712337) can0 140#00009C000004BA24
(1485778707.712592) can0 170#04000000D0000000
(1485778707.713225) can0 0C8#DF873EF6E138C600
(1485778707.714225) can0 070#05A709F469F4F000
(1485778707.714349) can0 080#90007D00008000F7
(1485778707.714598) can0 090#0000C200620C0000
(1485778707.714849) can0 0A0#0000080000008000
(1485778707.715096) can0 0F8#000000000000104D
(1485778707.715348) can0 120#0000000000008000
(1485778707.715599) can0 130#50002000E0000000
(1485778707.715848) can0 138#007D84007800820D
(1485778707.716100) can0 1A0#1F40000080000000
(1485778707.716329) can0 1B0#4100000000403000
(1485778707.716579) can0 200#F200B7A50000C000
(1485778707.716828) can0 270#5E2F042100000000
(1485778707.717079) can0 280#C400008285264000
(1485778707.717329) can0 2D8#0444808000000000
(1485778707.718453) can0 030#8002A180A000B207
(1485778707.718730) can0 400#1B01020002020000
(1485778707.719100) can0 208#7F072AE60080FF18
(1485778707.719456) can0 010#00B400000000804B
(1485778707.720330) can0 160#55FF00005713F5FD
(1485778707.720593) can0 180#03000DF51804F000
(1485778707.720844) can0 190#8000800080008000
(1485778707.721220) can0 1C0#77C0000080000000
(1485778707.721347) can0 1D0#A8FFFF0000000000
(1485778707.721598) can0 1E0#000000000000FE13
(1485778707.721831) can0 210#00000000F19D0000
(1485778707.722203) can0 213#00F000010FFFEFFF
(1485778707.722346) can0 252#0000010FFF200040
(1485778707.723333) can0 150#A09F500000000000
(1485778707.723849) can0 060#0000000000000000
(1485778707.724124) can0 090#0000C200620C0000
(1485778707.724349) can0 0C0#0020000040000000
(1485778707.727850) can0 0A5#007EE0780005F800
(1485778707.728221) can0 030#8002A180A000B207
(1485778707.728464) can0 17E#C010004000200000
(1485778707.728743) can0 260#8882BE0DB561B800
(1485778707.728975) can0 0A0#0000080000008000
(1485778707.729475) can0 010#01A400000000804B
(1485778707.730343) can0 190#8000800080008000
(1485778707.731099) can0 269#00000529AA85FF00
(1485778707.732224) can0 0B0#00004381E68013C3
(1485778707.732351) can0 140#00009C000005AA24
(1485778707.732587) can0 170#04000000D0000000
(1485778707.732863) can0 229#6000000000000000
(1485778707.733225) can0 2A0#0000000030000000
(1485778707.733350) can0 0C8#DF873EF2E138C600
(1485778707.733597) can0 2A5#00000000100FF0FF
(1485778707.733851) can0 070#05A709F469F4F000
(1485778707.734223) can0 080#90007D00008000F7
(1485778707.734349) can0 090#0000C1FF620A0000
(1485778707.734581) can0 0F8#000000000000104D
(1485778707.734829) can0 120#0000000000008000
(1485778707.735204) can0 130#50002000E0000000
(1485778707.735330) can0 138#007D84007800820D
(1485778707.735579) can0 1A0#1F40000080000000
(1485778707.735829) can0 310#D94430602D450074
(1485778707.738328) can0 030#800AE180E000B287
(1485778707.738588) can0 290#0600400100027702
(1485778707.738870) can0 060#0000000000000000
(1485778707.739100) can0 200#F200B7A50000C000
(1485778707.739474) can0 010#029400000000804B
(1485778707.740346) can0 160#55FF00005703FDFD
(1485778707.740610) can0 180#03000DF61804F000
(1485778707.740851) can0 190#8000800080008000
(1485778707.741206) can0 1C0#77C0000080000000
(1485778707.741345) can0 1D0#A8FFFF0000000000
(1485778707.741582) can0 1E0#000000000000FF03
(1485778707.741829) can0 210#00000000F09F0000
(1485778707.742205) can0 213#00EF00010FFFFFFF
(1485778707.742328) can0 218#00008F003C7DC0D8
(1485778707.742579) can0 252#0000010FFF200040
(1485778707.742831) can0 2D0#000001EF7F905A85
(1485778707.743079) can0 2D4#00000000E5FEFFFE
(1485778707.743329) can0 150#A09F500000000000
(1485778707.743829) can0 090#0000C1FF620A0000
(1485778707.744118) can0 0A0#0000080000008001
(1485778707.744205) can0 0C0#0020000040000000
(1485778707.744453) can0 1B0#4100000000403000
(1485778707.744703) can0 208#7F063AF66F80FF98
(1485778707.744954) can0 270#5E2F042100000000
(1485778707.745204) can0 280#C400008285264000
(1485778707.745454) can0 388#0000414279421600
(1485778707.745828) can0 455#0000000000000000
(1485778707.747830) can0 0A5#007EEF7800F50800
(1485778707.747968) can0 1B5#000001D66AD0FFFC
(1485778707.748230) can0 030#8002A180A000B207
(1485778707.748487) can0 298#0000001BD82B0800
(1485778707.749476) can0 010#038400000000804B
(1485778707.750356) can0 190#8000800080008000
(1485778707.752224) can0 0B0#00004381E68013C3
(1485778707.752353) can0 140#00009C0000069A24
(1485778707.752600) can0 170#04000000D0000000
(1485778707.753221) can0 0C8#DF873AF6E138C600
(1485778707.753476) can0 260#8882BE0DB5E1B800
(1485778707.753724) can0 060#0000000000000000
(1485778707.753973) can0 070#05A709F469F4F000
(1485778707.754224) can0 080#90007D00008001F7
(1485778707.754478) can0 090#0000C1FF620A0000
(1485778707.754724) can0 0F8#000000000000104D
(1485778707.754956) can0 120#0000000000008000
(1485778707.755204) can0 130#50002000E0000000
(1485778707.755454) can0 138#007D84007800820D
(1485778707.755704) can0 1A0#1F40000080000000
(1485778707.758204) can0 030#8003A180A000B207
(1485778707.758726) can0 0A0#0000080000008001
(1485778707.759475) can0 010#047400000000804B
(1485778707.760346) can0 160#55FF000057F385FD
(1485778707.760593) can0 180#03000DF41805F000
(1485778707.760848) can0 190#8000800080008000
(1485778707.761225) can0 1C0#77C0000080000000
(1485778707.761352) can0 1D0#A8FFFF0000000000
(1485778707.761599) can0 1E0#000000000000F0F3
(1485778707.761851) can0 210#00000000FF810000
(1485778707.762224) can0 213#00FE00010FFF0FFF
(1485778707.762349) can0 252#0000010FFF200040
(1485778707.762581) can0 269#000005295585FF00
(1485778707.763332) can0 150#A09F500000000000
(1485778707.763738) can0 090#0000C1FF620A0000
(1485778707.764101) can0 0C0#0020000040000000
(1485778707.764227) can0 200#F200B7A50000C000
(1485778707.767706) can0 0A5#007EEE7800E51800
(1485778707.768224) can0 030#8002A180A000B207
(1485778707.768351) can0 290#0600400100027702
(1485778707.768718) can0 060#0000000000000000
(1485778707.769223) can0 208#7F072AE60080FF18
(1485778707.769470) can0 010#056400000000804B
(1485778707.770343) can0 190#8000800080008000
(1485778707.770598) can0 218#00008F003C7DC0D8
(1485778707.772225) can0 0B0#00004381E68013C3
(1485778707.772354) can0 140#00009C0000078A24
(1485778707.772616) can0 170#04000000D0000000
(1485778707.772852) can0 229#6000000000000000
(1485778707.773236) can0 2A0#0000000030000000
(1485778707.773346) can0 0C8#DF873EF2E138C600
(1485778707.773598) can0 2A5#00000000100FF0FF
(1485778707.773873) can0 070#05A709F469F4F000
(1485778707.774099) can0 080#90007D00008001F7
(1485778707.774332) can0 090#0000C1FF62090000
(1485778707.774579) can0 0A0#0000080000008002
(1485778707.774830) can0 0F8#000000000000104D
(1485778707.775079) can0 120#0000000000008000
(1485778707.775329) can0 130#50002000E0000000
(1485778707.775579) can0 138#007D84007800820D
(1485778707.775829) can0 1A0#1F40000080000000
(1485778707.776079) can0 1B0#4100000000403000
(1485778707.776329) can0 270#5E2F042100000000
(1485778707.776580) can0 280#C400008185254000
(1485778707.776829) can0 2D8#0444808000000000
(1485778707.776954) can0 2F0#30B00081005C9638
(1485778707.777204) can0 340#000000000300662F
(1485778707.778704) can0 030#8002A180A000B207
(1485778707.778958) can0 260#8882BE0DB561B800
(1485778707.779476) can0 010#065400000000804B
(1485778707.780342) can0 160#55FF000057E38DFD
(1485778707.780599) can0 180#03000DF41803F000
(1485778707.780851) can0 190#8000800080008000
(1485778707.781224) can0 1C0#77C0000080000000
(1485778707.781353) can0 1D0#A8FFFF0000000000
(1485778707.781600) can0 1E0#000000000000F1E3
(1485778707.781849) can0 210#00000000FE830000
(1485778707.782234) can0 213#00FD00010FFF1FFF
(1485778707.782343) can0 252#0000010FFF200040
(1485778707.782594) can0 2D0#000001FE70905A85
(1485778707.783223) can0 150#A09F500000000000
(1485778707.783842) can0 060#0000000000000000
(1485778707.784217) can0 090#0000C1FF62090000
(1485778707.784344) can0 0C0#0020000040000000
(1485778707.787739) can0 0A5#007EED7800D52800
(1485778707.787980) can0 1B5#000001D66AD0FFFC
(1485778707.788234) can0 298#0000001BD82B0800
(1485778707.788474) can0 030#8002A180A000B207
(1485778707.788726) can0 0A0#0000080000008002
(1485778707.788973) can0 200#F200B7A60000C000
(1485778707.789457) can0 010#074400000000804B
(1485778707.790331) can0 190#8000800080008000
(1485778707.791104) can0 269#000005295585FF00
(1485778707.792101) can0 0B0#00004381E68013C3
(1485778707.792350) can0 140#00009C0000087A24
(1485778707.792600) can0 170#04000000D0000000
(1485778707.793227) can0 0C8#DF873AF2E138C600
(1485778707.793718) can0 070#05A709F469F4F000
(1485778707.793974) can0 080#90007D00008002F7
(1485778707.794223) can0 090#0000C1FF62090000
(1485778707.794474) can0 0F8#000000000000104D
(1485778707.794724) can0 120#0000000000008000
(1485778707.794957) can0 130#50002000E0000000
(1485778707.795220) can0 138#007D84007800820D
(1485778707.795468) can0 1A0#1F40000080000000
(1485778707.795708) can0 208#7F052AE60080FF18
(1485778707.798329) can0 030#8002A180A000B207
(1485778707.798592) can0 290#8600400100027702
(1485778707.798832) can0 060#0000000000000000
(1485778707.799474) can0 010#083400000000804B
(1485778707.800353) can0 160#55FF000057D395FD
(1485778707.800599) can0 180#03000DF51804F000
(1485778707.800859) can0 190#8000800080008000
(1485778707.801222) can0 1C0#77C0000080000000
(1485778707.801352) can0 1D0#A8FFFF0000000000
(1485778707.801600) can0 1E0#000000000000F2D3
(1485778707.801852) can0 210#00000000FD850000
(1485778707.802123) can0 213#00FC00010FFF2FFF
(1485778707.802350) can0 218#00008F003C7DC0D8
(1485778707.802582) can0 252#0000010FFF200040
(1485778707.802832) can0 2D4#00000000E5FEFFFE
(1485778707.803205) can0 150#A09F500000000000
(1485778707.803330) can0 260#8882BE0DB561B800
(1485778707.803830) can0 090#0000C1FF62090000
(1485778707.804079) can0 0A0#0000080000008002
(1485778707.804330) can0 0C0#0020000040000000
(1485778707.804579) can0 1B0#4100000000403000
(1485778707.804704) can0 270#5E2F042100000000
(1485778707.804955) can0 280#C400008185254000
(1485778707.807705) can0 0A5#007EEC7800C53800
(1485778707.808351) can0 030#8002A180A000B207
(1485778707.809476) can0 010#092400000000804B
(1485778707.810344) can0 190#8000800080008000
(1485778707.812224) can0 0B0#00004381E68013C3
(1485778707.812349) can0 140#0000BC0100096A24
(1485778707.812600) can0 170#04000000D0000000
(1485778707.812870) can0 229#6000000000000000
(1485778707.813125) can0 0C8#DF873AF2E138C600
(1485778707.813368) can0 2A0#0000000030000000
(1485778707.813601) can0 2A5#00000000100FF0FF
(1485778707.813850) can0 060#0000000000000000
(1485778707.814101) can0 070#05A709F469F4F000
(1485778707.814369) can0 080#90007D00008002F7
(1485778707.814582) can0 090#0000C200620C0000
(1485778707.814830) can0 0F8#000000000000104D
(1485778707.815079) can0 120#0000000000008000
(1485778707.815330) can0 130#50002000E0000000
(1485778707.815581) can0 138#007D84007800820D
(1485778707.815831) can0 1A0#1F40000080000000
(1485778707.816080) can0 200#F200B7A60000C000
(1485778707.818579) can0 030#800BE180E000B287
(1485778707.818830) can0 0A0#0000080000008002
(1485778707.819079) can0 40A#FF07080001001008
(1485778707.819330) can0 208#7F062AE60080FF18
(1485778707.819582) can0 010#0A1400000000804B
(1485778707.820331) can0 160#55FF000057C39DFD
(1485778707.820580) can0 180#03000DF41803F000
(1485778707.820829) can0 190#8000800080008000
(1485778707.821205) can0 1C0#77C0000080000000
(1485778707.821340) can0 1D0#A8FFFF0000000000
(1485778707.821615) can0 1E0#000000000000F3C3
(1485778707.821848) can0 210#00000000FC870000
(1485778707.822225) can0 213#00FB00010FFF3FFF
(1485778707.822350) can0 252#0000010FFF200040
(1485778707.822580) can0 269#000005295585FF00
(1485778707.822832) can0 2D0#000001FD71905A85
(1485778707.823331) can0 150#A09F500000000000
(1485778707.823849) can0 090#0000C200620C0000
(1485778707.823973) can0 0C0#0020000040000000
(1485778707.827722) can0 0A5#007EEB7800B54800
(1485778707.827979) can0 1B5#000001D66AD0FFFC
(1485778707.828225) can0 030#8002A180A000B207
(1485778707.828469) can0 17E#C010004000200000
(1485778707.828724) can0 060#0000000000000000
(1485778707.828974) can0 260#8882BE0DB5E1B800
(1485778707.829224) can0 290#0600400100027702
(1485778707.829471) can0 010#0B0400000000804B
(1485778707.829707) can0 298#0000001BD82B0800
(1485778707.829955) can0 380#5393FCA96000C0A9
(1485778707.830205) can0 3B4#401111FF00000000
(1485778707.830455) can0 190#8000800080008000
(1485778707.830744) can0 218#00008F003C7DC0D8
(1485778707.830853) can0 435#B22EB9D276EFB3C4
(1485778707.832082) can0 0B0#00004381E68013C3
(1485778707.832369) can0 140#0000BC01000A5A24
(1485778707.832601) can0 170#04000000D0000000
(1485778707.833351) can0 0C8#DF873EF6E138C600
(1485778707.833601) can0 310#D94430602D450074
(1485778707.833734) can0 070#05A709F469F4F000
(1485778707.833985) can0 080#90007D00008001F7
(1485778707.834207) can0 090#0000C200620C0000
(1485778707.834455) can0 0A0#0000080000008000
(1485778707.834704) can0 0F8#000000000000104D
(1485778707.834955) can0 120#0000000000008000
(1485778707.835204) can0 130#50002000E0000000
(1485778707.835469) can0 138#007D84007800820D
(1485778707.835705) can0 1A0#1F40000080000000
(1485778707.835954) can0 1B0#4100000000403000
(1485778707.836207) can0 270#5E2F042100000000
(1485778707.836455) can0 280#C400008185254000
(1485778707.836705) can0 2D8#0444808000000000
(1485778707.836955) can0 360#C0C03F003C7DB8B7
(1485778707.838205) can0 030#8002A180A000B207
(1485778707.838705) can0 200#F200B7A60000C000
(1485778707.839456) can0 010#0CF400000000804B
(1485778707.840344) can0 160#55FF000057B3A5FD
(1485778707.840598) can0 180#03000DF41804F000
(1485778707.840850) can0 190#8000800080008000
(1485778707.841226) can0 1C0#77C0000080000000
(1485778707.841352) can0 1D0#A8FFFF0000000000
(1485778707.841592) can0 1E0#000000000000F4B3
(1485778707.841851) can0 210#00000000FB890000
(1485778707.842083) can0 213#00FA00010FFF4FFF
(1485778707.842330) can0 252#0000010FFF200040
(1485778707.843207) can0 581#8100FFFFFFFFFFFF
(1485778707.843487) can0 150#A09F500000000000
(1485778707.843843) can0 060#0000000000000000
(1485778707.843968) can0 090#0000C200620C0000
(1485778707.844209) can0 0C0#0020000040000000
(1485778707.844455) can0 208#7F063AF66F80FF98
(1485778707.845579) can0 3DA#0000000000000000
(1485778707.845860) can0 3E2#0000000000000000
(1485778707.846226) can0 3EA#0000000000006000
(1485778707.846476) can0 455#0000000000000000
(1485778707.847731) can0 0A5#007EEA7800A55800
(1485778707.848223) can0 030#8002A180A000B207
(1485778707.848719) can0 0A0#0000080000008000
(1485778707.849475) can0 010#0DE400000000804B
(1485778707.850344) can0 190#8000800080008000
(1485778707.851224) can0 269#00000529AA85FF00
(1485778707.852099) can0 0B0#00004381E68013C3
(1485778707.852350) can0 140#0000BC01000B4A24
(1485778707.852622) can0 170#04000000D0000000
(1485778707.852876) can0 229#6000000000000000
(1485778707.853119) can0 2A0#0000000030000000
(1485778707.853367) can0 0C8#DF873EF2E138C600
(1485778707.853617) can0 260#8882BE0DB561B800
(1485778707.853831) can0 070#05A709F469F4F000
(1485778707.854081) can0 080#90007D00008001F7
(1485778707.854330) can0 090#0000C200620C0000
(1485778707.854580) can0 0F8#000000000000104D
(1485778707.854830) can0 120#0000000000008000
(1485778707.855081) can0 130#50002000E0000000
(1485778707.855330) can0 138#007D84007800820D
(1485778707.855580) can0 1A0#1F40000080000000
(1485778707.855830) can0 2A5#00000000100FF0FF
(1485778707.858330) can0 030#8002A180A000B207
(1485778707.858581) can0 290#0600400100027702
(1485778707.858831) can0 060#0000000000000000
(1485778707.859456) can0 010#0ED400000000804B
(1485778707.860331) can0 160#55FF000057A3ADFD
(1485778707.860618) can0 180#03000DF61804F000
(1485778707.860841) can0 190#8000800080008000
(1485778707.861224) can0 1C0#77C0000080000000
(1485778707.861350) can0 1D0#A8FFFF0000000000
(1485778707.861601) can0 1E0#000000000000F5A3
(1485778707.861849) can0 210#00000000FA8B0000
(1485778707.862100) can0 213#00F900010FFF5FFF
(1485778707.862351) can0 218#00008F003C7DC0D8
(1485778707.862621) can0 252#0000010FFF200040
(1485778707.862850) can0 2D0#000001FC72905A85
(1485778707.863095) can0 2D4#00000000E5FEFFFE
(1485778707.863345) can0 150#A09F500000000000
(1485778707.863706) can0 090#0000C200620C0000
(1485778707.863955) can0 0A0#0000080000008000
(1485778707.864205) can0 0C0#0020000040000000
(1485778707.864455) can0 1B0#4100000000403000
(1485778707.864705) can0 200#F200B7A60000C000
(1485778707.864956) can0 270#5E2F042100000000
(1485778707.865205) can0 280#C400008185254000
(1485778707.865456) can0 2F0#30B00081005C9638
(1485778707.867830) can0 0A5#007EE97800956800
(1485778707.868080) can0 1B5#000001D66AD0FFFC
(1485778707.868330) can0 298#0000001BD82B0800
(1485778707.868580) can0 030#8002A180A000B207
(1485778707.869455) can0 010#0FC400000000804B
(1485778707.869581) can0 208#7F0A2AE60080FF18
(1485778707.870331) can0 190#8000800080008000
(1485778707.872100) can0 0B0#00004381E68013C3
(1485778707.872369) can0 140#0000BC02000C3A24
(1485778707.872596) can0 170#04000000D0000000
(1485778707.873226) can0 0C8#DF873AF6E138C600
(1485778707.873732) can0 060#0000000000000000
(1485778707.873967) can0 070#05A709F469F4F000
(1485778707.874218) can0 080#90007D00008000F7
(1485778707.874475) can0 090#0000C200620C0000
(1485778707.874725) can0 0F8#000000000000104D
(1485778707.874958) can0 120#0000000000008000
(1485778707.875222) can0 130#50002000E0000000
(1485778707.875476) can0 138#007D84007800820D
(1485778707.875706) can0 1A0#1F40000080000000
(1485778707.878456) can0 030#8003A180A000B207
(1485778707.878705) can0 260#8882BE0DB6E1B800
(1485778707.878970) can0 0A0#0000080000008000
(1485778707.879475) can0 010#00B400000000804B
(1485778707.880341) can0 160#55FF00005793B5FD
(1485778707.880600) can0 180#03000DF41804F000
(1485778707.880852) can0 190#8000800080008000
(1485778707.881244) can0 1C0#77C0000080000000
(1485778707.881355) can0 1D0#A8FFFF0000000000
(1485778707.881599) can0 1E0#000000000000F693
(1485778707.881875) can0 210#00000000F98D0000
(1485778707.882100) can0 213#00F800010FFF6FFF
(1485778707.882372) can0 252#0000010FFF200040
(1485778707.882601) can0 269#00000529AA85FF00
(1485778707.883085) can0 150#A09E700000000000
(1485778707.883720) can0 090#0000C200620C0000
(1485778707.883976) can0 0C0#0020000040000000
(1485778707.888208) can0 030#8002A180A000B207
(1485778707.888474) can0 290#8600C00100027702
(1485778707.888725) can0 060#0000000000000000
(1485778707.888968) can0 0A5#007EE87800857800
(1485778707.889227) can0 200#F200B7A60000C000
(1485778707.889501) can0 010#01A400000000804B
(1485778707.890333) can0 190#8000800080008000
(1485778707.890581) can0 218#00008F003C7DC0D8
(1485778707.892099) can0 0B0#00004381E68013C3
(1485778707.892376) can0 140#0000BC01000D2A24
(1485778707.892600) can0 170#04000000D0000000
(1485778707.892850) can0 229#6000000000000000
(1485778707.893100) can0 2A0#0000000030000000
(1485778707.893376) can0 0C8#DF873EF2E138C600
(1485778707.893598) can0 2A5#00000000100FF0FF
(1485778707.893833) can0 070#05A709F469F4F000
(1485778707.894081) can0 080#90007D00008000F7
(1485778707.894331) can0 090#0000C200620D0000
(1485778707.894597) can0 0A0#0000080000007FFF
(1485778707.894832) can0 0F8#000000000000104D
(1485778707.895081) can0 120#0000000000008000
(1485778707.895330) can0 130#50002000E0000000
(1485778707.895581) can0 138#007D84007800820D
(1485778707.895830) can0 1A0#1F40000080000000
(1485778707.895955) can0 1B0#4100000000403000
(1485778707.896210) can0 208#7F052AE60080FF18
(1485778707.896457) can0 270#5E2F042100000000
(1485778707.896706) can0 280#C400008185254000
(1485778707.896955) can0 2D8#0444808000000000
(1485778707.897205) can0 340#000000000300662F
(1485778707.898581) can0 030#800AE1A0E000B287
(1485778707.899474) can0 010#029400000000804B
(1485778707.900356) can0 160#55FF00005783BDFD
(1485778707.900600) can0 180#03000DF71805F000
(1485778707.900851) can0 190#8000800080008000
(1485778707.901225) can0 1C0#77C0000080000000
(1485778707.901350) can0 1D0#A8FFFF0000000000
(1485778707.901594) can0 1E0#000000000000F783
(1485778707.901853) can0 210#00000000F88F0000
(1485778707.902083) can0 213#00F700010FFF7FFF
(1485778707.902330) can0 252#0000010FFF200040
(1485778707.902581) can0 2D0#000001FB73905A85
(1485778707.903083) can0 150#A09E500000000000
(1485778707.903346) can0 260#8882BE0DB661B800
(1485778707.903833) can0 060#0000000000000000
(1485778707.903966) can0 090#0000C200620D0000
(1485778707.904208) can0 0C0#0020000040000000
(1485778707.908206) can0 030#8002A180A000B207
(1485778707.908727) can0 0A0#0000080000007FFF
(1485778707.908995) can0 0A5#007EE77800758800
(1485778707.909220) can0 1B5#000001D66AD0FFFC
(1485778707.909495) can0 298#0000001BD82B0800
(1485778707.909753) can0 010#038400000000804B
(1485778707.910347) can0 190#8000800080008000
(1485778707.911227) can0 269#00000529AA85FF00
(1485778707.912100) can0 0B0#00004381E68013C3
(1485778707.912346) can0 140#0000BC01000E1A24
(1485778707.912621) can0 170#04000000D0000000
(1485778707.913351) can0 0C8#DF873AF2E138C600
(1485778707.913736) can0 070#05A709F469F4F000
(1485778707.913976) can0 080#90007D00008000F7
(1485778707.914225) can0 090#0000C200620D0000
(1485778707.914469) can0 0F8#000000000000104D
(1485778707.914723) can0 120#0000000000008000
(1485778707.914958) can0 130#50002000E0000000
(1485778707.915221) can0 138#007D84007800820D
(1485778707.915475) can0 1A0#1F40000080000000
(1485778707.915708) can0 200#F200B7A70000C000
(1485778707.918332) can0 030#8002A180A000B207
(1485778707.918598) can0 290#0600400100027702
(1485778707.918851) can0 060#0000000000000000
(1485778707.919458) can0 010#047400000000804B
(1485778707.919595) can0 208#7F052AE60080FF18
(1485778707.920342) can0 160#55FF00005773C5FD
(1485778707.920583) can0 180#03000DF51803F000
(1485778707.920830) can0 190#8000800080008000
(1485778707.921206) can0 1C0#77C0000080000000
(1485778707.921340) can0 1D0#A8FFFF0000000000
(1485778707.921581) can0 1E0#000000000000F873
(1485778707.921831) can0 210#00000000F7910000
(1485778707.922102) can0 213#00F600010FFF8FFF
(1485778707.922349) can0 218#00008F003C7DC0D8
(1485778707.922582) can0 252#0000010FFF200040
(1485778707.922841) can0 2D4#00000000E5FEFFFE
(1485778707.923352) can0 150#A09E500000000000
(1485778707.923832) can0 090#0000C201620F0000
(1485778707.923966) can0 0A0#0000080000007FFF
(1485778707.924208) can0 0C0#0020000040000000
(1485778707.924456) can0 1B0#4100000000403000
(1485778707.924723) can0 270#5E2F042100000000
(1485778707.924971) can0 280#C400008185254000
(1485778707.928221) can0 030#8002A180A000B207
(1485778707.928347) can0 17E#C010004000228000
(1485778707.928600) can0 260#8882BE0DB561B800
(1485778707.928849) can0 0A5#007EE67800659800
(1485778707.929475) can0 010#056400000000804B
(1485778707.930343) can0 190#8000800080008000
(1485778707.932103) can0 0B0#00004381E68013C3
(1485778707.932370) can0 140#0000BC01000F0A24
(1485778707.932605) can0 170#04000000D0000000
(1485778707.932853) can0 229#6000000000000000
(1485778707.933226) can0 2A0#0000000030000000
(1485778707.933349) can0 0C8#DF873EF2E138C600
(1485778707.933601) can0 2A5#00000000100FF0FF
(1485778707.933846) can0 060#0000000000000000
(1485778707.934227) can0 070#05A709F369F3F000
(1485778707.934352) can0 080#90007D00007FFFF7
(1485778707.934600) can0 090#0000C201620F0000
(1485778707.934852) can0 0F8#000000000000104D
(1485778707.935083) can0 120#0000000000008000
(1485778707.935330) can0 130#50002000E0000000
(1485778707.935581) can0 138#007D84007800820D
(1485778707.935830) can0 1A0#1F40000080000000
(1485778707.936081) can0 310#D94430602D450074
(1485778707.938348) can0 030#8003A180A000B207
(1485778707.938721) can0 0A0#0000080000007FFD
(1485778707.938976) can0 200#F200B7A70000C000
(1485778707.939475) can0 010#065400000000804B
(1485778707.940349) can0 160#55FF00005763CDFD
(1485778707.940602) can0 180#03000DF41803F000
(1485778707.940852) can0 190#8000800080008000
(1485778707.941226) can0 1C0#77C0000080000000
(1485778707.941340) can0 1D0#A8FFFF0000000000
(1485778707.941598) can0 1E0#000000000000F963
(1485778707.941834) can0 210#00000000F6930000
(1485778707.942081) can0 213#00F500010FFF9FFF
(1485778707.942338) can0 252#0000010FFF200040
(1485778707.942589) can0 269#000005295585FF00
(1485778707.942838) can0 2D0#000001FA74905A85
(1485778707.943344) can0 150#A09E500000000000
(1485778707.943590) can0 40A#FF08080444460244
(1485778707.943838) can0 090#0000C201620F0000
(1485778707.944108) can0 0C0#0020000040000000
(1485778707.944838) can0 208#7F093AF66F80FF98
(1485778707.945995) can0 455#0000000000000000
(1485778707.948222) can0 030#8002A180A000B207
(1485778707.948344) can0 290#8600400100027702
(1485778707.948709) can0 060#0000000000000000
(1485778707.948956) can0 0A5#007EE5780055A800
(1485778707.949224) can0 1B5#000001D66AD0FFFC
(1485778707.949465) can0 010#074400000000804B
(1485778707.949708) can0 298#0000001BD82B0800
(1485778707.950332) can0 190#8000800080008000
(1485778707.950595) can0 218#00008F003C7DC0D8
(1485778707.952085) can0 0B0#00004381E68013C3
(1485778707.952206) can0 140#0000BC010000FA24
(1485778707.952456) can0 170#04000000D0000000
(1485778707.953209) can0 0C8#DF873AF6E138C600
(1485778707.953459) can0 260#8882BE0DB5E1B800
(1485778707.953708) can0 070#05A709F369F3F000
(1485778707.953977) can0 080#90007D00007FFEF7
(1485778707.954217) can0 090#0000C201620F0000
(1485778707.954474) can0 0A0#0000080000007FFE
(1485778707.954726) can0 0F8#000000000000104D
(1485778707.954971) can0 120#0000000000008000
(1485778707.955221) can0 130#50002000E0000000
(1485778707.955456) can0 138#007D84007800820D
(1485778707.955706) can0 1A0#1F40000080000000
(1485778707.955956) can0 1B0#4100000000403000
(1485778707.956206) can0 270#5E2F042100000000
(1485778707.956456) can0 280#C400008185254000
(1485778707.956705) can0 2D8#0444808000000000
(1485778707.956955) can0 2F0#30B00081005C9638
(1485778707.958456) can0 030#8002A180A000B207
(1485778707.959455) can0 010#083400000000804B
(1485778707.960331) can0 160#55FF00005753D5FD
(1485778707.960592) can0 180#03000DF61804F000
(1485778707.960845) can0 190#8000800080008000
(1485778707.961095) can0 1C0#77C0000080000000
(1485778707.961344) can0 1D0#A8FFFF0000000000
(1485778707.961595) can0 1E0#000000000000FA53
(1485778707.961849) can0 210#00000000F5950000
(1485778707.962082) can0 213#00F500000FFFAFFF
(1485778707.962330) can0 252#0000000FFF200040
(1485778707.963206) can0 150#A09E500000000000
(1485778707.963859) can0 060#0000000000000000
(1485778707.963980) can0 090#0000C200620D0000
(1485778707.964221) can0 0C0#0020000040000000
(1485778707.964457) can0 200#F200B7A70000C000
(1485778707.968347) can0 030#8002A180A000B207
(1485778707.968593) can0 400#1C00020200020202
(1485778707.968843) can0 0A0#0000080000007FFF
(1485778707.969093) can0 0A5#007EE4780045B800
(1485778707.969469) can0 010#092400000000804B
(1485778707.969718) can0 208#7F062AE60080FF18
(1485778707.970344) can0 190#8000800080008000
(1485778707.971221) can0 269#000005295585FF00
(1485778707.972099) can0 0B0#00004381E68013C3
(1485778707.972343) can0 140#00009C000001EA24
(1485778707.972594) can0 170#04000000D0000000
(1485778707.972842) can0 229#6000000000000000
(1485778707.973104) can0 2A0#0000000030000000
(1485778707.973342) can0 0C8#DF873AF2E138C600
(1485778707.973593) can0 2A5#00000000100FF0FF
(1485778707.973831) can0 070#05A709F369F3F000
(1485778707.974080) can0 080#90007D00007FFEF7
(1485778707.974330) can0 090#0000C200620D0000
(1485778707.974579) can0 0F8#000000000000104D
(1485778707.974830) can0 120#0000000000008000
(1485778707.975079) can0 130#50002000E0000000
(1485778707.975205) can0 138#007D84007800820D
(1485778707.975455) can0 1A0#1F40000080000000
(1485778707.978456) can0 030#800AE180E000B287
(1485778707.978723) can0 060#0000000000000000
(1485778707.978969) can0 260#8882BE0DB561B800
(1485778707.979220) can0 290#0600400100027702
(1485778707.979471) can0 010#0A1400000000804B
(1485778707.980346) can0 160#55FF00005743DDFD
(1485778707.980597) can0 180#03000DF51804F000
(1485778707.980845) can0 190#8000800080008000
(1485778707.981209) can0 1C0#77C0000080000000
(1485778707.981331) can0 1D0#A8FFFF0000000000
(1485778707.981582) can0 1E0#000000000000FB43
(1485778707.981847) can0 210#00000000F4970000
(1485778707.982098) can0 213#00F300010FFFBFFF
(1485778707.982349) can0 218#00008F003C7DC0D8
(1485778707.982583) can0 252#0000010FFF200040
(1485778707.982830) can0 2D0#000001F975905A85
(1485778707.983083) can0 2D4#00000000E5FEFFFE
(1485778707.983332) can0 150#A09E500000000000
(1485778707.983581) can0 360#C0C03F003C7DBCB7
(1485778707.983831) can0 090#0000C200620D0000
(1485778707.983957) can0 0A0#0000080000007FFF
(1485778707.984206) can0 0C0#0020000040000000
(1485778707.984457) can0 1B0#4100000000403000
(1485778707.984706) can0 270#5E2F042100000000
(1485778707.984956) can0 280#C400008285254000
(1485778707.988206) can0 030#8002A180A000B207
(1485778707.988723) can0 200#F200B7A70000C000
(1485778707.988971) can0 0A5#007EE3780035C800
(1485778707.989219) can0 1B5#000001D66AD0FFFC
(1485778707.989489) can0 298#0000001BD82B0800
(1485778707.989722) can0 010#0B0400000000804B
(1485778707.990348) can0 190#8000800080008000
(1485778707.991961) can0 0B0#00004381E68013C3
(1485778707.992232) can0 140#00009C000002DA24
(1485778707.992470) can0 170#04000000D0000000
(1485778707.993224) can0 0C8#DF873EF2E138C600
(1485778707.993724) can0 060#0000000000000000
(1485778707.993979) can0 070#05A709F369F3F000
(1485778707.994222) can0 080#90007D00007FFEF7
(1485778707.994472) can0 090#0000C200620D0000
(1485778707.994720) can0 0F8#000000000000104D
(1485778707.994959) can0 120#0000000000008000
(1485778707.995207) can0 130#50002000E0000000
(1485778707.995457) can0 138#007D84007800820D
(1485778707.995707) can0 1A0#1F40000080000000
(1485778707.995956) can0 208#7F072AE60080FF18
(1485778707.998461) can0 030#8003A180A000B207
(1485778707.998718) can0 0A0#0000080000007FFF
(1485778707.999470) can0 010#0CF400000000804B
(1485778708.000347) can0 160#55FF00005733E5FD
(1485778708.000596) can0 180#03000DF51804F000
(1485778708.000848) can0 190#8000800080008000
(1485778708.001109) can0 1C0#77C0000080000000
(1485778708.001349) can0 1D0#A8FFFF0000000000
(1485778708.001584) can0 1E0#000000000000FC33
(1485778708.001832) can0 210#00000000F3990000
(1485778708.002082) can0 213#00F200010FFFCFFF
(1485778708.002331) can0 252#0000010FFF200040
(1485778708.002582) can0 269#000005295585FF00
(1485778708.003214) can0 150#A09E500000000000
(1485778708.003341) can0 260#8882BE0DB5E1B800
(1485778708.003707) can0 090#0000C200620E0000
(1485778708.003971) can0 0C0#0020000040000000
(1485778708.008348) can0 030#8002A180A000B207
(1485778708.008489) can0 290#0600400100027702
(1485778708.008722) can0 060#0000000000000000
(1485778708.008972) can0 0A5#007EE2780025D800
(1485778708.009471) can0 010#0DE400000000804B
(1485778708.010348) can0 190#8000800080008000
(1485778708.010599) can0 218#00008F003C7DC0D8
(1485778708.012098) can0 0B0#00004381E68013C3
(1485778708.012209) can0 140#00009C000003CA24
(1485778708.012457) can0 170#04000000D0000000
(1485778708.012833) can0 229#6000000000000000
(1485778708.013099) can0 2A0#0000000030000000
(1485778708.013350) can0 0C8#DF873EF2E138C600
(1485778708.013461) can0 2A5#00000000100FF0FF
(1485778708.013712) can0 070#05A709F369F3F000
(1485778708.013958) can0 080#90007D00007FFEF7
(1485778708.014208) can0 090#0000C200620E0000
(1485778708.014456) can0 0A0#0000080000007FFE
(1485778708.014706) can0 0F8#000000000000104D
(1485778708.014956) can0 120#0000000000008000
(1485778708.015206) can0 130#50002000E0000000
(1485778708.015456) can0 138#007D84007800820D
(1485778708.015707) can0 1A0#1F40000080000000
(1485778708.015957) can0 1B0#4100000000403000
(1485778708.016205) can0 200#F200B7A80000C000
(1485778708.016457) can0 270#5E2F042100000000
(1485778708.016706) can0 280#C400008285254000
(1485778708.016957) can0 2D8#0444808000000000
(1485778708.017217) can0 340#000000000300662F
(1485778708.018456) can0 030#8002A180A000B207
(1485778708.019457) can0 010#0ED400000000804B
(1485778708.019832) can0 208#7F072AE60080FF18
(1485778708.020347) can0 160#55FF00005723EDFD
(1485778708.020597) can0 180#03000DF61804F000
(1485778708.020848) can0 190#8000800080008000
(1485778708.021226) can0 1C0#77C0000080000000
(1485778708.021360) can0 1D0#A8FFFF0000000000
(1485778708.021596) can0 1E0#000000000000FD23
(1485778708.021847) can0 210#00000000F29B0000
(1485778708.022084) can0 213#00F100010FFFDFFF
(1485778708.022332) can0 252#0000010FFF200040
(1485778708.022582) can0 2D0#000001F876905A85
(1485778708.023332) can0 150#A09E500000000000
(1485778708.023723) can0 060#0000000000000000
(1485778708.023972) can0 090#0000C200620E0000
(1485778708.024219) can0 0C0#0020000040000000
(1485778708.028222) can0 030#8002A180A000B207
(1485778708.028354) can0 17E#C010004000200000
(1485778708.028601) can0 260#8882BE0DB561B800
(1485778708.028844) can0 0A0#0000080000007FFE
(1485778708.029222) can0 0A5#007EE1780015E800
(1485778708.029357) can0 1B5#000001D66AD0FFFC
(1485778708.029595) can0 010#0FC400000000804B
(1485778708.029847) can0 298#0000001BD82B0800
(1485778708.030347) can0 190#8000800080008000
(1485778708.031346) can0 269#000005295585FF00
(1485778708.031973) can0 0B0#00004381E68013C3
(1485778708.032221) can0 140#00009C000004BA24
(1485778708.032598) can0 170#04000000D0000000
(1485778708.033224) can0 0C8#DF873AF2E138C600
(1485778708.033472) can0 310#D94430602D450074
(1485778708.033723) can0 070#05A709F369F3F000
(1485778708.033971) can0 080#90007D00007FFEF7
(1485778708.034220) can0 090#0000C200620E0000
(1485778708.034470) can0 0F8#000000000000104D
(1485778708.034707) can0 120#0000000000008000
(1485778708.034957) can0 130#50002000E0000000
(1485778708.035207) can0 138#007D84007800820D
(1485778708.035457) can0 1A0#1F40000080000000
(1485778708.038207) can0 030#8002A180A000B207
(1485778708.038472) can0 290#8600400100027702
(1485778708.038724) can0 060#0000000000000000
(1485778708.038972) can0 200#F200B7A80000C000
(1485778708.039473) can0 010#00B400000000804B
(1485778708.040346) can0 160#55FF00005713F5FD
(1485778708.040598) can0 180#03000DF41806F000
(1485778708.040847) can0 190#8000800080008000
(1485778708.041223) can0 1C0#77C0000080000000
(1485778708.041349) can0 1D0#A8FFFF0000000000
(1485778708.041597) can0 1E0#000000000000FE13
(1485778708.041848) can0 210#00000000F19D0000
(1485778708.042084) can0 213#00F000010FFFEFFF
(1485778708.042332) can0 218#00008F003C7DC0D8
(1485778708.042582) can0 252#0000010FFF200040
(1485778708.042843) can0 2D4#00000000E5FEFFFE
(1485778708.043207) can0 150#A09E500000000000
(1485778708.043847) can0 090#0000C200620F0000
(1485778708.044098) can0 0A0#0000080000007FFD
(1485778708.044346) can0 0C0#0020000040000000
(1485778708.044584) can0 1B0#4100000000403000
(1485778708.044832) can0 270#5E2F042100000000
(1485778708.045083) can0 280#C400008285254000
(1485778708.045332) can0 208#7F053AF66F80FF98
(1485778708.045457) can0 2F0#30B00082005C9638
(1485778708.045708) can0 455#0000000000000000
(1485778708.048207) can0 030#8002A180A000B207
(1485778708.048720) can0 0A5#007EE0780005F800
(1485778708.049473) can0 010#01A400000000804B
(1485778708.050347) can0 190#8000800080008000
(1485778708.051970) can0 0B0#00004381E68013C3
(1485778708.052223) can0 140#00009C000005AA24
(1485778708.052473) can0 170#04000000D0000000
(1485778708.052722) can0 229#6000000000000000
(1485778708.052971) can0 2A0#0000000030000000
(1485778708.053221) can0 0C8#DF873AF2E138C600
(1485778708.053473) can0 260#8882BE0DB561B800
(1485778708.053709) can0 060#0000000000000000
(1485778708.053958) can0 070#05A709F369F3F000
(1485778708.054207) can0 080#90007D00007FFEF7
(1485778708.054473) can0 090#0000C200620F0000
(1485778708.054722) can0 0F8#000000000000104D
(1485778708.054970) can0 120#0000000000008000
(1485778708.055210) can0 130#50002000E0000000
(1485778708.055457) can0 138#007D84007800820D
(1485778708.055707) can0 1A0#1F40000080000000
(1485778708.055957) can0 2A5#00000000100FF0FF
(1485778708.058707) can0 030#800BE180E000B287
(1485778708.058973) can0 0A0#0000080000007FFD
(1485778708.059471) can0 010#029400000000804B
(1485778708.060348) can0 160#55FF00005703FDFD
(1485778708.060596) can0 180#03000DF51802F000
(1485778708.060847) can0 190#8000800080008000
(1485778708.061096) can0 1C0#77C0000080000000
(1485778708.061347) can0 1D0#A8FFFF0000000000
(1485778708.061597) can0 1E0#000000000000FF03
(1485778708.061835) can0 210#00000000F09F0000
(1485778708.062092) can0 213#00F000000FFFFFFF
(1485778708.062334) can0 252#0000000FFF200040
(1485778708.062582) can0 269#00000529AA85FF00
(1485778708.062833) can0 2D0#000001F777905A85
(1485778708.063223) can0 150#A09E500000000000
(1485778708.063723) can0 090#0000C200620F0000
(1485778708.063971) can0 0C0#0020000040000000
(1485778708.064223) can0 200#F200B7A80000C000
(1485778708.068223) can0 030#8002A180A000B207
(1485778708.068472) can0 290#0600400100027702
(1485778708.068728) can0 40A#FF0900002C142400
(1485778708.068973) can0 060#0000000000000000
(1485778708.069472) can0 010#038400000000804B
(1485778708.069847) can0 0A5#007EEF7800F50800
(1485778708.069973) can0 1B5#000001D66AD0FFFC
(1485778708.070220) can0 208#7F0A2AE60080FF18
(1485778708.070472) can0 190#8000800080008000
(1485778708.070724) can0 218#00008F003C7DC0D8
(1485778708.070973) can0 298#0000001BD82B0800
(1485778708.071973) can0 0B0#00004381E68013C3
(1485778708.072223) can0 140#00009C0000069A24
(1485778708.072474) can0 170#04000000D0000000
(1485778708.073224) can0 0C8#DF873EF6E138C600
(1485778708.073710) can0 070#05A709F369F3F000
(1485778708.073970) can0 080#90007D00007FFDF7
(1485778708.074223) can0 090#0000C200620F0000
(1485778708.074471) can0 0A0#0000080000007FFD
(1485778708.074727) can0 0F8#000000000000104D
(1485778708.074960) can0 120#0000000000008000
(1485778708.075221) can0 130#50002000E0000000
(1485778708.075460) can0 138#007D84007800820D
(1485778708.075708) can0 1A0#1F40000080000000
(1485778708.075958) can0 1B0#4100000000403000
(1485778708.076223) can0 270#5E2F042100000000
(1485778708.076473) can0 280#C400008285254000
(1485778708.076708) can0 2D8#0444808000000000
(1485778708.078457) can0 030#8002A180A000B207
(1485778708.078731) can0 260#8882BE0DB6E1B800
(1485778708.079473) can0 010#047400000000804B
(1485778708.080341) can0 160#55FF000057F385FD
(1485778708.080592) can0 180#03000DF51804F000
(1485778708.080841) can0 190#8000800080008000
(1485778708.081224) can0 1C0#77C0000080000000
(1485778708.081352) can0 1D0#A8FFFF0000000000
(1485778708.081590) can0 1E0#000000000000F0F3
(1485778708.081848) can0 210#00000000FF810000
(1485778708.082096) can0 213#00FE00010FFF0FFF
(1485778708.082347) can0 252#0000010FFF200040
(1485778708.083087) can0 150#A09E500000000000
(1485778708.083723) can0 060#0000000000000000
(1485778708.083973) can0 090#0000C200620F0000
(1485778708.084220) can0 0C0#0020000040000000
(1485778708.088210) can0 030#8002A180A000B207
(1485778708.088716) can0 0A0#0000080000007FFD
(1485778708.088966) can0 200#F200B7A90000C000
(1485778708.089474) can0 010#056400000000804B
(1485778708.089849) can0 0A5#007EEE7800E51800
(1485778708.090343) can0 190#8000800080008000
(1485778708.091350) can0 269#00000529AA85FF00
(1485778708.091969) can0 0B0#00004381E68013C3
(1485778708.092223) can0 140#00009C0000078A24
(1485778708.092474) can0 170#04000000D0000000
(1485778708.092721) can0 229#6000000000000000
(1485778708.092972) can0 2A0#0000000030000000
(1485778708.093226) can0 0C8#DF873EF2E138C600
(1485778708.093471) can0 2A5#00000000100FF0FF
(1485778708.093710) can0 070#05A709F369F3F000
(1485778708.093958) can0 080#90007D00007FFDF7
(1485778708.094208) can0 090#0000C200620F0000
(1485778708.094474) can0 0F8#000000000000104D
(1485778708.094724) can0 120#0000000000008000
(1485778708.094959) can0 130#50002000E0000000
(1485778708.095207) can0 138#007D84007800820D
(1485778708.095458) can0 1A0#1F40000080000000
(1485778708.095707) can0 208#7F072AE60080FF18
(1485778708.098458) can0 030#8002A180A000B207
(1485778708.098724) can0 060#0000000000000000
(1485778708.098976) can0 290#0600400100027702
(1485778708.099473) can0 010#065400000000804B
(1485778708.100346) can0 160#55FF000057E38DFD
(1485778708.100619) can0 180#03000DF41805F000
(1485778708.100853) can0 190#8000800080008000
(1485778708.101228) can0 1C0#77C0000080000000
(1485778708.101352) can0 1D0#A8FFFF0000000000
(1485778708.101603) can0 1E0#000000000000F1E3
(1485778708.101853) can0 210#00000000FE830000
(1485778708.102103) can0 213#00FE00000FFF1FFF
(1485778708.102335) can0 218#00008F003C7DC0D8
(1485778708.102592) can0 252#0000000FFF200040
(1485778708.102835) can0 2D0#000001F678905A85
(1485778708.103083) can0 2D4#00000000E5FEFFFE
(1485778708.103332) can0 150#A09E500000000000
(1485778708.103583) can0 260#8882BE0DB561B800
(1485778708.103832) can0 090#0000C200620F0000
(1485778708.104083) can0 0A0#0000080000007FFD
(1485778708.104333) can0 0C0#0020000040000000
(1485778708.104583) can0 1B0#4100000000403000
(1485778708.104707) can0 270#5E2F042100000000
(1485778708.104957) can0 280#C400008285254000
(1485778708.108225) can0 030#8002A180A000B207
(1485778708.109478) can0 010#074400000000804B
(1485778708.109850) can0 0A5#007EED7800D52800
(1485778708.109973) can0 1B5#000001D66AD0FFFC
(1485778708.110230) can0 298#0000001BD82B0800
(1485778708.110479) can0 190#8000800080008000
(1485778708.111984) can0 0B0#00004381E68013C3
(1485778708.112229) can0 140#00009C0000087A24
(1485778708.112460) can0 170#04000000D0000000
(1485778708.113333) can0 0C8#DF873AF6E138C600
(1485778708.113740) can0 060#0000000000000000
(1485778708.113959) can0 070#05A709F369F3F000
(1485778708.114223) can0 080#90007D00007FFDF7
(1485778708.114487) can0 090#0000C1FF620F0000
(1485778708.114736) can0 0F8#000000000000104D
(1485778708.114960) can0 120#0000000000008000
(1485778708.115210) can0 130#50002000E0000000
(1485778708.115460) can0 138#007D84007800820D
(1485778708.115711) can0 1A0#1F40000080000000
(1485778708.115960) can0 200#F200B7A90000C000
(1485778708.118209) can0 030#8003A180A000B207
(1485778708.118721) can0 0A0#0000080000007FFE
(1485778708.119480) can0 010#083400000000804B
(1485778708.120230) can0 208#7F0A2AE60080FF18
(1485778708.120473) can0 160#55FF000057D395FD
(1485778708.120595) can0 180#03000DF51804F000
(1485778708.120978) can0 190#8000800080008000
(1485778708.121223) can0 1C0#77C0000080000000
(1485778708.121349) can0 1D0#A8FFFF0000000000
(1485778708.121602) can0 1E0#000000000000F2D3
(1485778708.121857) can0 210#00000000FD850000
(1485778708.122247) can0 213#00FC00010FFF2FFF
(1485778708.122355) can0 252#0000010FFF200040
(1485778708.122627) can0 269#00000529AA85FF00
(1485778708.123230) can0 150#A09E500000000000
(1485778708.123853) can0 090#0000C1FF620F0000
(1485778708.124111) can0 0C0#0020000040000000
(1485778708.128104) can0 030#8002A180A000B207
(1485778708.128351) can0 17E#C010004000200000
(1485778708.128595) can0 260#8882BE0DB5E1B800
(1485778708.128845) can0 060#0000000000000000
(1485778708.129095) can0 290#8600400100027702
(1485778708.129332) can0 380#10937CA96000C0A9
(1485778708.129584) can0 010#092400000000804B
(1485778708.129833) can0 0A5#007EEC7800C53800
(1485778708.130084) can0 3B4#401111FF00000000
(1485778708.130224) can0 435#B22EB9D276EFB3C4
(1485778708.130473) can0 190#8000800080008000
(1485778708.130710) can0 218#00008F003C7DC0D8
(1485778708.131975) can0 0B0#00004381E68013C3
(1485778708.132223) can0 140#00009C0000096A24
(1485778708.132475) can0 170#04000000D0000000
(1485778708.132724) can0 229#6000000000000000
(1485778708.133004) can0 2A0#0000000030000000
(1485778708.133225) can0 2A5#00000000100FF0FF
(1485778708.133476) can0 0C8#DF873EF2E138C600
(1485778708.133714) can0 070#05A709F369F3F000
(1485778708.133957) can0 080#90007D00007FFDF7
(1485778708.134207) can0 090#0000C1FF620F0000
(1485778708.134473) can0 0A0#0000080000007FFE
(1485778708.134726) can0 0F8#000000000000104D
(1485778708.134967) can0 120#0000000000008000
(1485778708.135225) can0 130#50002000E0000000
(1485778708.135471) can0 138#007D84007800820D
(1485778708.135708) can0 1A0#1F40000080000000
(1485778708.135958) can0 1B0#4100000000403000
(1485778708.136210) can0 270#5E2F042100000000
(1485778708.136458) can0 280#C400008285254000
(1485778708.136707) can0 2D8#0444808000000000
(1485778708.136958) can0 2F0#30B00082005C9638
(1485778708.137207) can0 310#D94430602D450074
(1485778708.137340) can0 340#000000000300662F
(1485778708.137582) can0 360#C0C03F003C7DB8B7
(1485778708.138457) can0 030#800AE180E000B287
(1485778708.138724) can0 200#F200B7A90000C000
(1485778708.139471) can0 010#0A1400000000804B
(1485778708.140347) can0 160#55FF000057C39DFD
(1485778708.140596) can0 180#03000DF61805F000
(1485778708.140848) can0 190#8000800080008000
(1485778708.141223) can0 1C0#77C0000080000000
(1485778708.141347) can0 1D0#A8FFFF0000000000
(1485778708.141598) can0 1E0#000000000000F3C3
(1485778708.141848) can0 210#00000000FC870000
(1485778708.142083) can0 213#00FB00010FFF3FFF
(1485778708.142333) can0 252#0000010FFF200040
(1485778708.142582) can0 2D0#000001F579905A85
(1485778708.143333) can0 150#A09E500000000000
(1485778708.143722) can0 060#0000000000000000
(1485778708.143972) can0 090#0000C1FF620F0000
(1485778708.144224) can0 0C0#0020000040000000
(1485778708.145350) can0 208#7F053AF66F80FF98
(1485778708.145598) can0 455#0000000000000000
(1485778708.148223) can0 030#8002A180A000B207
(1485778708.148349) can0 405#1246453331333730
(1485778708.148723) can0 0A0#0000080000007FFD
(1485778708.149483) can0 010#0B0400000000804B
(1485778708.149846) can0 0A5#007EEB7800B54800
(1485778708.149992) can0 1B5#000001D66AD0FFFC
(1485778708.150224) can0 298#0000001BD82B0800
(1485778708.150474) can0 190#8000800080008000
(1485778708.151346) can0 269#000005295585FF00
(1485778708.151974) can0 0B0#00004381E68013C3
(1485778708.152223) can0 140#00009C00000A5A24
(1485778708.152598) can0 170#04000000D0000000
(1485778708.153224) can0 0C8#DF873AF2E138C600
(1485778708.153473) can0 260#8882BE0DB561B800
(1485778708.153846) can0 070#05A709F369F3F000
(1485778708.154098) can0 080#90007D00007FFDF7
(1485778708.154354) can0 090#0000C200620F0000
(1485778708.154598) can0 0F8#000000000000104D
(1485778708.154848) can0 120#0000000000008000
(1485778708.155098) can0 130#50002000E0000000
(1485778708.155333) can0 138#007D84007800820D
(1485778708.155583) can0 1A0#1F40000080000000
(1485778708.158467) can0 030#8002A180A000B207
(1485778708.158716) can0 290#0600400100027502
(1485778708.158974) can0 060#0000000000000000
(1485778708.159474) can0 010#0CF400000000804B
(1485778708.160342) can0 160#55FF000057B3A5FD
(1485778708.160597) can0 180#03000DF41803F000
(1485778708.160833) can0 190#8000800080008000
(1485778708.161208) can0 1C0#77C0000080000000
(1485778708.161332) can0 1D0#A8FFFF0000000000
(1485778708.161582) can0 1E0#000000000000F4B3
(1485778708.161833) can0 210#00000000FB890000
(1485778708.162099) can0 213#00FA00010FFF4FFF
(1485778708.162356) can0 218#00008F003C7DC0D8
(1485778708.162584) can0 252#0000010FFF200040
(1485778708.162890) can0 2D4#00000000E5FEFFFE
(1485778708.163218) can0 150#A09E700000000000
(1485778708.163842) can0 090#0000C200620F0000
(1485778708.164217) can0 0A0#0000080000007FFD
(1485778708.164348) can0 0C0#0020000040000000
(1485778708.164598) can0 1B0#4100000000403000
(1485778708.164850) can0 200#F200B7A90000C000
(1485778708.165216) can0 270#5E2F042100000000
(1485778708.165348) can0 280#C400008285254000
(1485778708.168346) can0 030#8002A180A000B207
(1485778708.169468) can0 010#0DE400000000804B
(1485778708.169842) can0 0A5#007EEA7800A55800
(1485778708.170363) can0 208#7F072AE60080FF18
(1485778708.170593) can0 190#8000800080008000
(1485778708.171973) can0 0B0#00004381E68013C3
(1485778708.172223) can0 140#00009C00000B4A24
(1485778708.172467) can0 170#04000000D0000000
(1485778708.172845) can0 229#6000000000000000
(1485778708.173092) can0 0C8#DF873AF2E138C600
(1485778708.173343) can0 2A0#0000000030000000
(1485778708.173598) can0 2A5#00000000100FF0FF
(1485778708.173835) can0 060#0000000000000000
(1485778708.174084) can0 070#05A709F369F3F000
(1485778708.174335) can0 080#90007D00007FFDF7
(1485778708.174584) can0 090#0000C200620F0000
(1485778708.174833) can0 0F8#000000000000104D
(1485778708.175084) can0 120#0000000000008000
(1485778708.175333) can0 130#50002000E0000000
(1485778708.175583) can0 138#007D84007800820D
(1485778708.175709) can0 1A0#1F40000080000000
(1485778708.178458) can0 030#8003A180A000B207
(1485778708.178848) can0 0A0#0000080000007FFD
(1485778708.178973) can0 260#8882BE0DB5E1B800
(1485778708.179474) can0 010#0ED400000000804B
(1485778708.180348) can0 160#55FF000057A3ADFD
(1485778708.180598) can0 180#03000DF51804F000
(1485778708.180848) can0 190#8000800080008000
(1485778708.181100) can0 1C0#77C0000080000000
(1485778708.181349) can0 1D0#A8FFFF0000000000
(1485778708.181592) can0 1E0#000000000000F5A3
(1485778708.181842) can0 210#00000000FA8B0000
(1485778708.182086) can0 213#00F900010FFF5FFF
(1485778708.182333) can0 252#0000010FFF200040
(1485778708.182584) can0 269#000005295585FF00
(1485778708.182836) can0 2D0#000001F47A905A85
(1485778708.183209) can0 150#A09E500000000000
(1485778708.183708) can0 090#0000C200620F0000
(1485778708.183959) can0 0C0#0020000040000000
(1485778708.188343) can0 030#8002A180A000B207
(1485778708.188599) can0 290#8600C00100027502
(1485778708.189220) can0 060#0000000000000000
(1485778708.189467) can0 010#0FC400000000804B
(1485778708.189718) can0 200#F200B7A90000C000
(1485778708.189967) can0 0A5#007EE97800956800
(1485778708.190218) can0 1B5#000001D66AD0FFFC
(1485778708.190472) can0 190#8000800080008000
(1485778708.190710) can0 218#00008F003C7DC0D8
(1485778708.190959) can0 298#0000001BD82B0800
(1485778708.191974) can0 0B0#00004381E68013C3
(1485778708.192222) can0 140#00009C00000C3A24
(1485778708.192599) can0 170#04000000D0000000
(1485778708.193224) can0 0C8#DF873EF6E138C600
(1485778708.193467) can0 40A#FF0A011200321088
(1485778708.193718) can0 070#05A709F369F3F000
(1485778708.193967) can0 080#90007D00007FFEF7
(1485778708.194218) can0 090#0000C1FF620E0000
(1485778708.194474) can0 0A0#0000080000007FFE
(1485778708.194711) can0 0F8#000000000000104D
(1485778708.194967) can0 120#0000000000008000
(1485778708.195210) can0 130#50002000E0000000
(1485778708.195459) can0 138#007D84007800820D
(1485778708.195717) can0 1A0#1F40000080000000
(1485778708.195968) can0 1B0#4100000000403000
(1485778708.196227) can0 208#7F032AE60080FF18
(1485778708.196475) can0 270#5E2F042100000000
(1485778708.196724) can0 280#C400008285254000
(1485778708.196961) can0 2D8#0444808000000000
(1485778708.198467) can0 030#8002A180A000B207
(1485778708.199468) can0 010#00B400000000804B
(1485778708.200342) can0 160#55FF00005793B5FD
(1485778708.200593) can0 180#03000DF51804F000
(1485778708.200842) can0 190#8000800080008000
(1485778708.201093) can0 1C0#77C0000080000000
(1485778708.201342) can0 1D0#A8FFFF0000000000
(1485778708.201592) can0 1E0#000000000000F693
(1485778708.201842) can0 210#00000000F98D0000
(1485778708.202085) can0 213#00F900000FFF6FFF
(1485778708.202334) can0 252#0000000FFF200040
(1485778708.203210) can0 150#A09E500000000000
(1485778708.203474) can0 260#8882BE0DB661B800
(1485778708.203725) can0 060#0000000000000000
(1485778708.203972) can0 090#0000C1FF620E0000
(1485778708.204224) can0 0C0#0020000040000000
(1485778708.208217) can0 030#8002A180A000B207
(1485778708.208718) can0 0A0#0000080000007FFE
(1485778708.209468) can0 010#01A400000000804B
(1485778708.209718) can0 0A5#007EE87800857800
(1485778708.210343) can0 190#8000800080008000
(1485778708.211342) can0 269#000005295585FF00
(1485778708.211974) can0 0B0#00004381E68013C3
(1485778708.212224) can0 140#00009C00000D2A24
(1485778708.212468) can0 170#04000000D0000000
(1485778708.212718) can0 229#6000000000000000
(1485778708.212967) can0 2A0#0000000030000000
(1485778708.213225) can0 0C8#DF873AF2E138C600
(1485778708.213467) can0 2A5#00000000100FF0FF
(1485778708.213717) can0 070#05A709F369F3F000
(1485778708.213974) can0 080#90007D00007FFEF7
(1485778708.214224) can0 090#0000C1FF620E0000
(1485778708.214468) can0 0F8#000000000000104D
(1485778708.214717) can0 120#0000000000008000
(1485778708.214961) can0 130#50002000E0000000
(1485778708.215209) can0 138#007D84007800820D
(1485778708.215458) can0 1A0#1F40000080000000
(1485778708.215735) can0 200#F200B7AA0000C000
(1485778708.218349) can0 030#800AE1A0E000B287
(1485778708.218593) can0 290#0600400100027502
(1485778708.218847) can0 060#0000000000000000
(1485778708.219093) can0 400#1D00000200010001
(1485778708.219467) can0 010#029400000000804B
(1485778708.220348) can0 160#55FF00005783BDFD
(1485778708.220592) can0 180#03000DF51803F000
(1485778708.220843) can0 190#8000800080008000
(1485778708.221086) can0 1C0#77C0000080000000
(1485778708.221347) can0 1D0#A8FFFF0000000000
(1485778708.221594) can0 1E0#000000000000F783
(1485778708.221855) can0 208#7F0B2AE60080FF18
(1485778708.222092) can0 210#00000000F88F0000
(1485778708.222336) can0 213#00F800000FFF7FFF
(1485778708.222584) can0 218#00008F003C7DC0D8
(1485778708.222850) can0 252#0000000FFF200040
(1485778708.223093) can0 2D0#000001F37B905A85
(1485778708.223337) can0 150#A09E500000000000
(1485778708.223600) can0 2D4#00000000E5FEFFFE
(1485778708.223849) can0 090#0000C1FF620E0000
(1485778708.224096) can0 0A0#0000080000007FFE
(1485778708.224350) can0 0C0#0020000040000000
(1485778708.224585) can0 1B0#4100000000403000
(1485778708.224708) can0 270#5E2F042100000000
(1485778708.224958) can0 280#C400008285254000
(1485778708.225222) can0 2F0#30B00082005C9638
(1485778708.228211) can0 030#8002A180A000B207
(1485778708.228350) can0 17E#C010004000278000
(1485778708.228592) can0 260#8882BE0DB561B800
(1485778708.229484) can0 010#038400000000804B
(1485778708.229842) can0 0A5#007EE77800758800
(1485778708.229979) can0 1B5#000001D66AD0FFFC
(1485778708.230218) can0 298#0000001BD82B0800
(1485778708.230467) can0 190#8000800080008000
(1485778708.231968) can0 0B0#00004381E68013C3
(1485778708.232217) can0 140#00009C00000E1A24
(1485778708.232469) can0 170#04000000D0000000
(1485778708.233226) can0 0C8#DF873EF2E138C600
(1485778708.233476) can0 310#DB4430602D450074
(1485778708.233842) can0 060#0000000000000000
(1485778708.234111) can0 070#05A709F369F3F000
(1485778708.234349) can0 080#90007D00007FFEF7
(1485778708.234595) can0 090#0000C1FE620B0000
(1485778708.234837) can0 0F8#000000000000104D
(1485778708.234967) can0 120#0000000000008000
(1485778708.235218) can0 130#50002000E0000000
(1485778708.235468) can0 138#007D84007800820D
(1485778708.235725) can0 1A0#1F40000080000000
(1485778708.238213) can0 030#8003A180A000B207
(1485778708.238709) can0 0A0#0000080000007FFE
(1485778708.238974) can0 200#F200B7AA0000C000
(1485778708.239474) can0 010#047400000000804B
(1485778708.240344) can0 160#55FF00005773C5FD
(1485778708.240593) can0 180#03000DF61804F000
(1485778708.240842) can0 190#8000800080008000
(1485778708.241093) can0 1C0#77C0000080000000
(1485778708.241342) can0 1D0#A8FFFF0000000000
(1485778708.241601) can0 1E0#000000000000F873
(1485778708.241837) can0 210#00000000F7910000
(1485778708.242096) can0 213#00F600010FFF8FFF
(1485778708.242337) can0 252#0000010FFF200040
(1485778708.242584) can0 269#00000529AA85FF00
(1485778708.243224) can0 150#A09E500000000000
(1485778708.243717) can0 090#0000C1FE620B0000
(1485778708.243969) can0 0C0#0020000040000000
(1485778708.245725) can0 455#0000000000000000
(1485778708.245973) can0 208#7F043AF66F80FF98
(1485778708.248342) can0 030#8002A180A000B207
(1485778708.248593) can0 290#0600400100027502
(1485778708.248842) can0 060#0000000000000000
(1485778708.249468) can0 010#056400000000804B
(1485778708.249718) can0 0A5#007EE67800659800
(1485778708.250343) can0 190#8000800080008000
(1485778708.250592) can0 218#00008F003C7DC0D8
(1485778708.251961) can0 0B0#00004381E68013C3
(1485778708.252218) can0 140#00009C00000F0A24
(1485778708.252462) can0 170#04000000D0000000
(1485778708.252844) can0 229#6000000000000000
(1485778708.253093) can0 2A0#0000000030000000
(1485778708.253343) can0 0C8#DF873AF6E138C600
(1485778708.253472) can0 260#8882BE0DB5E1B800
(1485778708.253725) can0 070#05A709F469F4F000
(1485778708.253973) can0 080#90007D00008000F7
(1485778708.254224) can0 090#0000C1FE620B0000
(1485778708.254475) can0 0A0#0000080000008001
(1485778708.254717) can0 0F8#000000000000104D
(1485778708.254975) can0 120#0000000000008000
(1485778708.255224) can0 130#50002000E0000000
(1485778708.255475) can0 138#007D84007800820D
(1485778708.255711) can0 1A0#1F40000080000000
(1485778708.255960) can0 1B0#4100000000403000
(1485778708.256211) can0 270#5E2F042100000000
(1485778708.256474) can0 280#C400008285254000
(1485778708.256724) can0 2A5#00000000100FF0FF
(1485778708.256973) can0 2D8#0444808000000000
(1485778708.257225) can0 340#000000000300662F
(1485778708.258601) can0 030#8002A180A000B207
(1485778708.259469) can0 010#065400000000804B
(1485778708.260343) can0 160#55FF00005763CDFD
(1485778708.260600) can0 180#03000DF31805F000
(1485778708.260848) can0 190#8000800080008000
(1485778708.261099) can0 1C0#77C0000080000000
(1485778708.261349) can0 1D0#A8FFFF0000000000
(1485778708.261599) can0 1E0#000000000000F963
(1485778708.261843) can0 210#00000000F6930000
(1485778708.262086) can0 213#00F500010FFF9FFF
(1485778708.262335) can0 252#0000010FFF200040
(1485778708.262584) can0 2D0#000001F27C905A85
(1485778708.263099) can0 150#A09E500000000000
(1485778708.263719) can0 060#0000000000000000
(1485778708.263968) can0 090#0000C1FE620B0000
(1485778708.264218) can0 0C0#0020000040000000
(1485778708.264469) can0 200#F200B7AA0000C000
(1485778708.268349) can0 030#8002A180A000B207
(1485778708.268725) can0 0A0#0000080000008001
(1485778708.269474) can0 010#074400000000804B
(1485778708.269724) can0 0A5#007EE5780055A800
(1485778708.269975) can0 1B5#000001D66AD0FFFC
(1485778708.270232) can0 298#0000001BD82B0800
(1485778708.270475) can0 190#8000800080008000
(1485778708.270726) can0 208#7F082AE60080FF18
(1485778708.271348) can0 269#00000529AA85FF00
(1485778708.271972) can0 0B0#00004381E68013C3
(1485778708.272225) can0 140#00009C000000FA24
(1485778708.272461) can0 170#04000000D0000000
(1485778708.273225) can0 0C8#DF873EF2E138C600
(1485778708.273844) can0 070#05A709F469F4F000
(1485778708.273973) can0 080#90007D00008000F7
(1485778708.274218) can0 090#0000C1FF620C0000
(1485778708.274468) can0 0F8#000000000000104D
(1485778708.274726) can0 120#0000000000008000
(1485778708.274974) can0 130#50002000E0000000
(1485778708.275225) can0 138#007D84007800820D
(1485778708.275475) can0 1A0#1F40000080000000
(1485778708.278349) can0 030#8002A180A000B207
(1485778708.278598) can0 260#8882BE0DB561B800
(1485778708.278836) can0 060#0000000000000000
(1485778708.279085) can0 290#8600400100027502
(1485778708.279468) can0 010#083400000000804B
(1485778708.280344) can0 160#55FF00005753D5FD
(1485778708.280593) can0 180#03000DF61803F000
(1485778708.280848) can0 190#8000800080008000
(1485778708.281097) can0 1C0#77C0000080000000
(1485778708.281349) can0 1D0#A8FFFF0000000000
(1485778708.281600) can0 1E0#000000000000FA53
(1485778708.281848) can0 210#00000000F5950000
(1485778708.282087) can0 213#00F400010FFFAFFF
(1485778708.282334) can0 218#00008F003C7DC0D8
(1485778708.282585) can0 252#0000010FFF200040
(1485778708.282845) can0 2D4#00000000E5FEFFFE
(1485778708.283094) can0 150#A09E500000000000
(1485778708.283350) can0 360#C0C03F003C7DB8B7
(1485778708.283719) can0 090#0000C1FF620C0000
(1485778708.283973) can0 0A0#0000080000008000
(1485778708.284224) can0 0C0#0020000040000000
(1485778708.284468) can0 1B0#4100000000403000
(1485778708.284711) can0 270#5E2F042100000000
(1485778708.284960) can0 280#C400008285254000
(1485778708.288224) can0 030#8002A180A000B207
(1485778708.288718) can0 200#F200B7AA0000C000
(1485778708.289475) can0 010#092400000000804B
(1485778708.289843) can0 0A5#007EE4780045B800
(1485778708.290343) can0 190#8000800080008000
(1485778708.291969) can0 0B0#00004381E68013C3
(1485778708.292218) can0 140#00009C000001EA24
(1485778708.292469) can0 170#04000000D0000000
(1485778708.292718) can0 229#6000000000000000
(1485778708.292982) can0 2A0#0000000030000000
(1485778708.293218) can0 0C8#DF873AF2E138C600
(1485778708.293469) can0 2A5#00000000100FF0FF
(1485778708.293712) can0 060#0000000000000000
(1485778708.293959) can0 070#05A709F469F4F000
(1485778708.294210) can0 080#90007D00008000F7
(1485778708.294468) can0 090#0000C1FF620C0000
(1485778708.294722) can0 0F8#000000000000104D
(1485778708.294968) can0 120#0000000000008000
(1485778708.295226) can0 130#50002000E0000000
(1485778708.295475) can0 138#007D84007800820D
(1485778708.295723) can0 1A0#1F40000080000000
(1485778708.295961) can0 208#7F052AE60080FF18
(1485778708.298459) can0 030#800BE180E000B287
(1485778708.298711) can0 0A0#0000080000008000
(1485778708.299344) can0 010#0A1400000000804B
(1485778708.300344) can0 160#55FF00005743DDFD
(1485778708.300600) can0 180#03000DF51804F000
(1485778708.300849) can0 190#8000800080008000
(1485778708.301098) can0 1C0#77C0000080000000
(1485778708.301350) can0 1D0#A8FFFF0000000000
(1485778708.301599) can0 1E0#000000000000FB43
(1485778708.301850) can0 210#00000000F4970000
(1485778708.302087) can0 213#00F300010FFFBFFF
(1485778708.302335) can0 252#0000010FFF200040
(1485778708.302584) can0 269#00000529AA85FF00
(1485778708.302850) can0 2D0#000001F17D905A85
(1485778708.303349) can0 150#A09E500000000000
(1485778708.303600) can0 260#8882BE0DB6E1B800
(1485778708.303974) can0 090#0000C200620C0000
(1485778708.304224) can0 0C0#0020000040000000
(1485778708.308100) can0 030#8002A180A000B207
(1485778708.308349) can0 290#0600400100027502
(1485778708.308724) can0 060#0000000000000000
(1485778708.309476) can0 010#0B0400000000804B
(1485778708.310344) can0 190#8000800080008000
(1485778708.310593) can0 218#00008F003C7DC0D8
(1485778708.310844) can0 0A5#007EE3780035C800
(1485778708.311094) can0 1B5#000001D66AD0FFFC
(1485778708.311343) can0 298#0000001BD82B0800
(1485778708.311969) can0 0B0#00004381E68013C3
(1485778708.312219) can0 140#00009C000002DA24
(1485778708.312468) can0 170#04000000D0000000
(1485778708.313214) can0 0C8#DF873EF6E138C600
(1485778708.313711) can0 070#05A709F469F4F000
(1485778708.313969) can0 080#90007D00008000F7
(1485778708.314218) can0 090#0000C200620C0000
(1485778708.314469) can0 0A0#0000080000007FFF
(1485778708.314718) can0 0F8#000000000000104D
(1485778708.314962) can0 120#0000000000008000
(1485778708.315225) can0 130#50002000E0000000
(1485778708.315469) can0 138#007D84007800820D
(1485778708.315713) can0 1A0#1F40000080000000
(1485778708.315959) can0 1B0#4100000000403000
(1485778708.316227) can0 200#F200B7AB0000C000
(1485778708.316468) can0 270#5E2F042100000000
(1485778708.316727) can0 280#C400008285254000
(1485778708.316976) can0 2D8#0444808000000000
(1485778708.317212) can0 2F0#30B00082005C9638
(1485778708.318344) can0 030#8002A180A000B207
(1485778708.318595) can0 40A#C0003E212C0B803B
(1485778708.319475) can0 010#0CF400000000804B
(1485778708.320350) can0 160#55FF00005733E5FD
(1485778708.320597) can0 180#03000DF41803F000
(1485778708.320850) can0 190#8000800080008000
(1485778708.321099) can0 1C0#77C0000080000000
(1485778708.321351) can0 1D0#A8FFFF0000000000
(1485778708.321599) can0 1E0#000000000000FC33
(1485778708.321838) can0 208#7F072AE60080FF18
(1485778708.322100) can0 210#00000000F3990000
(1485778708.322337) can0 213#00F200010FFFCFFF
(1485778708.322585) can0 252#0000010FFF200040
(1485778708.323226) can0 150#A09E500000000000
(1485778708.323727) can0 060#0000000000000000
(1485778708.323974) can0 090#0000C200620C0000
(1485778708.324223) can0 0C0#0020000040000000
(1485778708.328219) can0 030#8002A180A000B207
(1485778708.328357) can0 17E#C010004000200000
(1485778708.328601) can0 260#8882BE0DB561B800
(1485778708.328852) can0 0A0#0000080000007FFF
(1485778708.329477) can0 010#0DE400000000804B
(1485778708.330352) can0 190#8000800080008000
(1485778708.330848) can0 0A5#007EE2780025D800
(1485778708.331352) can0 269#00000529AA85FF00
(1485778708.331852) can0 0B0#00004381E68013C3
(1485778708.332228) can0 140#00009C000003CA24
(1485778708.332477) can0 170#04000000D0000000
(1485778708.332726) can0 229#6000000000000000
(1485778708.332969) can0 2A0#0000000030000000
(1485778708.333226) can0 2A5#00000000100FF0FF
(1485778708.333477) can0 0C8#DF873EF2E138C600
(1485778708.333726) can0 310#D94430602D450074
(1485778708.333963) can0 070#05A709F469F4F000
(1485778708.334210) can0 080#90007D00008000F7
(1485778708.334460) can0 090#0000C200620C0000
(1485778708.334601) can0 0F8#000000000000104D
(1485778708.334972) can0 120#0000000000008000
(1485778708.335225) can0 130#50002000E0000000
(1485778708.335350) can0 138#007D84007800820D
(1485778708.335600) can0 1A0#1F40000080000000
(1485778708.338475) can0 030#8002A180A000B207
(1485778708.338728) can0 060#0000000000000000
(1485778708.338982) can0 200#F200B7AB0000C000
(1485778708.339226) can0 290#0600400100027502
(1485778708.339476) can0 010#0ED400000000804B
(1485778708.340352) can0 160#55FF00005723EDFD
(1485778708.340601) can0 180#03000DF51803F000
(1485778708.340843) can0 190#8000800080008000
(1485778708.341101) can0 1C0#77C0000080000000
(1485778708.341337) can0 1D0#A8FFFF0000000000
(1485778708.341602) can0 1E0#000000000000FD23
(1485778708.341850) can0 210#00000000F29B0000
(1485778708.342100) can0 213#00F100010FFFDFFF
(1485778708.342350) can0 218#00008F003C7DC0D8
(1485778708.342587) can0 252#0000010FFF200040
(1485778708.342849) can0 2D0#000001F07E905A85
(1485778708.343086) can0 2D4#00000000E5FEFFFE
(1485778708.343351) can0 150#A09E500000000000
(1485778708.343838) can0 090#0000C1FF620B0000
(1485778708.344099) can0 0A0#0000080000008000
(1485778708.344350) can0 0C0#0020000040000000
(1485778708.344600) can0 1B0#4100000000403000
(1485778708.344856) can0 270#5E2F042100000000
(1485778708.344961) can0 280#C400008285254000
(1485778708.345726) can0 455#0000000000000000
(1485778708.345972) can0 208#7F093AF66F80FF98
(1485778708.348477) can0 030#8002A180A000B207
(1485778708.349474) can0 010#0FC400000000804B
(1485778708.350351) can0 190#8000800080008000
(1485778708.350725) can0 0A5#007EE1780015E800
(1485778708.350976) can0 1B5#000001D66AD0FFFC
(1485778708.351224) can0 298#0000001BD82B0800
(1485778708.351851) can0 0B0#00004381E68013C3
(1485778708.352225) can0 140#00009C000004BA24
(1485778708.352480) can0 170#04000000D0000000
(1485778708.353228) can0 0C8#DF873AF6E138C600
(1485778708.353357) can0 260#8882BE0DB6E1B800
(1485778708.353726) can0 060#0000000000000000
(1485778708.353975) can0 070#05A709F469F4F000
(1485778708.354225) can0 080#90007D00008000F7
(1485778708.354476) can0 090#0000C1FF620B0000
(1485778708.354725) can0 0F8#000000000000104D
(1485778708.354976) can0 120#0000000000008000
(1485778708.355224) can0 130#50002000E0000000
(1485778708.355473) can0 138#007D84007800820D
(1485778708.355712) can0 1A0#1F40000080000000
(1485778708.358336) can0 030#8003A180A000B207
(1485778708.358710) can0 0A0#0000080000008001
(1485778708.359477) can0 010#00B400000000804B
(1485778708.360350) can0 160#55FF00005713F5FD
(1485778708.360600) can0 180#03000DF71805F000
(1485778708.360853) can0 190#8000800080008000
(1485778708.361103) can0 04A#02000018000000C0
(1485778708.361352) can0 04B#00D8D8D8D8D8C000
(1485778708.361606) can0 1C0#77C0000080000000
(1485778708.361852) can0 1D0#A8FFFF0000000000
(1485778708.362087) can0 1E0#000000000000FE13
(1485778708.362336) can0 210#00000000F19D0000
(1485778708.362585) can0 213#00F000010FFFEFFF
(1485778708.362852) can0 252#0000010FFF200040
(1485778708.363102) can0 269#000005295585FF00
(1485778708.363352) can0 150#A09E500000000000
(1485778708.363729) can0 090#0000C1FF620B0000
(1485778708.363976) can0 0C0#0020000040000000
(1485778708.364226) can0 200#F200B7AB0000C000
(1485778708.368226) can0 030#8002A180A000B207
(1485778708.368476) can0 290#8600400100027702
(1485778708.368713) can0 060#0000000000000000
(1485778708.369477) can0 010#01A400000000804B
(1485778708.370353) can0 190#8000800080008000
(1485778708.370600) can0 218#00008F003C7DC0D8
(1485778708.370852) can0 0A5#007EE0780005F800
(1485778708.371102) can0 208#7F062AE60080FF18
(1485778708.371852) can0 0B0#00004381E68013C3
(1485778708.372225) can0 140#00009C000005AA24
(1485778708.372486) can0 170#04000000D0000000
(1485778708.372726) can0 229#6000000000000000
(1485778708.372978) can0 2A0#0000000030000000
(1485778708.373213) can0 0C8#DF873AF2E138C600
(1485778708.373477) can0 2A5#00000000100FF0FF
(1485778708.373712) can0 070#05A709F469F4F000
(1485778708.373976) can0 080#90007D00008000F7
(1485778708.374212) can0 090#0000C1FF620B0000
(1485778708.374461) can0 0A0#0000080000008000
(1485778708.374726) can0 0F8#000000000000104D
(1485778708.374975) can0 120#0000000000008000
(1485778708.375226) can0 130#50002000E0000000
(1485778708.375473) can0 138#007D84007800820D
(1485778708.375726) can0 1A0#1F40000080000000
(1485778708.375962) can0 1B0#4100000000403000
(1485778708.376229) can0 270#5E2F042100000000
(1485778708.376462) can0 280#C400008285254000
(1485778708.376711) can0 2D8#0444808000000000
(1485778708.376960) can0 340#000000000300662F
(1485778708.378604) can0 030#8002A180A000B207
(1485778708.378848) can0 260#8882BE0DB561B800
(1485778708.379476) can0 010#029400000000804B
(1485778708.380351) can0 160#55FF00005703FDFD
(1485778708.380600) can0 180#03000DF31804F000
(1485778708.380853) can0 190#8000800080008000
(1485778708.381103) can0 1C0#77C0000080000000
(1485778708.381352) can0 1D0#A8FFFF0000000000
(1485778708.381602) can0 1E0#000000000000FF03
(1485778708.381838) can0 210#00000000F09F0000
(1485778708.382100) can0 213#00F000000FFFFFFF
(1485778708.382337) can0 252#0000000FFF200040
(1485778708.382586) can0 2D0#000001EF7F905A85
(1485778708.383230) can0 150#A09E500000000000
(1485778708.383853) can0 060#0000000000000000
(1485778708.384100) can0 090#0000C1FF620C0000
(1485778708.384352) can0 0C0#0020000040000000
(1485778708.388228) can0 030#800AE180E000B287
(1485778708.388727) can0 0A0#0000080000008000
(1485778708.388974) can0 200#F200B7AC0000C000
(1485778708.389475) can0 010#038400000000804B
(1485778708.390350) can0 190#8000800080008000
(1485778708.390727) can0 0A5#007EEF7800F50800
(1485778708.390974) can0 1B5#000001D66AD0FFFC
(1485778708.391226) can0 298#0000001BD82B0800
(1485778708.391475) can0 269#000005295585FF00
(1485778708.391850) can0 0B0#00004381E68013C3
(1485778708.392102) can0 140#00009C0000069A24
(1485778708.392353) can0 170#04000000D0000000
(1485778708.393352) can0 0C8#DF873EF2E138C600
(1485778708.393724) can0 070#05A709F469F4F000
(1485778708.393976) can0 080#90007D00008000F7
(1485778708.394228) can0 090#0000C1FF620C0000
(1485778708.394477) can0 0F8#000000000000104D
(1485778708.394728) can0 120#0000000000008000
(1485778708.394963) can0 130#50002000E0000000
(1485778708.395226) can0 138#007D84007800820D
(1485778708.395477) can0 1A0#1F40000080000000
(1485778708.396087) can0 208#7F062AE60080FF18
(1485778708.398337) can0 030#8002A180A000B207
