(1485365962.335976) can0 2C4#03F600130000A27C
(1485365962.339769) can0 3A0#0000000000000014
(1485365962.340431) can0 394#00
(1485365962.342582) can0 0B2#000000000009
(1485365962.342720) can0 0B0#000000000009
(1485365962.343075) can0 0B4#00000000000000BC
(1485365962.345694) can0 2C1#08FF6AFF670000A2
(1485365962.350692) can0 260#0800010000000174
(1485365962.352616) can0 0B2#00000000000A
(1485365962.352776) can0 0B0#00000000000A
(1485365962.353033) can0 223#0000007FE000008C
(1485365962.353331) can0 224#0000000000000000
(1485365962.355699) can0 2C4#03F600130000A27C
(1485365962.362542) can0 0B2#00000000000B
(1485365962.362726) can0 0B0#00000000000B
(1485365962.363022) can0 0B4#00000000000000BC
(1485365962.370792) can0 260#0800000000000173
(1485365962.372492) can0 0B2#00000000000C
(1485365962.372701) can0 0B0#00000000000C
(1485365962.375719) can0 2C1#08FF6DFF670000A5
(1485365962.375962) can0 2C4#03F500130000A27B
(1485365962.382694) can0 0B2#00000000000D
(1485365962.382816) can0 0B0#00000000000D
(1485365962.383135) can0 223#0000007FE000008C
(1485365962.383408) can0 0B4#00000000000000BC
(1485365962.383576) can0 224#0000000000000000
(1485365962.383940) can0 3B7#0000000000000000
(1485365962.391067) can0 260#0800000000FFFC6D
(1485365962.392542) can0 0B2#00000000000E
(1485365962.392689) can0 0B0#00000000000E
(1485365962.395793) can0 2C4#03F400130000A27A
(1485365962.402592) can0 0B2#00000000000F
(1485365962.402719) can0 0B0#00000000000F
(1485365962.403099) can0 0B4#00000000000000BC
(1485365962.405771) can0 2C1#08FF74FF700000B5
(1485365962.406996) can0 610#2000006400000000
(1485365962.411371) can0 260#0800000000000678
(1485365962.412619) can0 0B2#000000000000
(1485365962.412748) can0 0B0#000000000000
(1485365962.413074) can0 223#0000007FE000008C
(1485365962.413322) can0 224#0000000000000000
(1485365962.415794) can0 2C4#03F400130000A27A
(1485365962.422618) can0 0B2#000000000001
(1485365962.422747) can0 0B0#000000000001
(1485365962.423101) can0 0B4#00000000000000BC
(1485365962.427521) can0 442#4002000003000000
(1485365962.430644) can0 620#1000000030600050
(1485365962.431493) can0 260#0800010000FFFE70
(1485365962.432522) can0 0B2#000000000002
(1485365962.432672) can0 0B0#000000000002
(1485365962.436164) can0 2C1#08FF70FF6D0000AE
(1485365962.436373) can0 2C4#03F500130000A27B
(1485365962.439870) can0 3A0#0000000000000014
(1485365962.442647) can0 0B2#000000000003
(1485365962.442773) can0 0B0#000000000003
(1485365962.443075) can0 223#0000007FE000008C
(1485365962.443337) can0 0B4#00000000000000BC
(1485365962.443542) can0 224#0000000000000000
(1485365962.443893) can0 4C3#0400300500000000
(1485365962.451694) can0 260#080000000000097B
(1485365962.452512) can0 0B2#000000000004
(1485365962.452638) can0 0B0#000000000004
(1485365962.455769) can0 2C4#03F500130000A27B
(1485365962.462598) can0 0B2#000000000005
(1485365962.462719) can0 0B0#000000000005
(1485365962.463074) can0 0B4#00000000000000BC
(1485365962.465772) can0 2C1#08FF74FF700000B5
(1485365962.471894) can0 260#0800010000000073
(1485365962.472619) can0 0B2#000000000006
(1485365962.472749) can0 0B0#000000000006
(1485365962.473043) can0 223#0000007FE000008C
(1485365962.473369) can0 224#0000000000000000
(1485365962.475796) can0 2C4#03F700130000A27D
(1485365962.482648) can0 0B2#000000000007
(1485365962.482771) can0 0B0#000000000007
(1485365962.483127) can0 0B4#00000000000000BC
(1485365962.492121) can0 260#0800000000FFF869
(1485365962.492570) can0 0B2#000000000008
(1485365962.492665) can0 0B0#000000000008
(1485365962.495793) can0 2C1#08FF60FF67000098
(1485365962.495977) can0 2C4#03F900130000A27F
(1485365962.502721) can0 0B2#000000000009
(1485365962.502819) can0 0B0#000000000009
(1485365962.503127) can0 223#0000007FE000008C
(1485365962.503374) can0 0B4#00000000000000BC
(1485365962.503620) can0 224#0000000000000000
(1485365962.512371) can0 260#0800000000FFFD6E
(1485365962.512469) can0 0B2#00000000000A
(1485365962.512734) can0 0B0#00000000000A
(1485365962.515793) can0 2C4#03FA00130000A280
(1485365962.522622) can0 0B2#00000000000B
(1485365962.522740) can0 0B0#00000000000B
(1485365962.523107) can0 0B4#00000000000000BC
(1485365962.524948) can0 440#4202000007000000
(1485365962.526018) can0 2C1#08FF5DFF5A000088
(1485365962.532523) can0 260#0800000000FFEF60
(1485365962.532669) can0 0B2#00000000000C
(1485365962.532929) can0 0B0#00000000000C
(1485365962.533138) can0 223#0000007FE000008C
(1485365962.533454) can0 224#0000000000000000
(1485365962.535796) can0 2C4#03F800130000A27E
(1485365962.539873) can0 3A0#0000000000000014
(1485365962.542596) can0 0B2#00000000000D
(1485365962.542763) can0 0B0#00000000000D
(1485365962.543093) can0 0B4#00000000000000BC
(1485365962.552546) can0 0B2#00000000000E
(1485365962.552693) can0 0B0#00000000000E
(1485365962.552994) can0 260#080000000000097B
(1485365962.555772) can0 2C1#08FF64FF5D000092
(1485365962.555962) can0 2C4#03F800130000A27E
(1485365962.562725) can0 0B2#00000000000F
(1485365962.562849) can0 0B0#00000000000F
(1485365962.563127) can0 223#0000007FE000008C
(1485365962.563405) can0 0B4#00000000000000BC
(1485365962.563628) can0 224#0000000000000000
(1485365962.572547) can0 0B2#000000000000
(1485365962.572662) can0 0B0#000000000000
(1485365962.572977) can0 260#0800000000000577
(1485365962.575772) can0 2C4#03F700130000A27D
(1485365962.582625) can0 0B2#000000000001
(1485365962.582738) can0 0B0#000000000001
(1485365962.583104) can0 0B4#00000000000000BC
(1485365962.586617) can0 2C1#08FF6AFF670000A2
(1485365962.586856) can0 4C1#0100500500000000
(1485365962.592573) can0 0B2#000000000002
(1485365962.592697) can0 0B0#000000000002
(1485365962.592996) can0 223#0000007FE000008C
(1485365962.593246) can0 260#0800000000000779
(1485365962.593481) can0 224#0000000000000000
(1485365962.595799) can0 2C4#03F500130000A27B
(1485365962.602572) can0 0B2#000000000003
(1485365962.602702) can0 0B0#000000000003
(1485365962.603025) can0 0B4#00000000000000BC
(1485365962.612548) can0 0B2#000000000004
(1485365962.612695) can0 0B0#000000000004
(1485365962.613300) can0 260#0800010000FFF769
(1485365962.614045) can0 3B1#0000022A00000000
(1485365962.615750) can0 2C1#08FF77FF6A0000B2
(1485365962.615940) can0 2C4#03F300130000A279
(1485365962.616246) can0 442#4002000003000000
(1485365962.622726) can0 0B2#000000000005
(1485365962.622836) can0 0B0#000000000005
(1485365962.623154) can0 223#0000007FE000008C
(1485365962.623377) can0 0B4#00000000000000BC
(1485365962.623668) can0 224#0000000000000000
(1485365962.632580) can0 0B2#000000000006
(1485365962.632704) can0 0B0#000000000006
(1485365962.633585) can0 260#080000000000087A
(1485365962.635774) can0 2C4#03F500130000A27B
(1485365962.639876) can0 3A0#0000000000000014
(1485365962.642624) can0 0B2#000000000007
(1485365962.642751) can0 0B0#000000000007
(1485365962.643133) can0 0B4#00000000000000BC
(1485365962.643568) can0 394#00
(1485365962.645776) can0 2C1#08FF6AFF700000AB
(1485365962.652597) can0 0B2#000000000008
(1485365962.652729) can0 0B0#000000000008
(1485365962.653032) can0 223#0000007FE000008C
(1485365962.653369) can0 224#0000000000000000
(1485365962.653789) can0 260#0800000000000072
(1485365962.655801) can0 2C4#03F700130000A27D
(1485365962.662603) can0 0B2#000000000009
(1485365962.662697) can0 0B0#000000000009
(1485365962.663095) can0 0B4#00000000000000BC
(1485365962.672502) can0 0B2#00000000000A
(1485365962.672626) can0 0B0#00000000000A
(1485365962.674000) can0 260#0800010000FFF668
(1485365962.675976) can0 2C1#08FF6AFF670000A2
(1485365962.676143) can0 2C4#03F700130000A27D
(1485365962.682653) can0 0B2#00000000000B
(1485365962.682776) can0 0B0#00000000000B
(1485365962.683093) can0 223#0000007FE000008C
(1485365962.683366) can0 0B4#00000000000000BC
(1485365962.683534) can0 224#0000000000000000
(1485365962.683861) can0 3B7#0000000000000000
(1485365962.692502) can0 0B2#00000000000C
(1485365962.692620) can0 0B0#00000000000C
(1485365962.694226) can0 260#0800000000FFF364
(1485365962.695776) can0 2C4#03F600130000A27C
(1485365962.702579) can0 0B2#00000000000D
(1485365962.702694) can0 0B0#00000000000D
(1485365962.703034) can0 0B4#00000000000000BC
(1485365962.705779) can0 2C1#08FF6DFF6A0000A8
(1485365962.712541) can0 0B2#00000000000E
(1485365962.712768) can0 0B0#00000000000E
(1485365962.713000) can0 223#0000007FE000008C
(1485365962.713370) can0 224#0000000000000000
(1485365962.714601) can0 260#080000000000087A
(1485365962.714801) can0 440#4202000007000000
(1485365962.715925) can0 2C4#03F600130000A27C
(1485365962.722554) can0 0B2#00000000000F
(1485365962.722722) can0 0B0#00000000000F
(1485365962.722996) can0 0B4#00000000000000BC
(1485365962.725903) can0 4ED#5C00000000000000
(1485365962.730278) can0 620#1000000030600050
(1485365962.732527) can0 0B2#000000000000
(1485365962.732644) can0 0B0#000000000000
(1485365962.734626) can0 260#0800000000000779
(1485365962.735750) can0 2C1#08FF67FF6A0000A2
(1485365962.735918) can0 2C4#03F700130000A27D
(1485365962.739881) can0 3A0#0000000000000014
(1485365962.742576) can0 0B2#000000000001
(1485365962.742771) can0 0B0#000000000001
(1485365962.743057) can0 223#0000007FE000008C
(1485365962.743369) can0 0B4#00000000000000BC
(1485365962.743512) can0 224#0000000000000000
(1485365962.752549) can0 0B2#000000000002
(1485365962.752667) can0 0B0#000000000002
(1485365962.754785) can0 260#080000000000087A
(1485365962.755761) can0 2C4#03F700130000A27D
(1485365962.762581) can0 0B2#000000000003
(1485365962.762698) can0 0B0#000000000003
(1485365962.763038) can0 0B4#00000000000000BC
(1485365962.765752) can0 2C1#08FF77FF740000BC
(1485365962.769833) can0 4DC#1D00010900000000
(1485365962.772629) can0 0B2#000000000004
(1485365962.772753) can0 0B0#000000000004
(1485365962.773086) can0 223#0000007FE000008C
(1485365962.773394) can0 224#0000000000000000
(1485365962.775228) can0 260#0800010000FFF567
(1485365962.776652) can0 2C4#03F400130000A27A
(1485365962.782605) can0 0B2#000000000005
(1485365962.782730) can0 0B0#000000000005
(1485365962.783097) can0 0B4#00000000000000BC
(1485365962.792506) can0 0B2#000000000006
(1485365962.792629) can0 0B0#000000000006
(1485365962.795227) can0 260#0800000000FFF869
(1485365962.796256) can0 2C1#08FF74FF740000B9
(1485365962.796448) can0 2C4#03F500130000A27B
(1485365962.796610) can0 3B3#03F500
(1485365962.802656) can0 0B2#000000000007
(1485365962.802779) can0 0B0#000000000007
(1485365962.803097) can0 223#0000007FE000008C
(1485365962.803358) can0 0B4#00000000000000BC
(1485365962.803577) can0 224#0000000000000000
(1485365962.806480) can0 442#4002000003000000
(1485365962.809807) can0 3B0#0000003200
(1485365962.810158) can0 621#1100000000000000
(1485365962.812506) can0 0B2#000000000008
(1485365962.812629) can0 0B0#000000000008
(1485365962.815452) can0 260#0800000000FFFA6B
(1485365962.815758) can0 2C4#03F500130000A27B
(1485365962.818958) can0 622#1200000000000000
(1485365962.822579) can0 0B2#000000000009
(1485365962.822700) can0 0B0#000000000009
(1485365962.823039) can0 0B4#00000000000000BC
(1485365962.825757) can0 2C1#08FF74FF700000B5
(1485365962.828151) can0 624#1A0057FFFF400000
(1485365962.832604) can0 0B2#00000000000A
(1485365962.832732) can0 0B0#00000000000A
(1485365962.832999) can0 223#0000007FE000008C
(1485365962.833304) can0 224#0000000000000000
(1485365962.835804) can0 2C4#03F400130000A27A
(1485365962.835972) can0 260#0800000000FFFC6D
(1485365962.837382) can0 630#1700000000000000
(1485365962.839851) can0 3A0#0000000000000014
(1485365962.842582) can0 0B2#00000000000B
(1485365962.842704) can0 0B0#00000000000B
(1485365962.843045) can0 0B4#00000000000000BC
(1485365962.846532) can0 638#1300110000000000
(1485365962.852507) can0 0B2#00000000000C
(1485365962.852630) can0 0B0#00000000000C
(1485365962.855780) can0 2C1#08FF77FF740000BC
(1485365962.855948) can0 260#0800000000FFFE6F
(1485365962.856224) can0 2C4#03F500130000A27B
(1485365962.862683) can0 0B2#00000000000D
(1485365962.862799) can0 0B0#00000000000D
(1485365962.863117) can0 223#0000007FE000008C
(1485365962.863361) can0 0B4#00000000000000BC
(1485365962.863615) can0 224#0000000000000000
(1485365962.869881) can0 380#00A0043000000300
(1485365962.872556) can0 0B2#00000000000E
(1485365962.872670) can0 0B0#00000000000E
(1485365962.875757) can0 2C4#03F500130000A27B
(1485365962.876063) can0 260#0800010000FFF769
(1485365962.882600) can0 0B2#00000000000F
(1485365962.882734) can0 0B0#00000000000F
(1485365962.883087) can0 0B4#00000000000000BC
(1485365962.885750) can0 2C1#08FF77FF740000BC
(1485365962.892598) can0 0B2#000000000000
(1485365962.892734) can0 0B0#000000000000
(1485365962.893031) can0 223#0000007FE000008C
(1485365962.893350) can0 224#0000000000000000
(1485365962.895799) can0 2C4#03F500130000A27B
(1485365962.896433) can0 260#0800000000000072
(1485365962.902600) can0 0B2#000000000001
(1485365962.902735) can0 0B0#000000000001
(1485365962.903088) can0 0B4#00000000000000BC
(1485365962.904456) can0 440#4202000007000000
(1485365962.907799) can0 610#2000006400000000
(1485365962.912548) can0 0B2#000000000002
(1485365962.912673) can0 0B0#000000000002
(1485365962.915748) can0 2C1#08FF77FF740000BC
(1485365962.915913) can0 2C4#03F500130000A27B
(1485365962.916495) can0 260#0800000000000072
(1485365962.919374) can0 611#2100201200021DB5
(1485365962.922674) can0 0B2#000000000003
(1485365962.922806) can0 0B0#000000000003
(1485365962.923114) can0 223#0000007FE000008C
(1485365962.923325) can0 0B4#00000000000000BC
(1485365962.923594) can0 224#0000000000000000
(1485365962.931298) can0 640#A8000032020D0000
(1485365962.932523) can0 0B2#000000000004
(1485365962.932647) can0 0B0#000000000004
(1485365962.935680) can0 2C4#03F600130000A27C
(1485365962.936468) can0 4DD#1E00000500000000
(1485365962.936764) can0 260#0800010000FFFC6E
(1485365962.939793) can0 3A0#0000000000000014
(1485365962.942573) can0 0B2#000000000005
(1485365962.942741) can0 0B0#000000000005
(1485365962.943033) can0 0B4#00000000000000BC
(1485365962.945749) can0 2C1#08FF70FF6D0000AE
(1485365962.946848) can0 394#00
(1485365962.952507) can0 0B2#000000000006
(1485365962.952700) can0 0B0#000000000006
(1485365962.952967) can0 223#0000007FE000008C
(1485365962.953317) can0 224#0000000000000000
(1485365962.955775) can0 2C4#03F700130000A27D
(1485365962.957099) can0 260#0800010000000376
(1485365962.962552) can0 0B2#000000000007
(1485365962.962708) can0 0B0#000000000007
(1485365962.962994) can0 0B4#00000000000000BC
(1485365962.972494) can0 0B2#000000000008
(1485365962.972641) can0 0B0#000000000008
(1485365962.975749) can0 2C1#08FF70FF6A0000AB
(1485365962.975925) can0 2C4#03F700130000A27D
(1485365962.977274) can0 260#080001000000087B
(1485365962.982650) can0 0B2#000000000009
(1485365962.982796) can0 0B0#000000000009
(1485365962.983082) can0 223#0000007FE000008C
(1485365962.983344) can0 0B4#00000000000000BC
(1485365962.983556) can0 224#0000000000000000
(1485365962.983871) can0 3B7#0000000000000000
(1485365962.992551) can0 0B2#00000000000A
(1485365962.992710) can0 0B0#00000000000A
(1485365962.995776) can0 2C4#03F600130000A27C
(1485365962.996550) can0 442#4002000003000000
(1485365962.997375) can0 260#080001000000077A
(1485365963.002630) can0 0B2#00000000000B
(1485365963.002760) can0 0B0#00000000000B
(1485365963.003122) can0 0B4#00000000000000BC
(1485365963.005755) can0 2C1#08FF6DFF6D0000AB
(1485365963.012628) can0 0B2#00000000000C
(1485365963.012761) can0 0B0#00000000000C
(1485365963.013073) can0 223#0000007FE000008C
(1485365963.013328) can0 224#0000000000000000
(1485365963.015776) can0 2C4#03F700130000A27D
(1485365963.017705) can0 260#0800000000FFFE6F
(1485365963.022600) can0 0B2#00000000000D
(1485365963.022773) can0 0B0#00000000000D
(1485365963.023091) can0 0B4#00000000000000BC
(1485365963.029578) can0 38A#0804000000
(1485365963.029899) can0 620#1000000030600050
(1485365963.032602) can0 0B2#00000000000E
(1485365963.032747) can0 0B0#00000000000E
(1485365963.035752) can0 2C1#08FF67FF6A0000A2
(1485365963.035927) can0 2C4#03F800130000A27E
(1485365963.037901) can0 260#0800000000000375
(1485365963.041100) can0 3A0#0000000000000014
(1485365963.042702) can0 0B2#00000000000F
(1485365963.042825) can0 0B0#00000000000F
(1485365963.043127) can0 223#0000007FE000008C
(1485365963.043366) can0 0B4#00000000000000BC
(1485365963.043623) can0 224#0000000000000000
(1485365963.052526) can0 0B2#000000000000
(1485365963.052656) can0 0B0#000000000000
(1485365963.056053) can0 2C4#03F800130000A27E
(1485365963.057949) can0 260#0800000000FFF768
(1485365963.062577) can0 0B2#000000000001
(1485365963.062712) can0 0B0#000000000001
(1485365963.063084) can0 0B4#00000000000000BC
(1485365963.065757) can0 2C1#08FF6AFF670000A2
(1485365963.072631) can0 0B2#000000000002
(1485365963.072758) can0 0B0#000000000002
(1485365963.073035) can0 223#0000007FE000008C
(1485365963.073363) can0 224#0000000000000000
(1485365963.075779) can0 2C4#03F700130000A27D
(1485365963.078378) can0 260#0800000000FFFF70
(1485365963.082607) can0 0B2#000000000003
(1485365963.082739) can0 0B0#000000000003
(1485365963.083111) can0 0B4#00000000000000BC
(1485365963.092528) can0 0B2#000000000004
(1485365963.092658) can0 0B0#000000000004
(1485365963.094278) can0 440#4202000007000000
(1485365963.095753) can0 2C1#08FF6AFF670000A2
(1485365963.095939) can0 2C4#03F700130000A27D
(1485365963.098532) can0 260#0800010000FFFF71
(1485365963.102680) can0 0B2#000000000005
(1485365963.102815) can0 0B0#000000000005
(1485365963.103118) can0 223#0000007FE000008C
(1485365963.103341) can0 0B4#00000000000000BC
(1485365963.103612) can0 224#0000000000000000
(1485365963.112481) can0 0B2#000000000006
(1485365963.112616) can0 0B0#000000000006
(1485365963.116581) can0 2C4#03F700130000A27D
(1485365963.118529) can0 260#0800000000000072
(1485365963.122557) can0 0B2#000000000007
(1485365963.122666) can0 0B0#000000000007
(1485365963.123001) can0 0B4#00000000000000BC
(1485365963.125731) can0 2C1#08FF70FF6D0000AE
(1485365963.132619) can0 0B2#000000000008
(1485365963.132763) can0 0B0#000000000008
(1485365963.133037) can0 223#0000007FE000008C
(1485365963.133396) can0 224#0000000000000000
(1485365963.136957) can0 2C4#03F500130000A27B
(1485365963.138904) can0 260#0800000000FFF263
(1485365963.139827) can0 3A0#0000000000000014
(1485365963.142633) can0 0B2#000000000009
(1485365963.142765) can0 0B0#000000000009
(1485365963.143094) can0 0B4#00000000000000BC
(1485365963.152507) can0 0B2#00000000000A
(1485365963.152680) can0 0B0#00000000000A
(1485365963.155758) can0 2C1#08FF77FF740000BC
(1485365963.155922) can0 2C4#03F500130000A27B
(1485365963.158956) can0 260#0800010000FFFF71
(1485365963.162708) can0 0B2#00000000000B
(1485365963.162841) can0 0B0#00000000000B
(1485365963.163162) can0 223#0000007FE000008C
(1485365963.163383) can0 0B4#00000000000000BC
(1485365963.163621) can0 224#0000000000000000
(1485365963.172508) can0 0B2#00000000000C
(1485365963.172641) can0 0B0#00000000000C
(1485365963.174205) can0 4C8#0900010700000000
(1485365963.175730) can0 2C4#03F500130000A27B
(1485365963.179129) can0 260#0800010000000578
(1485365963.182556) can0 0B2#00000000000D
(1485365963.182688) can0 0B0#00000000000D
(1485365963.183039) can0 0B4#00000000000000BC
(1485365963.185729) can0 2C1#08FF74FF700000B5
(1485365963.186528) can0 442#4002000003000000
(1485365963.192555) can0 0B2#00000000000E
(1485365963.192705) can0 0B0#00000000000E
(1485365963.192999) can0 223#0000007FE000008C
(1485365963.193350) can0 224#0000000000000000
(1485365963.195778) can0 2C4#03F500130000A27B
(1485365963.199385) can0 260#0800000000FFEF60
(1485365963.202555) can0 0B2#00000000000F
(1485365963.202689) can0 0B0#00000000000F
(1485365963.203059) can0 0B4#00000000000000BC
(1485365963.212458) can0 0B2#000000000000
(1485365963.212593) can0 0B0#000000000000
(1485365963.215781) can0 2C1#08FF77FF700000B8
(1485365963.215941) can0 2C4#03F500130000A27B
(1485365963.219584) can0 260#0800000000000577
(1485365963.222632) can0 0B2#000000000001
(1485365963.222768) can0 0B0#000000000001
(1485365963.223088) can0 223#0000007FE000008C
(1485365963.223347) can0 0B4#00000000000000BC
(1485365963.223528) can0 224#0000000000000000
(1485365963.229885) can0 398#06BC
(1485365963.230637) can0 3B4#000042B800000000
(1485365963.232466) can0 0B2#000000000002
(1485365963.232618) can0 0B0#000000000002
(1485365963.235756) can0 2C4#03F500130000A27B
(1485365963.239760) can0 260#0800000000FFFE6F
(1485365963.239924) can0 3A0#0000000000000014
(1485365963.242532) can0 0B2#000000000003
(1485365963.242668) can0 0B0#000000000003
(1485365963.243037) can0 0B4#00000000000000BC
(1485365963.245985) can0 2C1#080089FF740002D1
(1485365963.249735) can0 394#00
(1485365963.252557) can0 0B2#000000000004
(1485365963.252684) can0 0B0#000000000004
(1485365963.252986) can0 223#0000007FE000008C
(1485365963.253378) can0 224#0000000000000000
(1485365963.255782) can0 2C4#03F700130000A27D
(1485365963.259960) can0 260#0800000000FFFC6D
(1485365963.262558) can0 0B2#000000000005
(1485365963.262694) can0 0B0#000000000005
(1485365963.263002) can0 0B4#00000000000000BC
(1485365963.272492) can0 0B2#000000000006
(1485365963.272645) can0 0B0#000000000006
(1485365963.275714) can0 2C1#08005C0013000244
(1485365963.275965) can0 2C4#03F700130000A27D
(1485365963.280183) can0 260#0800010000FFFB6D
(1485365963.282633) can0 0B2#000000000007
(1485365963.282768) can0 0B0#000000000007
(1485365963.283091) can0 223#0000007FE000008C
(1485365963.283335) can0 0B4#00000000000000BC
(1485365963.283558) can0 224#0000000000000000
(1485365963.283859) can0 3B7#0000000000000000
(1485365963.284093) can0 440#4202000007000000
(1485365963.292532) can0 0B2#000000000008
(1485365963.292662) can0 0B0#000000000008
(1485365963.295783) can0 2C4#03F600130000A27C
(1485365963.295842) can0 3B3#03F608
(1485365963.300385) can0 260#0800000000000B7D
(1485365963.302605) can0 0B2#000000000009
(1485365963.302745) can0 0B0#000000000009
(1485365963.303091) can0 0B4#00000000000000BC
(1485365963.306586) can0 2C1#0001C300400006D5
(1485365963.312586) can0 0B2#00000000000A
(1485365963.312718) can0 0B0#00000000000A
(1485365963.313004) can0 223#0000007FE000008C
(1485365963.313361) can0 224#0000000000000000
(1485365963.315783) can0 2C4#03F900130000A27F
(1485365963.320558) can0 260#0800010000000578
(1485365963.322558) can0 0B2#00000000000B
(1485365963.322695) can0 0B0#00000000000B
(1485365963.323041) can0 0B4#00000000000000BC
(1485365963.329560) can0 620#1000000030600050
(1485365963.332533) can0 0B2#00000000000C
(1485365963.332694) can0 0B0#00000000000C
(1485365963.335733) can0 2C1#0004390106000D1C
(1485365963.335918) can0 2C4#040000130000A287
(1485365963.339834) can0 3A0#0000000000000014
(1485365963.340798) can0 260#0800010000FFFA6C
(1485365963.342634) can0 0B2#00000000000D
(1485365963.342772) can0 0B0#00000000000D
(1485365963.343047) can0 223#0000007FE000008C
(1485365963.343380) can0 0B4#00000000000000BC
(1485365963.343521) can0 224#0000000000000000
(1485365963.352512) can0 0B2#00000000000E
(1485365963.352646) can0 0B0#00000000000E
(1485365963.356008) can0 2C4#040900130000A290
(1485365963.360989) can0 260#0800000000000C7E
(1485365963.362560) can0 0B2#00000000000F
(1485365963.362724) can0 0B0#00000000000F
(1485365963.363062) can0 0B4#00000000000000BC
(1485365963.365787) can0 2C1#0008B605090022B9
(1485365963.372589) can0 0B2#000000000000
(1485365963.372721) can0 0B0#000000000000
(1485365963.372998) can0 223#0000007FE000008C
(1485365963.373354) can0 224#0000000000000000
(1485365963.373602) can0 4C3#0400300500000000
(1485365963.375810) can0 2C4#041700130000A29E
(1485365963.377309) can0 442#4002000003000000
(1485365963.381185) can0 260#0800000000FFF566
(1485365963.382560) can0 0B2#000000000001
(1485365963.382694) can0 0B0#000000000001
(1485365963.383064) can0 0B4#00000000000000BC
(1485365963.392514) can0 0B2#000000000002
(1485365963.392635) can0 0B0#000000000002
(1485365963.396712) can0 2C1#0008CC0579002E4B
(1485365963.396873) can0 2C4#046400130000A2EB
(1485365963.401411) can0 260#0800010000FFFF71
(1485365963.402660) can0 0B2#000000000003
(1485365963.402798) can0 0B0#000000000003
(1485365963.403102) can0 223#0000007FE000008C
(1485365963.403356) can0 0B4#00000000000000BC
(1485365963.403569) can0 224#0000000000000000
(1485365963.407388) can0 610#2000006400000000
(1485365963.412514) can0 0B2#000000000004
(1485365963.412648) can0 0B0#000000000004
(1485365963.415761) can0 2C4#049400130000A21B
(1485365963.421585) can0 260#0800000000FFF869
(1485365963.422562) can0 0B2#000000000005
(1485365963.422727) can0 0B0#000000000005
(1485365963.423042) can0 0B4#00000000000000BC
(1485365963.425764) can0 2C1#0008B60706003DD3
(1485365963.432544) can0 0B2#000000000006
(1485365963.432735) can0 0B0#000000000006
(1485365963.433005) can0 223#0000007FE000008C
(1485365963.433365) can0 224#0000000000000000
(1485365963.435786) can0 2C4#04CA00130000A251
(1485365963.439814) can0 3A0#0000000000000014
(1485365963.441786) can0 260#0800010000000275
(1485365963.442560) can0 0B2#000000000007
(1485365963.442704) can0 0B0#000000000007
(1485365963.443067) can0 0B4#00000000000000BC
(1485365963.452517) can0 0B2#000000000008
(1485365963.452648) can0 0B0#000000000008
(1485365963.456688) can0 2C1#00097607B6004047
(1485365963.456838) can0 2C4#053C00130000A2C4
(1485365963.462041) can0 260#0800000000000678
(1485365963.462681) can0 0B2#000000000009
(1485365963.462840) can0 0B0#000000000009
(1485365963.463112) can0 223#0000007FE000008C
(1485365963.463365) can0 0B4#00000000000000BC
(1485365963.463620) can0 224#0000000000000000
(1485365963.472486) can0 0B2#00000000000A
(1485365963.472625) can0 0B0#00000000000A
(1485365963.473777) can0 440#4202000007000000
(1485365963.475787) can0 2C4#057500130000A2FD
(1485365963.482190) can0 260#080000000000097B
(1485365963.482458) can0 0B2#00000000000B
(1485365963.482715) can0 0B0#00000000000B
(1485365963.483008) can0 0B4#00000000000000BC
(1485365963.485767) can0 2C1#0009D00893004483
(1485365963.492517) can0 0B2#00000000000C
(1485365963.492736) can0 0B0#00000000000C
(1485365963.492978) can0 223#0000007FE000008C
(1485365963.493357) can0 224#0000000000000000
(1485365963.495814) can0 2C4#05EE00130000A276
(1485365963.495978) can0 4C1#0100500500000000
(1485365963.502417) can0 260#0800000000000375
(1485365963.502549) can0 0B2#00000000000D
(1485365963.502805) can0 0B0#00000000000D
(1485365963.503087) can0 0B4#00000000000000BC
(1485365963.512542) can0 0B2#00000000000E
(1485365963.512668) can0 0B0#00000000000E
(1485365963.515760) can0 2C1#000A500923004E9F
(1485365963.515925) can0 2C4#062900130000A2B2
(1485365963.522549) can0 260#0800000000000375
(1485365963.522786) can0 0B2#00000000000F
(1485365963.522993) can0 0B0#00000000000F
(1485365963.523218) can0 223#0000007FE000008C
(1485365963.523494) can0 0B4#00000000000000BC
(1485365963.523748) can0 224#0000000000000000
(1485365963.531327) can0 38A#0D04000000
(1485365963.532465) can0 0B2#000000000000
(1485365963.532653) can0 0B0#000000000000
(1485365963.535735) can0 2C4#069100130000A21A
(1485365963.539766) can0 3A0#0000000000000014
(1485365963.542536) can0 0B2#000000000001
(1485365963.542757) can0 0B0#000000000001
(1485365963.543007) can0 260#0800000000FFF869
(1485365963.543230) can0 0B4#00000000000000BC
(1485365963.545789) can0 2C1#000A7009A0005341
(1485365963.552616) can0 0B2#000000000002
(1485365963.552753) can0 0B0#000000000002
(1485365963.553016) can0 223#0000007FE000008C
(1485365963.553109) can0 394#00
(1485365963.553381) can0 224#0000000000000000
(1485365963.555788) can0 2C4#06F700130000A280
(1485365963.562616) can0 0B2#000000000003
(1485365963.562751) can0 0B0#000000000003
(1485365963.563042) can0 260#0800010000000073
(1485365963.563221) can0 0B4#00000000000000BC
(1485365963.567120) can0 442#4002000003000000
(1485365963.572518) can0 0B2#000000000004
(1485365963.572651) can0 0B0#000000000004
(1485365963.575765) can0 2C1#000A9909D300559F
(1485365963.575930) can0 2C4#075700130000A2E1
(1485365963.582645) can0 0B2#000000000005
(1485365963.582777) can0 0B0#000000000005
(1485365963.583097) can0 223#0000007FE000008C
(1485365963.583343) can0 0B4#00000000000000BC
(1485365963.583573) can0 224#0000000000000000
(1485365963.583817) can0 260#0800010000FFFB6D
(1485365963.584039) can0 3B7#0000000000000000
(1485365963.592540) can0 0B2#000000000006
(1485365963.592671) can0 0B0#000000000006
(1485365963.595794) can0 2C4#07B200130000A23C
(1485365963.602594) can0 0B2#000000000007
(1485365963.602728) can0 0B0#000000000007
(1485365963.603099) can0 0B4#00000000000000BC
(1485365963.603384) can0 260#0800000000FFF566
(1485365963.606020) can0 2C1#000AC60A29005725
(1485365963.612595) can0 0B2#000000000008
(1485365963.612727) can0 0B0#000000000008
(1485365963.613043) can0 223#0000007FE000008C
(1485365963.613384) can0 224#0000000000000000
(1485365963.615868) can0 2C4#080A00130000A295
(1485365963.618094) can0 3B1#0000022A00000000
(1485365963.622594) can0 0B2#000000000009
(1485365963.622768) can0 0B0#000000000009
(1485365963.623054) can0 0B4#00000000000000BC
(1485365963.623691) can0 260#0800000000000173
(1485365963.629209) can0 620#1000000030600050
(1485365963.632519) can0 0B2#00000000000A
(1485365963.632652) can0 0B0#00000000000A
(1485365963.636520) can0 2C1#000AF30A5600577F
(1485365963.636744) can0 2C4#088A00130000A215
(1485365963.639792) can0 3A0#0000000000000014
(1485365963.642620) can0 0B2#00000000000B
(1485365963.642753) can0 0B0#00000000000B
(1485365963.643069) can0 223#0000007FE000008C
(1485365963.643231) can0 0B4#00000000000000BC
(1485365963.643551) can0 224#0000000000000000
(1485365963.643879) can0 260#0800000000FFFF70
(1485365963.652534) can0 0B2#00000000000C
(1485365963.652675) can0 0B0#00000000000C
(1485365963.655768) can0 2C4#08DC00130000A267
(1485365963.662620) can0 0B2#00000000000D
(1485365963.662761) can0 0B0#00000000000D
(1485365963.663107) can0 0B4#00000000000000BC
(1485365963.663512) can0 440#4202000007000000
(1485365963.664099) can0 260#0800000000000375
(1485365963.665768) can0 2C1#000AEC0A830056A4
(1485365963.672618) can0 0B2#00000000000E
(1485365963.672760) can0 0B0#00000000000E
(1485365963.673015) can0 223#0000007FE000008C
(1485365963.673370) can0 224#0000000000000000
(1485365963.675818) can0 2C4#092800130000A2B4
(1485365963.682596) can0 0B2#00000000000F
(1485365963.682742) can0 0B0#00000000000F
(1485365963.683057) can0 0B4#00000000000000BC
(1485365963.684320) can0 260#0800000000FFFC6D
(1485365963.692468) can0 0B2#000000000000
(1485365963.692614) can0 0B0#000000000000
(1485365963.695819) can0 2C1#000B0C0A9C0057DF
(1485365963.695988) can0 2C4#099700130000A223
(1485365963.702643) can0 0B2#000000000001
(1485365963.702791) can0 0B0#000000000001
(1485365963.703074) can0 223#0000007FE000008C
(1485365963.703379) can0 0B4#00000000000000BC
(1485365963.703541) can0 224#0000000000000000
(1485365963.704721) can0 260#0800000000FFFD6E
(1485365963.712472) can0 0B2#000000000002
(1485365963.712614) can0 0B0#000000000002
(1485365963.716143) can0 2C4#0A0300130000A290
(1485365963.722546) can0 0B2#000000000003
(1485365963.722689) can0 0B0#000000000003
(1485365963.723018) can0 0B4#00000000000000BC
(1485365963.724723) can0 260#0800010000000477
(1485365963.725616) can0 4ED#5C00000000000000
(1485365963.725789) can0 2C1#000B330AC300572D
(1485365963.732546) can0 0B2#000000000004
(1485365963.732684) can0 0B0#000000000004
(1485365963.732992) can0 223#0000007FE000008C
(1485365963.733239) can0 224#0000000000000000
(1485365963.735820) can0 2C4#0A4500130000A2D2
(1485365963.739797) can0 3A0#0000000000000014
(1485365963.742546) can0 0B2#000000000005
(1485365963.742691) can0 0B0#000000000005
(1485365963.743008) can0 0B4#00000000000000BC
(1485365963.744946) can0 260#0800000000000577
(1485365963.752433) can0 0B2#000000000006
(1485365963.752593) can0 0B0#000000000006
(1485365963.755770) can0 2C1#000B990AF60057C6
(1485365963.755945) can0 2C4#0AA500130000A232
(1485365963.756357) can0 442#4002000003000000
(1485365963.762624) can0 0B2#000000000007
(1485365963.762766) can0 0B0#000000000007
(1485365963.763054) can0 223#0000007FE000008C
(1485365963.763372) can0 0B4#00000000000000BC
(1485365963.763500) can0 224#0000000000000000
(1485365963.765321) can0 260#0800010000FFF163
(1485365963.769775) can0 4DC#1D00010900000000
(1485365963.772473) can0 0B2#000000000008
(1485365963.772618) can0 0B0#000000000008
(1485365963.776222) can0 2C4#0B0200130000A290
(1485365963.782523) can0 0B2#000000000009
(1485365963.782668) can0 0B0#000000000009
(1485365963.783011) can0 0B4#00000000000000BC
(1485365963.785329) can0 260#0800000000FFFF70
(1485365963.785791) can0 2C1#000BD60B53005761
(1485365963.792488) can0 0B2#00000000000A
(1485365963.792680) can0 0B0#00000000000A
(1485365963.792991) can0 223#0000007FE000008C
(1485365963.793367) can0 224#0000000000000000
(1485365963.795793) can0 2C4#0B5700130000A2E5
(1485365963.795890) can0 3B3#0B5736
(1485365963.802549) can0 0B2#00000000000B
(1485365963.802691) can0 0B0#00000000000B
(1485365963.803049) can0 0B4#00000000000000BC
(1485365963.805543) can0 260#0800000000FFFE6F
(1485365963.809000) can0 621#1100000000000000
(1485365963.809742) can0 3B0#0000003200
(1485365963.812525) can0 0B2#00000000000C
(1485365963.812666) can0 0B0#00000000000C
(1485365963.815818) can0 2C1#000BF60B730057A1
(1485365963.815995) can0 2C4#0BAC00130000A23A
(1485365963.817975) can0 622#1200000000000000
(1485365963.822676) can0 0B2#00000000000D
(1485365963.822817) can0 0B0#00000000000D
(1485365963.823102) can0 223#0000007FE000008C
(1485365963.823367) can0 0B4#00000000000000BC
(1485365963.823579) can0 224#0000000000000000
(1485365963.825948) can0 260#0800000000000476
(1485365963.827148) can0 624#1A0057FFFF400000
(1485365963.832497) can0 0B2#00000000000E
(1485365963.832632) can0 0B0#00000000000E
(1485365963.836399) can0 630#1700000000000000
(1485365963.836537) can0 2C4#0C1500130000A2A4
(1485365963.839772) can0 3A0#0000000000000014
(1485365963.842550) can0 0B2#00000000000F
(1485365963.842707) can0 0B0#00000000000F
(1485365963.843017) can0 0B4#00000000000000BC
(1485365963.845551) can0 638#1300110000000000
(1485365963.845703) can0 2C1#000C1C0BAC005600
(1485365963.845996) can0 260#0800000000000375
(1485365963.852523) can0 0B2#000000000000
(1485365963.852695) can0 0B0#000000000000
(1485365963.853017) can0 223#0000007FE000008C
(1485365963.853239) can0 440#4202000007000000
(1485365963.853508) can0 224#0000000000000000
(1485365963.855873) can0 2C4#0C6300130000A2F2
(1485365963.856056) can0 394#00
(1485365963.862550) can0 0B2#000000000001
(1485365963.862685) can0 0B0#000000000001
(1485365963.863017) can0 0B4#00000000000000BC
(1485365963.866175) can0 260#0800000000000375
(1485365963.869801) can0 380#00A0043000000300
(1485365963.872498) can0 0B2#000000000002
(1485365963.872633) can0 0B0#000000000002
(1485365963.875999) can0 2C1#000C060BBC0056FA
(1485365963.876159) can0 2C4#0CA800130000A237
(1485365963.882634) can0 0B2#000000000003
(1485365963.882758) can0 0B0#000000000003
(1485365963.883089) can0 223#0000007FE000008C
(1485365963.883382) can0 0B4#00000000000000BC
(1485365963.883525) can0 224#0000000000000000
(1485365963.883853) can0 3B7#0000000000000000
(1485365963.886586) can0 260#0800010000000679
(1485365963.892485) can0 0B2#000000000004
(1485365963.892609) can0 0B0#000000000004
(1485365963.896182) can0 2C4#0D0600130000A296
(1485365963.902583) can0 0B2#000000000005
(1485365963.902707) can0 0B0#000000000005
(1485365963.903039) can0 0B4#00000000000000BC
(1485365963.906608) can0 260#0800000000FFF869
(1485365963.906732) can0 2C1#000BE60BBC0056D9
(1485365963.907194) can0 610#2000006400000000
(1485365963.912611) can0 0B2#000000000006
(1485365963.912734) can0 0B0#000000000006
(1485365963.913041) can0 223#0000007FE000008C
(1485365963.913394) can0 224#0000000000000000
(1485365963.915884) can0 2C4#0D4A00130000A2DA
(1485365963.916768) can0 611#2100201200021DB5
(1485365963.922542) can0 0B2#000000000007
(1485365963.922710) can0 0B0#000000000007
(1485365963.923034) can0 0B4#00000000000000BC
(1485365963.926809) can0 260#0800000000000779
(1485365963.928619) can0 640#A8000032020E0000
(1485365963.928788) can0 620#1000000030600050
(1485365963.932549) can0 0B2#000000000008
(1485365963.932699) can0 0B0#000000000008
(1485365963.935774) can0 2C1#000BE30BBC0056D6
(1485365963.935955) can0 2C4#0DA000130000A230
(1485365963.939777) can0 3A0#0000000000000014
(1485365963.942649) can0 0B2#000000000009
(1485365963.942786) can0 0B0#000000000009
(1485365963.943062) can0 223#0000007FE000008C
(1485365963.943377) can0 0B4#00000000000000BC
(1485365963.943553) can0 224#0000000000000000
(1485365963.946399) can0 442#4002000003000000
(1485365963.947183) can0 260#080000000000087A
(1485365963.948150) can0 4DD#1E00000500000000
(1485365963.952501) can0 0B2#00000000000A
(1485365963.952638) can0 0B0#00000000000A
(1485365963.956799) can0 2C4#0DF300130000A283
(1485365963.961073) can0 398#19D9
(1485365963.962575) can0 0B2#00000000000B
(1485365963.962711) can0 0B0#00000000000B
(1485365963.963020) can0 0B4#00000000000000BC
(1485365963.966778) can0 2C1#000BEC0BC30055E5
(1485365963.967166) can0 260#080000000000087A
(1485365963.972577) can0 0B2#00000000000C
(1485365963.972725) can0 0B0#00000000000C
(1485365963.973002) can0 223#0000007FE000008C
(1485365963.973369) can0 224#0000000000000000
(1485365963.975877) can0 2C4#0E3500130000A2C6
(1485365963.982579) can0 0B2#00000000000D
(1485365963.982709) can0 0B0#00000000000D
(1485365963.983080) can0 0B4#00000000000000BC
(1485365963.987402) can0 260#0800000000FFF96A
(1485365963.992499) can0 0B2#00000000000E
(1485365963.992631) can0 0B0#00000000000E
(1485365963.996051) can0 2C1#000BF30BC90055F2
(1485365963.996210) can0 2C4#0E8600130000A217
(1485365964.002629) can0 0B2#00000000000F
(1485365964.002756) can0 0B0#00000000000F
(1485365964.003022) can0 223#0000007FE000008C
(1485365964.003380) can0 0B4#00000000000000BC
(1485365964.003506) can0 224#0000000000000000
(1485365964.007805) can0 260#0800000000FFF768
(1485365964.012496) can0 0B2#000000000000
(1485365964.012630) can0 0B0#000000000000
(1485365964.015976) can0 2C4#0ED700130000A268
(1485365964.022488) can0 0B2#000000000001
(1485365964.022707) can0 0B0#000000000001
(1485365964.023022) can0 0B4#00000000000000BC
(1485365964.025977) can0 2C1#000BD00BC00055C6
(1485365964.027977) can0 260#0800000000FFF768
(1485365964.032603) can0 0B2#000000000002
(1485365964.032739) can0 0B0#000000000002
(1485365964.033020) can0 223#0000007FE000008C
(1485365964.033378) can0 224#0000000000000000
(1485365964.036000) can0 2C4#0F2400130000A2B6
(1485365964.039776) can0 3A0#0000000000000014
(1485365964.042605) can0 0B2#000000000003
(1485365964.042735) can0 0B0#000000000003
(1485365964.043060) can0 0B4#00000000000000BC
(1485365964.043379) can0 440#4202000007000000
(1485365964.048031) can0 260#080000000000087A
(1485365964.052541) can0 0B2#000000000004
(1485365964.052662) can0 0B0#000000000004
(1485365964.055987) can0 2C1#000BD00BB60055BC
(1485365964.056187) can0 2C4#0F6C00130000A2FE
(1485365964.062692) can0 0B2#000000000005
(1485365964.062814) can0 0B0#000000000005
(1485365964.063126) can0 223#0000007FE000008C
(1485365964.063390) can0 0B4#00000000000000BC
(1485365964.063612) can0 224#0000000000000000
(1485365964.068437) can0 260#0800000000000274
(1485365964.072541) can0 0B2#000000000006
(1485365964.072664) can0 0B0#000000000006
(1485365964.076790) can0 2C4#0FBB00130000A24D
(1485365964.082616) can0 0B2#000000000007
(1485365964.082714) can0 0B0#000000000007
(1485365964.083042) can0 0B4#00000000000000BC
(1485365964.086789) can0 2C1#000C0C0BC6005509
(1485365964.088615) can0 260#0800000000000678
(1485365964.092587) can0 0B2#000000000008
(1485365964.092703) can0 0B0#000000000008
(1485365964.093035) can0 223#0000007FE000008C
(1485365964.093272) can0 224#0000000000000000
(1485365964.096241) can0 2C4#101500130000A2A8
(1485365964.102567) can0 0B2#000000000009
(1485365964.102690) can0 0B0#000000000009
(1485365964.103069) can0 0B4#00000000000000BC
(1485365964.108642) can0 260#0800000000FFF667
(1485365964.112541) can0 0B2#00000000000A
(1485365964.112666) can0 0B0#00000000000A
(1485365964.115789) can0 2C1#000BF00BD30055F9
(1485365964.115941) can0 2C4#106100130000A2F4
(1485365964.122666) can0 0B2#00000000000B
(1485365964.122789) can0 0B0#00000000000B
(1485365964.123080) can0 223#0000007FE000008C
(1485365964.123383) can0 0B4#00000000000000BC
(1485365964.123564) can0 224#0000000000000000
(1485365964.128829) can0 260#0800000000000173
(1485365964.132090) can0 38A#0904000000
(1485365964.132445) can0 0B2#00000000000C
(1485365964.132673) can0 0B0#00000000000C
(1485365964.136351) can0 442#4002000003000000
(1485365964.136515) can0 2C4#10A800130000A23B
(1485365964.139716) can0 3A0#0000000000000014
(1485365964.142514) can0 0B2#00000000000D
(1485365964.142711) can0 0B0#00000000000D
(1485365964.143011) can0 0B4#00000000000000BC
(1485365964.146085) can0 2C1#000B9C0BB0005481
(1485365964.148960) can0 260#0800000000000072
(1485365964.152484) can0 0B2#00000000000E
(1485365964.152707) can0 0B0#00000000000E
(1485365964.152958) can0 223#0000007FE000008C
(1485365964.153259) can0 224#0000000000000000
(1485365964.156062) can0 2C4#110300130000A297
(1485365964.158912) can0 394#00
(1485365964.162459) can0 0B2#00000000000F
(1485365964.162662) can0 0B0#00000000000F
(1485365964.162962) can0 0B4#00000000000000BC
(1485365964.164262) can0 4C8#0900010700000000
(1485365964.169137) can0 260#0800000000FFF162
(1485365964.172485) can0 0B2#000000000000
(1485365964.172685) can0 0B0#000000000000
(1485365964.176413) can0 2C1#000BC30BA300559C
(1485365964.176661) can0 2C4#116000130000A2F4
(1485365964.182611) can0 0B2#000000000001
(1485365964.182812) can0 0B0#000000000001
(1485365964.183062) can0 223#0000007FE000008C
(1485365964.183337) can0 0B4#00000000000000BC
(1485365964.183563) can0 224#0000000000000000
(1485365964.183861) can0 3B7#0000000000000000
(1485365964.189337) can0 260#0800000000000577
(1485365964.192462) can0 0B2#000000000002
(1485365964.192664) can0 0B0#000000000002
(1485365964.195712) can0 2C4#11A700130000A23B
(1485365964.202513) can0 0B2#000000000003
(1485365964.202736) can0 0B0#000000000003
(1485365964.203011) can0 0B4#00000000000000BC
(1485365964.205689) can0 2C1#000B790B89005639
(1485365964.209563) can0 260#0800000000FFF465
(1485365964.212485) can0 0B2#000000000004
(1485365964.212708) can0 0B0#000000000004
(1485365964.212936) can0 223#0000007FE000008C
(1485365964.213232) can0 224#0000000000000000
(1485365964.215938) can0 2C4#120A00130000A29F
(1485365964.222485) can0 0B2#000000000005
(1485365964.222686) can0 0B0#000000000005
(1485365964.222983) can0 0B4#00000000000000BC
(1485365964.228461) can0 620#1000000030600050
(1485365964.229763) can0 260#0800000000000072
(1485365964.231688) can0 3B4#000042B800000000
(1485365964.232388) can0 0B2#000000000006
(1485365964.232586) can0 0B0#000000000006
(1485365964.232938) can0 440#4202000007000000
(1485365964.235687) can0 2C1#000B8C0B70005734
(1485365964.235938) can0 2C4#126900130000A2FE
(1485365964.239688) can0 3A0#0000000000000014
(1485365964.242538) can0 0B2#000000000007
(1485365964.242763) can0 0B0#000000000007
(1485365964.243014) can0 223#0000007FE000008C
(1485365964.243237) can0 0B4#00000000000000BC
(1485365964.243516) can0 224#0000000000000000
(1485365964.249962) can0 260#0800000000000072
(1485365964.252389) can0 0B2#000000000008
(1485365964.252586) can0 0B0#000000000008
(1485365964.256040) can0 2C4#12CF00130000A264
(1485365964.262443) can0 0B2#000000000009
(1485365964.262667) can0 0B0#000000000009
(1485365964.262966) can0 0B4#00000000000000BC
(1485365964.266587) can0 2C1#000B960B69005A3A
(1485365964.270192) can0 260#0800000000000678
(1485365964.272467) can0 0B2#00000000000A
(1485365964.272691) can0 0B0#00000000000A
(1485365964.272917) can0 223#0000007FE000008C
(1485365964.273240) can0 224#0000000000000000
(1485365964.275723) can0 2C4#133A00130000A2D0
(1485365964.282449) can0 0B2#00000000000B
(1485365964.282675) can0 0B0#00000000000B
(1485365964.282975) can0 0B4#00000000000000BC
(1485365964.290376) can0 260#0800000000000E80
(1485365964.292376) can0 0B2#00000000000C
(1485365964.292600) can0 0B0#00000000000C
(1485365964.295725) can0 2C1#000B660B69005B0B
(1485365964.296650) can0 2C4#139A00130000A230
(1485365964.296825) can0 3B3#139A3A
(1485365964.302548) can0 0B2#00000000000D
(1485365964.302748) can0 0B0#00000000000D
(1485365964.302997) can0 223#0000007FE000008C
(1485365964.303244) can0 0B4#00000000000000BC
(1485365964.303498) can0 224#0000000000000000
(1485365964.303799) can0 4C3#0400300500000000
(1485365964.310599) can0 260#0800000000FFF869
(1485365964.312427) can0 0B2#00000000000E
(1485365964.312623) can0 0B0#00000000000E
(1485365964.314926) can0 398#1EA3
(1485365964.316251) can0 2C4#140E00130000A2A5
(1485365964.322476) can0 0B2#00000000000F
(1485365964.322700) can0 0B0#00000000000F
(1485365964.322976) can0 0B4#00000000000000BC
(1485365964.326576) can0 2C1#000B560B3C005ED1
(1485365964.327926) can0 442#4002000003000000
(1485365964.330803) can0 260#0800000000FFF364
(1485365964.332554) can0 0B2#000000000000
(1485365964.332777) can0 0B0#000000000000
(1485365964.333000) can0 223#0000007FE000008C
(1485365964.333351) can0 224#0000000000000000
(1485365964.335802) can0 2C4#146F00130000A206
(1485365964.339701) can0 3A0#0000000000000014
(1485365964.342527) can0 0B2#000000000001
(1485365964.342727) can0 0B0#000000000001
(1485365964.343026) can0 0B4#00000000000000BC
(1485365964.351001) can0 260#0800000000000A7C
(1485365964.352404) can0 0B2#000000000002
(1485365964.352624) can0 0B0#000000000002
(1485365964.356554) can0 2C1#000B630B39005FDC
(1485365964.356778) can0 2C4#14DE00130000A275
(1485365964.362554) can0 0B2#000000000003
(1485365964.362777) can0 0B0#000000000003
(1485365964.363027) can0 223#0000007FE000008C
(1485365964.363277) can0 0B4#00000000000000BC
(1485365964.363527) can0 224#0000000000000000
(1485365964.371170) can0 260#0800000000FFFA6B
(1485365964.372427) can0 0B2#000000000004
(1485365964.372625) can0 0B0#000000000004
(1485365964.375750) can0 2C4#154100130000A2D9
(1485365964.382568) can0 0B2#000000000005
(1485365964.382697) can0 0B0#000000000005
(1485365964.383024) can0 0B4#00000000000000BC
(1485365964.385766) can0 2C1#000B360B3C0061B4
(1485365964.391464) can0 260#0800000000000779
(1485365964.392525) can0 0B2#000000000006
(1485365964.392687) can0 0B0#000000000006
(1485365964.392990) can0 223#0000007FE000008C
(1485365964.393283) can0 224#0000000000000000
(1485365964.396036) can0 2C4#15B800130000A250
(1485365964.402539) can0 0B2#000000000007
(1485365964.402703) can0 0B0#000000000007
(1485365964.403028) can0 0B4#00000000000000BC
(1485365964.405816) can0 4C1#0100500500000000
(1485365964.407411) can0 610#2000006400000000
(1485365964.411664) can0 260#0800010000000073
(1485365964.412460) can0 0B2#000000000008
(1485365964.412611) can0 0B0#000000000008
(1485365964.416187) can0 2C1#000AF90B1C006156
(1485365964.416339) can0 2C4#162600130000A2BF
(1485365964.422641) can0 0B2#000000000009
(1485365964.422774) can0 0B0#000000000009
(1485365964.423030) can0 223#0000007FE000008C
(1485365964.423283) can0 0B4#00000000000000BC
(1485365964.423533) can0 224#0000000000000000
(1485365964.423782) can0 440#4202000007000000
(1485365964.431888) can0 260#0800000000FFFA6B
(1485365964.432456) can0 0B2#00000000000A
(1485365964.432614) can0 0B0#00000000000A
(1485365964.436134) can0 2C4#169600130000A22F
(1485365964.439760) can0 3A0#0000000000000014
(1485365964.442565) can0 0B2#00000000000B
(1485365964.442701) can0 0B0#00000000000B
(1485365964.443067) can0 0B4#00000000000000BC
(1485365964.445765) can0 2C1#000A790AC0006179
(1485365964.452091) can0 260#0800000000000375
(1485365964.452555) can0 0B2#00000000000C
(1485365964.452717) can0 0B0#00000000000C
(1485365964.453019) can0 223#0000007FE000008C
(1485365964.453390) can0 224#0000000000000000
(1485365964.456013) can0 2C4#16FE00130000A297
(1485365964.462066) can0 394#00
(1485365964.462536) can0 0B2#00000000000D
(1485365964.462740) can0 0B0#00000000000D
(1485365964.463033) can0 0B4#00000000000000BC
(1485365964.472290) can0 260#0800010000FFFC6E
(1485365964.472440) can0 0B2#00000000000E
(1485365964.472664) can0 0B0#00000000000E
(1485365964.475785) can0 2C1#000A690A96006240
(1485365964.475950) can0 2C4#176400130000A2FE
(1485365964.482638) can0 0B2#00000000000F
(1485365964.482802) can0 0B0#00000000000F
(1485365964.483097) can0 223#0000007FE000008C
(1485365964.483391) can0 0B4#00000000000000BC
(1485365964.483568) can0 224#0000000000000000
(1485365964.483869) can0 3B7#0000000000000000
(1485365964.492488) can0 260#0800000000FFF96A
(1485365964.492626) can0 0B2#000000000000
(1485365964.492852) can0 0B0#000000000000
(1485365964.496688) can0 2C4#17E100130000A27B
(1485365964.502566) can0 0B2#000000000001
(1485365964.502699) can0 0B0#000000000001
(1485365964.503057) can0 0B4#00000000000000BC
(1485365964.506293) can0 2C1#0009B90A59005F4F
(1485365964.512542) can0 0B2#000000000002
(1485365964.512676) can0 0B0#000000000002
(1485365964.512974) can0 223#0000007FE000008C
(1485365964.513184) can0 260#0800000000000072
(1485365964.513465) can0 224#0000000000000000
(1485365964.515791) can0 2C4#183D00130000A2D8
(1485365964.516412) can0 442#4002000003000000
(1485365964.522544) can0 0B2#000000000003
(1485365964.522676) can0 0B0#000000000003
(1485365964.523003) can0 0B4#00000000000000BC
(1485365964.528189) can0 620#1000000030600050
(1485365964.532417) can0 0B2#000000000004
(1485365964.532634) can0 0B0#000000000004
(1485365964.532900) can0 260#0800000000000274
(1485365964.536293) can0 2C1#00083309990054FC
(1485365964.536464) can0 2C4#189A00130000A235
(1485365964.539765) can0 3A0#0000000000000014
(1485365964.542643) can0 0B2#000000000005
(1485365964.542752) can0 0B0#000000000005
(1485365964.543039) can0 223#0000007FE000008C
(1485365964.543392) can0 0B4#00000000000000BC
(1485365964.543496) can0 224#0000000000000000
(1485365964.552515) can0 0B2#000000000006
(1485365964.552652) can0 0B0#000000000006
(1485365964.553126) can0 260#0800000000FFF768
(1485365964.555789) can0 2C4#18E700130000A282
(1485365964.562594) can0 0B2#000000000007
(1485365964.562731) can0 0B0#000000000007
(1485365964.563038) can0 0B4#00000000000000BC
(1485365964.566295) can0 2C1#0004F905DC003CE5
(1485365964.572590) can0 0B2#000000000008
(1485365964.572737) can0 0B0#000000000008
(1485365964.573016) can0 223#0000007FE000008C
(1485365964.573287) can0 260#0800000000000072
(1485365964.573538) can0 224#0000000000000000
(1485365964.576042) can0 2C4#191600130000A2B2
(1485365964.577616) can0 398#2046
(1485365964.582595) can0 0B2#000000000009
(1485365964.582726) can0 0B0#000000000009
(1485365964.583074) can0 0B4#00000000000000BC
(1485365964.592518) can0 0B2#00000000000A
(1485365964.592651) can0 0B0#00000000000A
(1485365964.593541) can0 260#0800010000000275
(1485365964.596314) can0 2C1#00022304EC002505
(1485365964.596489) can0 2C4#194000130000A2DC
(1485365964.602669) can0 0B2#00000000000B
(1485365964.602801) can0 0B0#00000000000B
(1485365964.603080) can0 223#0000007FE000008C
(1485365964.603412) can0 0B4#00000000000000BC
(1485365964.603553) can0 224#0000000000000000
(1485365964.612495) can0 0B2#00000000000C
(1485365964.612628) can0 0B0#00000000000C
(1485365964.612908) can0 440#4202000007000000
(1485365964.613762) can0 260#0800000000000173
(1485365964.615792) can0 2C4#193A00130000A2D6
(1485365964.619270) can0 3B1#0000022A00000000
(1485365964.622568) can0 0B2#00000000000D
(1485365964.622678) can0 0B0#00000000000D
(1485365964.623029) can0 0B4#00000000000000BC
(1485365964.626447) can0 2C1#08F9F7FB54000012
(1485365964.632620) can0 0B2#00000000000E
(1485365964.632725) can0 0B0#00000000000E
(1485365964.633030) can0 223#0000007FE000008C
(1485365964.633394) can0 224#0000000000000000
(1485365964.633973) can0 260#0800000000FFF465
(1485365964.635768) can0 2C4#18F800130000A293
(1485365964.639743) can0 3A0#0000000000000014
(1485365964.642569) can0 0B2#00000000000F
(1485365964.642730) can0 0B0#00000000000F
(1485365964.643038) can0 0B4#00000000000000BC
(1485365964.652454) can0 0B2#000000000000
(1485365964.652667) can0 0B0#000000000000
(1485365964.654169) can0 260#0800000000000375
(1485365964.656195) can0 2C1#08FA0AFA0A0000DB
(1485365964.656367) can0 2C4#18B500130000A250
(1485365964.662646) can0 0B2#000000000001
(1485365964.662780) can0 0B0#000000000001
(1485365964.663074) can0 223#0000007FE000008C
(1485365964.663397) can0 0B4#00000000000000BC
(1485365964.663526) can0 224#0000000000000000
(1485365964.672469) can0 0B2#000000000002
(1485365964.672618) can0 0B0#000000000002
(1485365964.674418) can0 260#0800010000000679
(1485365964.675742) can0 2C4#185400130000A2EF
(1485365964.682451) can0 0B2#000000000003
(1485365964.682634) can0 0B0#000000000003
(1485365964.682991) can0 0B4#00000000000000BC
(1485365964.685745) can0 2C1#08FA34FA3400002F
(1485365964.692596) can0 0B2#000000000004
(1485365964.692739) can0 0B0#000000000004
(1485365964.693014) can0 223#0000007FE000008C
(1485365964.693396) can0 224#0000000000000000
(1485365964.694787) can0 260#0800000000000173
(1485365964.696495) can0 2C4#180200130000A29D
(1485365964.702522) can0 0B2#000000000005
(1485365964.702709) can0 0B0#000000000005
(1485365964.703008) can0 0B4#00000000000000BC
(1485365964.706732) can0 442#4002000003000000
(1485365964.712498) can0 0B2#000000000006
(1485365964.712640) can0 0B0#000000000006
(1485365964.714794) can0 260#0800000000000375
(1485365964.715970) can0 2C1#08FA4AFA4A00005B
(1485365964.716140) can0 2C4#17A200130000A23C
(1485365964.722673) can0 0B2#000000000007
(1485365964.722814) can0 0B0#000000000007
(1485365964.723100) can0 223#0000007FE000008C
(1485365964.723396) can0 0B4#00000000000000BC
(1485365964.723573) can0 224#0000000000000000
(1485365964.725344) can0 4ED#5C00000000000000
(1485365964.732415) can0 0B2#000000000008
(1485365964.732595) can0 0B0#000000000008
(1485365964.734994) can0 260#0800000000000476
(1485365964.735742) can0 2C4#174500130000A2DF
(1485365964.739674) can0 3A0#0000000000000014
(1485365964.742492) can0 0B2#000000000009
(1485365964.742658) can0 0B0#000000000009
(1485365964.742976) can0 0B4#00000000000000BC
(1485365964.745745) can0 2C1#08FA64FA6400008F
(1485365964.752521) can0 0B2#00000000000A
(1485365964.752667) can0 0B0#00000000000A
(1485365964.752953) can0 223#0000007FE000008C
(1485365964.753258) can0 224#0000000000000000
(1485365964.755358) can0 260#0800000000000577
(1485365964.755731) can0 2C4#16F300130000A28C
(1485365964.762521) can0 0B2#00000000000B
(1485365964.762665) can0 0B0#00000000000B
(1485365964.763008) can0 0B4#00000000000000BC
(1485365964.765193) can0 394#00
(1485365964.769723) can0 4DC#1D00010900000000
(1485365964.772444) can0 0B2#00000000000C
(1485365964.772569) can0 0B0#00000000000C
(1485365964.775418) can0 260#0800000000FFFB6C
(1485365964.775710) can0 2C1#08FA6DFA6D0000A1
(1485365964.775969) can0 2C4#169000130000A229
(1485365964.782596) can0 0B2#00000000000D
(1485365964.782754) can0 0B0#00000000000D
(1485365964.783023) can0 223#0000007FE000008C
(1485365964.783273) can0 0B4#00000000000000BC
(1485365964.783515) can0 224#0000000000000000
(1485365964.783829) can0 3B7#0000000000000000
(1485365964.792434) can0 0B2#00000000000E
(1485365964.792596) can0 0B0#00000000000E
(1485365964.795618) can0 260#080000000000097B
(1485365964.795797) can0 2C4#163800130000A2D1
(1485365964.795957) can0 3B3#163800
(1485365964.802325) can0 440#4202000007000000
(1485365964.802482) can0 0B2#00000000000F
(1485365964.802668) can0 0B0#00000000000F
(1485365964.803021) can0 0B4#00000000000000BC
(1485365964.805747) can0 2C1#08FA87FA870000D5
(1485365964.807922) can0 621#1100000000000000
(1485365964.809698) can0 3B0#0000003200
(1485365964.812535) can0 0B2#000000000000
(1485365964.812693) can0 0B0#000000000000
(1485365964.812977) can0 223#0000007FE000008C
(1485365964.813285) can0 224#0000000000000000
(1485365964.815773) can0 2C4#15D500130000A26D
(1485365964.815945) can0 260#0800000000000274
(1485365964.816976) can0 622#1200000000000000
(1485365964.822524) can0 0B2#000000000001
(1485365964.822663) can0 0B0#000000000001
(1485365964.823004) can0 0B4#00000000000000BC
(1485365964.826176) can0 624#1A0057FFFF400000
(1485365964.831122) can0 398#02B3
(1485365964.832472) can0 0B2#000000000002
(1485365964.832606) can0 0B0#000000000002
(1485365964.835421) can0 630#1700000000000000
(1485365964.836022) can0 260#0800000000FFF667
(1485365964.836199) can0 2C1#08FA94FA940000EF
(1485365964.836500) can0 2C4#157B00130000A213
(1485365964.839719) can0 3A0#0000000000000014
(1485365964.842622) can0 0B2#000000000003
(1485365964.842770) can0 0B0#000000000003
(1485365964.843053) can0 223#0000007FE000008C
(1485365964.843275) can0 0B4#00000000000000BC
(1485365964.843542) can0 224#0000000000000000
(1485365964.844566) can0 620#1000000030600050
(1485365964.852523) can0 0B2#000000000004
(1485365964.852653) can0 0B0#000000000004
(1485365964.853751) can0 638#1300110000000000
(1485365964.856252) can0 260#0800000000FFF465
(1485365964.856423) can0 2C4#152800130000A2C0
(1485365964.862551) can0 0B2#000000000005
(1485365964.862685) can0 0B0#000000000005
(1485365964.863039) can0 0B4#00000000000000BC
(1485365964.865750) can0 2C1#08FAADFAAD000021
(1485365964.869751) can0 380#00A0043000000300
(1485365964.872507) can0 0B2#000000000006
(1485365964.872681) can0 0B0#000000000006
(1485365964.872952) can0 223#0000007FE000008C
(1485365964.873297) can0 224#0000000000000000
(1485365964.875773) can0 2C4#14C700130000A25E
(1485365964.876648) can0 260#0800010000000275
(1485365964.882527) can0 0B2#000000000007
(1485365964.882656) can0 0B0#000000000007
(1485365964.883033) can0 0B4#00000000000000BC
(1485365964.892475) can0 0B2#000000000008
(1485365964.892598) can0 0B0#000000000008
(1485365964.896206) can0 2C1#08FABAFABA00003B
(1485365964.896451) can0 2C4#147B00130000A212
(1485365964.896729) can0 260#0800000000FFFF70
(1485365964.896937) can0 442#4002000003000000
(1485365964.902629) can0 0B2#000000000009
(1485365964.902762) can0 0B0#000000000009
(1485365964.903039) can0 223#0000007FE000008C
(1485365964.903296) can0 0B4#00000000000000BC
(1485365964.903534) can0 224#0000000000000000
(1485365964.906898) can0 610#2000006400000000
(1485365964.912475) can0 0B2#00000000000A
(1485365964.912600) can0 0B0#00000000000A
(1485365964.915754) can0 2C4#141500130000A2AC
(1485365964.917029) can0 260#0800000000000375
(1485365964.917392) can0 611#2100201200021DB5
(1485365964.922528) can0 0B2#00000000000B
(1485365964.922692) can0 0B0#00000000000B
(1485365964.923030) can0 0B4#00000000000000BC
(1485365964.926199) can0 2C1#08FAD0FAD0000067
(1485365964.929696) can0 640#A8000032020D0000
(1485365964.932574) can0 0B2#00000000000C
(1485365964.932705) can0 0B0#00000000000C
(1485365964.933023) can0 223#0000007FE000008C
(1485365964.933266) can0 224#0000000000000000
(1485365964.935775) can0 2C4#13C600130000A25C
(1485365964.937275) can0 260#0800000000000375
(1485365964.939725) can0 3A0#0000000000000014
(1485365964.942550) can0 0B2#00000000000D
(1485365964.942687) can0 0B0#00000000000D
(1485365964.943007) can0 0B4#00000000000000BC
(1485365964.952502) can0 0B2#00000000000E
(1485365964.952608) can0 0B0#00000000000E
(1485365964.955752) can0 2C1#08FADDFADD000081
(1485365964.955915) can0 2C4#137A00130000A210
(1485365964.957475) can0 260#0800000000000A7C
(1485365964.961302) can0 4DD#1E00000500000000
(1485365964.962651) can0 0B2#00000000000F
(1485365964.962789) can0 0B0#00000000000F
(1485365964.963046) can0 223#0000007FE000008C
(1485365964.963299) can0 0B4#00000000000000BC
(1485365964.963544) can0 224#0000000000000000
(1485365964.972476) can0 0B2#000000000000
(1485365964.972623) can0 0B0#000000000000
(1485365964.976554) can0 2C4#132700130000A2BD
(1485365964.977500) can0 260#0800000000FFF364
(1485365964.982554) can0 0B2#000000000001
(1485365964.982687) can0 0B0#000000000001
(1485365964.983029) can0 0B4#00000000000000BC
(1485365964.985725) can0 2C1#08FAFAFAFA0000BB
(1485365964.992576) can0 0B2#000000000002
(1485365964.992706) can0 0B0#000000000002
(1485365964.992964) can0 223#0000007FE000008C
(1485365964.993295) can0 224#0000000000000000
(1485365964.996255) can0 2C4#12D400130000A269
(1485365964.997076) can0 440#4202000007000000
(1485365964.997877) can0 260#0800000000000375
(1485365965.002548) can0 0B2#000000000003
(1485365965.002690) can0 0B0#000000000003
(1485365965.003041) can0 0B4#00000000000000BC
(1485365965.012477) can0 0B2#000000000004
(1485365965.012626) can0 0B0#000000000004
(1485365965.016503) can0 2C1#08FB0AFB0A0000DD
(1485365965.016668) can0 2C4#128300130000A218
(1485365965.018075) can0 260#0800000000FFFC6D
(1485365965.022630) can0 0B2#000000000005
(1485365965.022764) can0 0B0#000000000005
(1485365965.023036) can0 223#0000007FE000008C
(1485365965.023287) can0 0B4#00000000000000BC
(1485365965.023546) can0 224#0000000000000000
(1485365965.029727) can0 38A#0804000000
(1485365965.032452) can0 0B2#000000000006
(1485365965.032580) can0 0B0#000000000006
(1485365965.035727) can0 2C4#123500130000A2CA
(1485365965.038134) can0 260#0800010000FFF96B
(1485365965.039728) can0 3A0#0000000000000014
(1485365965.042506) can0 0B2#000000000007
(1485365965.042639) can0 0B0#000000000007
(1485365965.042968) can0 0B4#00000000000000BC
(1485365965.045956) can0 2C1#08FB27FB27000017
(1485365965.052512) can0 0B2#000000000008
(1485365965.052688) can0 0B0#000000000008
(1485365965.052961) can0 223#0000007FE000008C
(1485365965.053256) can0 224#0000000000000000
(1485365965.055753) can0 2C4#11E300130000A277
(1485365965.058506) can0 260#0800000000FFF869
(1485365965.062531) can0 0B2#000000000009
(1485365965.062659) can0 0B0#000000000009
(1485365965.063010) can0 0B4#00000000000000BC
(1485365965.068307) can0 394#00
(1485365965.072528) can0 0B2#00000000000A
(1485365965.072658) can0 0B0#00000000000A
(1485365965.075878) can0 2C1#08FB30FB30000029
(1485365965.076043) can0 2C4#119000130000A224
(1485365965.078557) can0 260#0800000000FFF869
(1485365965.082654) can0 0B2#00000000000B
(1485365965.082791) can0 0B0#00000000000B
(1485365965.083085) can0 223#0000007FE000008C
(1485365965.083423) can0 0B4#00000000000000BC
(1485365965.083529) can0 224#0000000000000000
(1485365965.083899) can0 3B7#0000000000000000
(1485365965.092529) can0 0B2#00000000000C
(1485365965.092667) can0 0B0#00000000000C
(1485365965.095737) can0 2C4#114E00130000A2E2
(1485365965.096877) can0 442#4002000003000000
(1485365965.098704) can0 260#0800000000000779
(1485365965.102582) can0 0B2#00000000000D
(1485365965.102716) can0 0B0#00000000000D
(1485365965.103043) can0 0B4#00000000000000BC
(1485365965.105954) can0 2C1#08FB4DFB4D000063
(1485365965.112579) can0 0B2#00000000000E
(1485365965.112709) can0 0B0#00000000000E
(1485365965.113026) can0 223#0000007FE000008C
(1485365965.113332) can0 224#0000000000000000
(1485365965.115755) can0 2C4#10FE00130000A291
(1485365965.118932) can0 260#0800000000FFFA6B
(1485365965.122582) can0 0B2#00000000000F
(1485365965.122717) can0 0B0#00000000000F
(1485365965.123052) can0 0B4#00000000000000BC
(1485365965.127534) can0 620#1000000030600050
(1485365965.132480) can0 0B2#000000000000
(1485365965.132605) can0 0B0#000000000000
(1485365965.136558) can0 2C1#08FB57FB57000077
(1485365965.136723) can0 2C4#10BC00130000A24F
(1485365965.139131) can0 260#0800000000000577
(1485365965.139723) can0 3A0#0000000000000014
(1485365965.142633) can0 0B2#000000000001
(1485365965.142760) can0 0B0#000000000001
(1485365965.143050) can0 223#0000007FE000008C
(1485365965.143298) can0 0B4#00000000000000BC
(1485365965.143544) can0 224#0000000000000000
(1485365965.149581) can0 398#0000
(1485365965.152469) can0 0B2#000000000002
(1485365965.152682) can0 0B0#000000000002
(1485365965.154431) can0 4C8#0900010700000000
(1485365965.155730) can0 2C4#106D00130000A200
(1485365965.159330) can0 260#080000000000097B
(1485365965.162559) can0 0B2#000000000003
(1485365965.162711) can0 0B0#000000000003
(1485365965.163054) can0 0B4#00000000000000BC
(1485365965.165730) can0 2C1#08FB70FB700000A9
(1485365965.172557) can0 0B2#000000000004
(1485365965.172724) can0 0B0#000000000004
(1485365965.172995) can0 223#0000007FE000008C
(1485365965.173303) can0 224#0000000000000000
(1485365965.175757) can0 2C4#102A00130000A2BD
(1485365965.179509) can0 260#0800000000FFF869
(1485365965.182559) can0 0B2#000000000005
(1485365965.182693) can0 0B0#000000000005
(1485365965.183044) can0 0B4#00000000000000BC
(1485365965.192435) can0 0B2#000000000006
(1485365965.192568) can0 0B0#000000000006
(1485365965.195666) can0 2C1#08FB7AFB7A0000BD
(1485365965.195914) can0 2C4#0FE800130000A27A
(1485365965.196809) can0 440#4202000007000000
(1485365965.199757) can0 260#0800000000000072
(1485365965.202585) can0 0B2#000000000007
(1485365965.202720) can0 0B0#000000000007
(1485365965.203019) can0 223#0000007FE000008C
(1485365965.203281) can0 0B4#00000000000000BC
(1485365965.203535) can0 224#0000000000000000
(1485365965.212468) can0 0B2#000000000008
(1485365965.212682) can0 0B0#000000000008
(1485365965.216234) can0 2C4#0FA600130000A238
(1485365965.219933) can0 260#0800000000000173
(1485365965.222580) can0 0B2#000000000009
(1485365965.222720) can0 0B0#000000000009
(1485365965.223088) can0 0B4#00000000000000BC
(1485365965.226210) can0 2C1#08FB8AFB8A0000DD
(1485365965.230961) can0 3B4#000042B800000000
(1485365965.232582) can0 0B2#00000000000A
(1485365965.232713) can0 0B0#00000000000A
(1485365965.233015) can0 223#0000007FE000008C
(1485365965.233304) can0 224#0000000000000000
(1485365965.233585) can0 4C3#0400300500000000
(1485365965.236058) can0 2C4#0F5300130000A2E5
(1485365965.239707) can0 3A0#0000000000000014
(1485365965.240141) can0 260#0800000000000072
(1485365965.242584) can0 0B2#00000000000B
(1485365965.242721) can0 0B0#00000000000B
(1485365965.243065) can0 0B4#00000000000000BC
(1485365965.252458) can0 0B2#00000000000C
(1485365965.252587) can0 0B0#00000000000C
(1485365965.255880) can0 2C1#08FB90FB900000E9
(1485365965.256046) can0 2C4#0F1000130000A2A2
(1485365965.260318) can0 260#0800000000FFF566
(1485365965.262607) can0 0B2#00000000000D
(1485365965.262742) can0 0B0#00000000000D
(1485365965.263045) can0 223#0000007FE000008C
(1485365965.263303) can0 0B4#00000000000000BC
(1485365965.263515) can0 224#0000000000000000
(1485365965.272450) can0 0B2#00000000000E
(1485365965.272587) can0 0B0#00000000000E
(1485365965.276059) can0 2C4#0ECE00130000A25F
(1485365965.280562) can0 260#0800000000FFFE6F
(1485365965.282509) can0 0B2#00000000000F
(1485365965.282646) can0 0B0#00000000000F
(1485365965.282973) can0 0B4#00000000000000BC
(1485365965.286187) can0 2C1#08FB9DFB9D000003
(1485365965.292510) can0 0B2#000000000000
(1485365965.292647) can0 0B0#000000000000
(1485365965.292929) can0 223#0000007FE000008C
(1485365965.293261) can0 224#0000000000000000
(1485365965.296262) can0 2C4#0E9B00130000A22C
(1485365965.296434) can0 442#4002000003000000
(1485365965.296559) can0 3B3#0E9B00
(1485365965.300736) can0 260#0800000000000779
(1485365965.302509) can0 0B2#000000000001
(1485365965.302640) can0 0B0#000000000001
(1485365965.303011) can0 0B4#00000000000000BC
(1485365965.312419) can0 0B2#000000000002
(1485365965.312571) can0 0B0#000000000002
(1485365965.315720) can0 2C1#08FBA4FBA4000011
(1485365965.315900) can0 2C4#0E5800130000A2E9
(1485365965.316176) can0 4C1#0100500500000000
(1485365965.320989) can0 260#0800000000000375
(1485365965.322583) can0 0B2#000000000003
(1485365965.322719) can0 0B0#000000000003
(1485365965.323042) can0 223#0000007FE000008C
(1485365965.323211) can0 0B4#00000000000000BC
(1485365965.323528) can0 224#0000000000000000
(1485365965.332434) can0 0B2#000000000004
(1485365965.332565) can0 0B0#000000000004
(1485365965.335738) can0 2C4#0E1500130000A2A6
(1485365965.339647) can0 3A0#0000000000000014
(1485365965.341090) can0 260#0800000000000A7C
(1485365965.342424) can0 0B2#000000000005
(1485365965.342625) can0 0B0#000000000005
(1485365965.342923) can0 0B4#00000000000000BC
(1485365965.345679) can0 2C1#08FBADFBAD000023
(1485365965.352538) can0 0B2#000000000006
(1485365965.352673) can0 0B0#000000000006
(1485365965.352990) can0 223#0000007FE000008C
(1485365965.353268) can0 224#0000000000000000
(1485365965.355692) can0 2C4#0DD100130000A261
(1485365965.361439) can0 260#0800000000000274
(1485365965.362536) can0 0B2#000000000007
(1485365965.362683) can0 0B0#000000000007
(1485365965.363017) can0 0B4#00000000000000BC
(1485365965.371316) can0 394#00
(1485365965.372484) can0 0B2#000000000008
(1485365965.372643) can0 0B0#000000000008
(1485365965.376565) can0 2C1#08FBB4FBB4000031
(1485365965.376737) can0 2C4#0D9C00130000A22C
(1485365965.381589) can0 260#080000000000097B
(1485365965.382637) can0 0B2#000000000009
(1485365965.382786) can0 0B0#000000000009
(1485365965.383052) can0 223#0000007FE000008C
(1485365965.383307) can0 0B4#00000000000000BC
(1485365965.383549) can0 224#0000000000000000
(1485365965.383836) can0 3B7#0000000000000000
(1485365965.392458) can0 0B2#00000000000A
(1485365965.392601) can0 0B0#00000000000A
(1485365965.395759) can0 2C4#0D5800130000A2E8
(1485365965.396660) can0 440#4202000007000000
(1485365965.401765) can0 260#0800000000FFF869
(1485365965.402510) can0 0B2#00000000000B
(1485365965.402631) can0 0B0#00000000000B
(1485365965.402975) can0 0B4#00000000000000BC
(1485365965.405710) can0 2C1#08FBBDFBBD000043
(1485365965.407636) can0 610#2000006400000000
(1485365965.412537) can0 0B2#00000000000C
(1485365965.412685) can0 0B0#00000000000C
(1485365965.412968) can0 223#0000007FE000008C
(1485365965.413277) can0 224#0000000000000000
(1485365965.416428) can0 2C4#0D2400130000A2B4
(1485365965.421991) can0 260#0800000000000072
(1485365965.422529) can0 0B2#00000000000D
(1485365965.422673) can0 0B0#00000000000D
(1485365965.423016) can0 0B4#00000000000000BC
(1485365965.427162) can0 620#1000000030600050
(1485365965.432463) can0 0B2#00000000000E
(1485365965.432600) can0 0B0#00000000000E
(1485365965.435736) can0 2C1#08FBC0FBC0000049
(1485365965.435910) can0 2C4#0CDF00130000A26E
(1485365965.439690) can0 3A0#0000000000000014
(1485365965.442163) can0 260#080000000000087A
(1485365965.442597) can0 0B2#00000000000F
(1485365965.442739) can0 0B0#00000000000F
(1485365965.443052) can0 223#0000007FE000008C
(1485365965.443232) can0 0B4#00000000000000BC
(1485365965.443557) can0 224#0000000000000000
(1485365965.452464) can0 0B2#000000000000
(1485365965.452612) can0 0B0#000000000000
(1485365965.455742) can0 2C4#0CAD00130000A23C
(1485365965.462366) can0 260#0800000000FFF667
(1485365965.462508) can0 0B2#000000000001
(1485365965.462780) can0 0B0#000000000001
(1485365965.463031) can0 0B4#00000000000000BC
(1485365965.465714) can0 2C1#08FBCAFBCA00005D
(1485365965.472566) can0 0B2#000000000002
(1485365965.472672) can0 0B0#000000000002
(1485365965.472991) can0 223#0000007FE000008C
(1485365965.473268) can0 224#0000000000000000
(1485365965.476238) can0 2C4#0C6700130000A2F6
(1485365965.482543) can0 0B2#000000000003
(1485365965.482676) can0 0B0#000000000003
(1485365965.482971) can0 260#0800000000000375
(1485365965.483237) can0 0B4#00000000000000BC
(1485365965.492463) can0 0B2#000000000004
(1485365965.492593) can0 0B0#000000000004
(1485365965.495739) can0 2C1#08FBCDFBCD000063
(1485365965.495901) can0 2C4#0C3400130000A2C3
(1485365965.496436) can0 442#4002000003000000
(1485365965.502618) can0 0B2#000000000005
(1485365965.502782) can0 0B0#000000000005
(1485365965.503054) can0 223#0000007FE000008C
(1485365965.503311) can0 0B4#00000000000000BC
(1485365965.503551) can0 224#0000000000000000
(1485365965.503800) can0 260#0800000000000779
(1485365965.512489) can0 0B2#000000000006
(1485365965.512616) can0 0B0#000000000006
(1485365965.515740) can0 2C4#0BFE00130000A28C
(1485365965.522540) can0 0B2#000000000007
(1485365965.522675) can0 0B0#000000000007
(1485365965.522972) can0 260#0800000000000375
(1485365965.523235) can0 0B4#00000000000000BC
(1485365965.525901) can0 2C1#08FBD7FBD7000077
(1485365965.532540) can0 0B2#000000000008
(1485365965.532678) can0 0B0#000000000008
(1485365965.532972) can0 223#0000007FE000008C
(1485365965.533297) can0 224#0000000000000000
(1485365965.535763) can0 2C4#0BC900130000A257
(1485365965.539694) can0 3A0#0000000000000014
(1485365965.542567) can0 0B2#000000000009
(1485365965.542672) can0 0B0#000000000009
(1485365965.543025) can0 0B4#00000000000000BC
(1485365965.543286) can0 260#0800000000FFF465
(1485365965.552444) can0 0B2#00000000000A
(1485365965.552578) can0 0B0#00000000000A
(1485365965.555741) can0 2C1#08FBE4FBE4000091
(1485365965.555906) can0 2C4#0B9800130000A226
(1485365965.562594) can0 0B2#00000000000B
(1485365965.562724) can0 0B0#00000000000B
(1485365965.563001) can0 223#0000007FE000008C
(1485365965.563250) can0 0B4#00000000000000BC
(1485365965.563511) can0 224#0000000000000000
(1485365965.563760) can0 260#0800010000FFFB6D
(1485365965.572427) can0 0B2#00000000000C
(1485365965.572598) can0 0B0#00000000000C
(1485365965.575717) can0 2C4#0B6500130000A2F3
(1485365965.582518) can0 0B2#00000000000D
(1485365965.582652) can0 0B0#00000000000D
(1485365965.582980) can0 0B4#00000000000000BC
(1485365965.583657) can0 260#080000000000087A
(1485365965.585716) can0 2C1#08FBFAFBFA0000BD
(1485365965.590245) can0 398#0000
(1485365965.592570) can0 0B2#00000000000E
(1485365965.592718) can0 0B0#00000000000E
(1485365965.593021) can0 223#0000007FE000008C
(1485365965.593302) can0 224#0000000000000000
(1485365965.595765) can0 2C4#0B3100130000A2BF
(1485365965.596326) can0 440#4202000007000000
(1485365965.602499) can0 0B2#00000000000F
(1485365965.602707) can0 0B0#00000000000F
(1485365965.602982) can0 0B4#00000000000000BC
(1485365965.603861) can0 260#0800000000000274
(1485365965.612493) can0 0B2#000000000000
(1485365965.612642) can0 0B0#000000000000
(1485365965.615742) can0 2C1#08FC00FC000000CB
(1485365965.615908) can0 2C4#0B0000130000A28E
(1485365965.621444) can0 3B1#0000022A00000000
(1485365965.622632) can0 0B2#000000000001
(1485365965.622766) can0 0B0#000000000001
(1485365965.623062) can0 223#0000007FE000008C
(1485365965.623292) can0 0B4#00000000000000BC
(1485365965.623563) can0 224#0000000000000000
(1485365965.624170) can0 260#0800000000000375
(1485365965.632477) can0 0B2#000000000002
(1485365965.632641) can0 0B0#000000000002
(1485365965.635718) can0 2C4#0ACE00130000A25B
(1485365965.639696) can0 3A0#0000000000000014
(1485365965.642544) can0 0B2#000000000003
(1485365965.642708) can0 0B0#000000000003
(1485365965.643031) can0 0B4#00000000000000BC
(1485365965.644445) can0 260#0800000000FFF768
(1485365965.646468) can0 2C1#08FC14FC140000F3
(1485365965.652539) can0 0B2#000000000004
(1485365965.652681) can0 0B0#000000000004
(1485365965.652976) can0 223#0000007FE000008C
(1485365965.653299) can0 224#0000000000000000
(1485365965.655743) can0 2C4#0A9D00130000A22A
(1485365965.662521) can0 0B2#000000000005
(1485365965.662684) can0 0B0#000000000005
(1485365965.662999) can0 0B4#00000000000000BC
(1485365965.664497) can0 260#080000000000087A
(1485365965.672498) can0 0B2#000000000006
(1485365965.672642) can0 0B0#000000000006
(1485365965.674468) can0 394#00
(1485365965.675745) can0 2C1#08FC1DFC1D000005
(1485365965.675893) can0 2C4#0A6900130000A2F6
(1485365965.682648) can0 0B2#000000000007
(1485365965.682781) can0 0B0#000000000007
(1485365965.683063) can0 223#0000007FE000008C
(1485365965.683316) can0 0B4#00000000000000BC
(1485365965.683555) can0 224#0000000000000000
(1485365965.683854) can0 3B7#0000000000000000
(1485365965.684897) can0 260#0800000000000375
(1485365965.692468) can0 0B2#000000000008
(1485365965.692629) can0 0B0#000000000008
(1485365965.696619) can0 2C4#0A4800130000A2D5
(1485365965.696788) can0 442#4002000003000000
(1485365965.702550) can0 0B2#000000000009
(1485365965.702680) can0 0B0#000000000009
(1485365965.703032) can0 0B4#00000000000000BC
(1485365965.704923) can0 260#0800000000000173
(1485365965.705742) can0 2C1#08FC30FC3000002B
(1485365965.712494) can0 0B2#00000000000A
(1485365965.712644) can0 0B0#00000000000A
(1485365965.712940) can0 223#0000007FE000008C
(1485365965.713249) can0 224#0000000000000000
(1485365965.715770) can0 2C4#0A1700130000A2A4
(1485365965.722498) can0 0B2#00000000000B
(1485365965.722636) can0 0B0#00000000000B
(1485365965.723003) can0 0B4#00000000000000BC
(1485365965.725053) can0 4ED#5C00000000000000
(1485365965.725280) can0 260#0800000000000678
(1485365965.726820) can0 620#1000000030600050
(1485365965.732494) can0 0B2#00000000000C
(1485365965.732645) can0 0B0#00000000000C
(1485365965.735749) can0 2C1#08FC37FC37000039
(1485365965.735911) can0 2C4#09E300130000A26F
(1485365965.739723) can0 3A0#0000000000000014
(1485365965.742646) can0 0B2#00000000000D
(1485365965.742782) can0 0B0#00000000000D
(1485365965.743066) can0 223#0000007FE000008C
(1485365965.743306) can0 0B4#00000000000000BC
(1485365965.743567) can0 224#0000000000000000
(1485365965.745523) can0 260#0800000000FFF566
(1485365965.752523) can0 0B2#00000000000E
(1485365965.752657) can0 0B0#00000000000E
(1485365965.755723) can0 2C4#09C200130000A24E
(1485365965.762548) can0 0B2#00000000000F
(1485365965.762703) can0 0B0#00000000000F
(1485365965.763028) can0 0B4#00000000000000BC
(1485365965.765546) can0 260#0800000000FFFA6B
(1485365965.765710) can0 2C1#08FC4AFC4A00005F
(1485365965.769671) can0 4DC#1D00010900000000
(1485365965.772523) can0 0B2#000000000000
(1485365965.772658) can0 0B0#000000000000
(1485365965.772942) can0 223#0000007FE000008C
(1485365965.773274) can0 224#0000000000000000
(1485365965.775747) can0 2C4#099000130000A21C
(1485365965.782521) can0 0B2#000000000001
(1485365965.782657) can0 0B0#000000000001
(1485365965.782985) can0 0B4#00000000000000BC
(1485365965.785746) can0 260#0800000000000173
(1485365965.792449) can0 0B2#000000000002
(1485365965.792558) can0 0B0#000000000002
(1485365965.795747) can0 2C1#08FC50FC5000006B
(1485365965.795910) can0 2C4#096D00130000A2F9
(1485365965.796196) can0 440#4202000007000000
(1485365965.796296) can0 3B3#096D00
(1485365965.802574) can0 0B2#000000000003
(1485365965.802707) can0 0B0#000000000003
(1485365965.803011) can0 223#0000007FE000008C
(1485365965.803270) can0 0B4#00000000000000BC
(1485365965.803526) can0 224#0000000000000000
(1485365965.806150) can0 260#0800000000FFFC6D
(1485365965.806683) can0 621#1100000000000000
(1485365965.809623) can0 3B0#0000003200
(1485365965.812450) can0 0B2#000000000004
(1485365965.812559) can0 0B0#000000000004
(1485365965.815722) can0 2C4#093A00130000A2C6
(1485365965.815975) can0 622#1200000000000000
(1485365965.822501) can0 0B2#000000000005
(1485365965.822609) can0 0B0#000000000005
(1485365965.822945) can0 0B4#00000000000000BC
(1485365965.825172) can0 624#1A0057FFFF400000
(1485365965.825706) can0 2C1#08FC64FC64000093
(1485365965.826106) can0 260#0800000000000678
(1485365965.832449) can0 0B2#000000000006
(1485365965.832685) can0 0B0#000000000006
(1485365965.832953) can0 223#0000007FE000008C
(1485365965.833250) can0 224#0000000000000000
(1485365965.834371) can0 630#1700000000000000
(1485365965.835738) can0 2C4#091800130000A2A4
(1485365965.839676) can0 3A0#0000000000000014
(1485365965.842496) can0 0B2#000000000007
(1485365965.842635) can0 0B0#000000000007
(1485365965.842983) can0 0B4#00000000000000BC
(1485365965.843553) can0 638#1300110000000000
(1485365965.846349) can0 260#0800000000000274
(1485365965.852448) can0 0B2#000000000008
(1485365965.852560) can0 0B0#000000000008
(1485365965.855722) can0 2C1#08FC6DFC6D0000A5
(1485365965.855883) can0 2C4#08E300130000A26E
(1485365965.862575) can0 0B2#000000000009
(1485365965.862709) can0 0B0#000000000009
(1485365965.863003) can0 223#0000007FE000008C
(1485365965.863239) can0 0B4#00000000000000BC
(1485365965.863486) can0 224#0000000000000000
(1485365965.866749) can0 260#0800000000FFFA6B
(1485365965.869721) can0 380#00A0043000000300
(1485365965.872449) can0 0B2#00000000000A
(1485365965.872587) can0 0B0#00000000000A
(1485365965.875721) can0 2C4#08C200130000A24D
(1485365965.882500) can0 0B2#00000000000B
(1485365965.882633) can0 0B0#00000000000B
(1485365965.882982) can0 0B4#00000000000000BC
(1485365965.885720) can0 2C1#08FC7AFC7A0000BF
(1485365965.886921) can0 260#0800000000000678
(1485365965.892549) can0 0B2#00000000000C
(1485365965.892689) can0 0B0#00000000000C
(1485365965.892981) can0 223#0000007FE000008C
(1485365965.893290) can0 224#0000000000000000
(1485365965.895774) can0 2C4#089D00130000A228
(1485365965.896483) can0 442#4002000003000000
(1485365965.902552) can0 0B2#00000000000D
(1485365965.902717) can0 0B0#00000000000D
(1485365965.903041) can0 0B4#00000000000000BC
(1485365965.906974) can0 260#0800000000FFFF70
(1485365965.907159) can0 610#2000006400000000
(1485365965.912453) can0 0B2#00000000000E
(1485365965.912585) can0 0B0#00000000000E
(1485365965.916434) can0 2C1#08FC84FC840000D3
(1485365965.916608) can0 2C4#086A00130000A2F5
(1485365965.916858) can0 611#2100201200021DB5
(1485365965.922551) can0 0B2#00000000000F
(1485365965.922725) can0 0B0#00000000000F
(1485365965.922994) can0 223#0000007FE000008C
(1485365965.923245) can0 0B4#00000000000000BC
(1485365965.923496) can0 224#0000000000000000
(1485365965.927350) can0 260#0800000000000375
(1485365965.928621) can0 640#A8000032020E0000
(1485365965.932453) can0 0B2#000000000000
(1485365965.932589) can0 0B0#000000000000
(1485365965.935726) can0 2C4#084500130000A2D0
(1485365965.939675) can0 3A0#0000000000000014
(1485365965.942441) can0 0B2#000000000001
(1485365965.942636) can0 0B0#000000000001
(1485365965.942938) can0 0B4#00000000000000BC
(1485365965.945656) can0 2C1#08FC94FC940000F3
(1485365965.947482) can0 260#0800000000000678
(1485365965.952525) can0 0B2#000000000002
(1485365965.952663) can0 0B0#000000000002
(1485365965.952947) can0 223#0000007FE000008C
(1485365965.953252) can0 224#0000000000000000
(1485365965.955751) can0 2C4#082200130000A2AD
(1485365965.962527) can0 0B2#000000000003
(1485365965.962664) can0 0B0#000000000003
(1485365965.962984) can0 0B4#00000000000000BC
(1485365965.967602) can0 260#0800000000000F81
(1485365965.972077) can0 4DD#1E00000500000000
(1485365965.972408) can0 0B2#000000000004
(1485365965.972618) can0 0B0#000000000004
(1485365965.975727) can0 2C1#08FC9AFC9A0000FF
(1485365965.975891) can0 2C4#07FE00130000A288
(1485365965.977751) can0 394#00
(1485365965.982606) can0 0B2#000000000005
(1485365965.982736) can0 0B0#000000000005
(1485365965.983034) can0 223#0000007FE000008C
(1485365965.983283) can0 0B4#00000000000000BC
(1485365965.983519) can0 224#0000000000000000
(1485365965.983821) can0 3B7#0000000000000000
(1485365965.987980) can0 260#0800000000000678
(1485365965.992476) can0 0B2#000000000006
(1485365965.992597) can0 0B0#000000000006
(1485365965.995751) can0 2C4#07DA00130000A264
(1485365965.995917) can0 440#4202000007000000
(1485365966.002528) can0 0B2#000000000007
(1485365966.002680) can0 0B0#000000000007
(1485365966.003023) can0 0B4#00000000000000BC
(1485365966.005727) can0 2C1#08FCA7FCA7000019
(1485365966.008177) can0 260#0800000000000779
(1485365966.012553) can0 0B2#000000000008
(1485365966.012677) can0 0B0#000000000008
(1485365966.012997) can0 223#0000007FE000008C
(1485365966.013256) can0 224#0000000000000000
(1485365966.015751) can0 2C4#07B600130000A240
(1485365966.022557) can0 0B2#000000000009
(1485365966.022678) can0 0B0#000000000009
(1485365966.023031) can0 0B4#00000000000000BC
(1485365966.026477) can0 620#1000000030600050
(1485365966.028188) can0 260#0800000000FFFC6D
(1485365966.032479) can0 0B2#00000000000A
(1485365966.032608) can0 0B0#00000000000A
(1485365966.035728) can0 2C1#08FCAAFCAA00001F
(1485365966.035887) can0 2C4#079100130000A21B
(1485365966.039680) can0 3A0#0000000000000014
(1485365966.042557) can0 0B2#00000000000B
(1485365966.042777) can0 0B0#00000000000B
(1485365966.043073) can0 223#0000007FE000008C
(1485365966.043241) can0 0B4#00000000000000BC
(1485365966.043555) can0 224#0000000000000000
(1485365966.048605) can0 260#0800000000FFFF70
(1485365966.052480) can0 0B2#00000000000C
(1485365966.052609) can0 0B0#00000000000C
(1485365966.055725) can0 2C4#076C00130000A2F6
(1485365966.062531) can0 0B2#00000000000D
(1485365966.062664) can0 0B0#00000000000D
(1485365966.063009) can0 0B4#00000000000000BC
(1485365966.065707) can0 2C1#08FCB4FCB4000033
(1485365966.068628) can0 260#080000000000087A
(1485365966.072504) can0 0B2#00000000000E
(1485365966.072655) can0 0B0#00000000000E
(1485365966.072949) can0 223#0000007FE000008C
(1485365966.073205) can0 224#0000000000000000
(1485365966.075751) can0 2C4#074800130000A2D2
(1485365966.082506) can0 0B2#00000000000F
(1485365966.082640) can0 0B0#00000000000F
(1485365966.082953) can0 0B4#00000000000000BC
(1485365966.086683) can0 442#4002000003000000
(1485365966.088783) can0 260#0800000000000375
(1485365966.092439) can0 0B2#000000000000
(1485365966.092585) can0 0B0#000000000000
(1485365966.095755) can0 2C1#08FCBAFCBA00003F
(1485365966.095929) can0 2C4#072100130000A2AB
(1485365966.102602) can0 0B2#000000000001
(1485365966.102733) can0 0B0#000000000001
(1485365966.103010) can0 223#0000007FE000008C
(1485365966.103271) can0 0B4#00000000000000BC
(1485365966.103532) can0 224#0000000000000000
(1485365966.109029) can0 260#0800000000FFFA6B
(1485365966.112479) can0 0B2#000000000002
(1485365966.112609) can0 0B0#000000000002
(1485365966.115755) can0 2C4#06FB00130000A284
(1485365966.122557) can0 0B2#000000000003
(1485365966.122694) can0 0B0#000000000003
(1485365966.123051) can0 0B4#00000000000000BC
(1485365966.125729) can0 2C1#08FCC4FCC4000053
(1485365966.129205) can0 260#0800000000FFF162
(1485365966.129490) can0 38A#0804000000
(1485365966.132561) can0 0B2#000000000004
(1485365966.132690) can0 0B0#000000000004
(1485365966.132967) can0 223#0000007FE000008C
(1485365966.133297) can0 224#0000000000000000
(1485365966.135806) can0 2C4#06D400130000A25D
(1485365966.139657) can0 3A0#0000000000000014
(1485365966.142556) can0 0B2#000000000005
(1485365966.142693) can0 0B0#000000000005
(1485365966.143038) can0 0B4#00000000000000BC
(1485365966.144458) can0 4C8#0900010700000000
(1485365966.149381) can0 260#0800000000FFFC6D
(1485365966.152499) can0 0B2#000000000006
(1485365966.152631) can0 0B0#000000000006
(1485365966.155731) can0 2C1#08FCC7FCC7000059
(1485365966.155894) can0 2C4#06C100130000A24A
(1485365966.162631) can0 0B2#000000000007
(1485365966.162768) can0 0B0#000000000007
(1485365966.163088) can0 223#0000007FE000008C
(1485365966.163256) can0 0B4#00000000000000BC
(1485365966.163560) can0 224#0000000000000000
(1485365966.163830) can0 4C3#0400300500000000
(1485365966.169584) can0 260#0800000000000274
(1485365966.172459) can0 0B2#000000000008
(1485365966.172591) can0 0B0#000000000008
(1485365966.175728) can0 2C4#069A00130000A223
(1485365966.182511) can0 0B2#000000000009
(1485365966.182670) can0 0B0#000000000009
(1485365966.183004) can0 0B4#00000000000000BC
(1485365966.185811) can0 2C1#08FCCDFCCD000065
(1485365966.186114) can0 440#4202000007000000
(1485365966.189835) can0 260#0800010000000376
(1485365966.192555) can0 0B2#00000000000A
(1485365966.192693) can0 0B0#00000000000A
(1485365966.193010) can0 223#0000007FE000008C
(1485365966.193290) can0 224#0000000000000000
(1485365966.195810) can0 2C4#067300130000A2FC
(1485365966.202558) can0 0B2#00000000000B
(1485365966.202691) can0 0B0#00000000000B
(1485365966.203047) can0 0B4#00000000000000BC
(1485365966.210010) can0 260#0800000000000476
(1485365966.212460) can0 0B2#00000000000C
(1485365966.212597) can0 0B0#00000000000C
(1485365966.216587) can0 2C1#08FCD4FCD4000073
(1485365966.216748) can0 2C4#064800130000A2D1
(1485365966.222611) can0 0B2#00000000000D
(1485365966.222770) can0 0B0#00000000000D
(1485365966.223044) can0 223#0000007FE000008C
(1485365966.223302) can0 0B4#00000000000000BC
(1485365966.223558) can0 224#0000000000000000
(1485365966.225756) can0 4C1#0100500500000000
(1485365966.230211) can0 260#080000000000087A
(1485365966.230382) can0 3B4#000042B800000000
(1485365966.232461) can0 0B2#00000000000E
(1485365966.232542) can0 0B0#00000000000E
(1485365966.235733) can0 2C4#063500130000A2BE
(1485365966.239633) can0 3A0#0000000000000014
(1485365966.242487) can0 0B2#00000000000F
(1485365966.242619) can0 0B0#00000000000F
(1485365966.242944) can0 0B4#00000000000000BC
(1485365966.245719) can0 2C1#08FCDAFCDA00007F
(1485365966.250459) can0 260#0800000000FFF566
(1485365966.252587) can0 0B2#000000000000
(1485365966.252720) can0 0B0#000000000000
(1485365966.253041) can0 223#0000007FE000008C
(1485365966.253321) can0 224#0000000000000000
(1485365966.255808) can0 2C4#060E00130000A297
(1485365966.262561) can0 0B2#000000000001
(1485365966.262697) can0 0B0#000000000001
(1485365966.263067) can0 0B4#00000000000000BC
(1485365966.270606) can0 260#0800000000000678
(1485365966.272484) can0 0B2#000000000002
(1485365966.272613) can0 0B0#000000000002
(1485365966.275716) can0 2C1#08FCE0FCE000008B
(1485365966.275887) can0 2C4#05F800130000A280
(1485365966.277461) can0 442#4002000003000000
(1485365966.280636) can0 394#00
(1485365966.282634) can0 0B2#000000000003
(1485365966.282769) can0 0B0#000000000003
(1485365966.283073) can0 223#0000007FE000008C
(1485365966.283284) can0 0B4#00000000000000BC
(1485365966.283577) can0 224#0000000000000000
(1485365966.283824) can0 3B7#0000000000000000
(1485365966.290835) can0 260#0800000000FFFD6E
(1485365966.292463) can0 0B2#000000000004
(1485365966.292567) can0 0B0#000000000004
(1485365966.295760) can0 2C4#05CE00130000A256
(1485365966.295818) can0 3B3#05CE00
(1485365966.302511) can0 0B2#000000000005
(1485365966.302644) can0 0B0#000000000005
(1485365966.302996) can0 0B4#00000000000000BC
(1485365966.305736) can0 2C1#08FCE7FCE7000099
(1485365966.311064) can0 260#0800000000FFF768
(1485365966.312509) can0 0B2#000000000006
(1485365966.312633) can0 0B0#000000000006
(1485365966.312935) can0 223#0000007FE000008C
(1485365966.313208) can0 224#0000000000000000
(1485365966.315760) can0 2C4#05B800130000A240
(1485365966.322514) can0 0B2#000000000007
(1485365966.322622) can0 0B0#000000000007
(1485365966.322959) can0 0B4#00000000000000BC
(1485365966.326137) can0 620#1000000030600050
(1485365966.331086) can0 398#0000
(1485365966.331250) can0 260#0800000000FFF566
(1485365966.332463) can0 0B2#000000000008
(1485365966.332544) can0 0B0#000000000008
(1485365966.335736) can0 2C1#08FCEDFCED0000A5
(1485365966.335898) can0 2C4#058D00130000A215
(1485365966.339625) can0 3A0#0000000000000014
(1485365966.342564) can0 0B2#000000000009
(1485365966.342697) can0 0B0#000000000009
(1485365966.342996) can0 223#0000007FE000008C
(1485365966.343236) can0 0B4#00000000000000BC
(1485365966.343457) can0 224#0000000000000000
(1485365966.351463) can0 260#0800000000FFF364
(1485365966.352455) can0 0B2#00000000000A
(1485365966.352545) can0 0B0#00000000000A
(1485365966.355735) can0 2C4#057700130000A2FF
(1485365966.362491) can0 0B2#00000000000B
(1485365966.362623) can0 0B0#00000000000B
(1485365966.362953) can0 0B4#00000000000000BC
(1485365966.365735) can0 2C1#08FCF4FCF40000B3
(1485365966.371664) can0 260#0800000000FFF768
(1485365966.372484) can0 0B2#00000000000C
(1485365966.372616) can0 0B0#00000000000C
(1485365966.372911) can0 223#0000007FE000008C
(1485365966.373183) can0 224#0000000000000000
(1485365966.375511) can0 440#4202000007000000
(1485365966.375675) can0 2C4#054A00130000A2D2
(1485365966.382491) can0 0B2#00000000000D
(1485365966.382622) can0 0B0#00000000000D
(1485365966.382958) can0 0B4#00000000000000BC
(1485365966.391864) can0 260#0800000000000274
(1485365966.392458) can0 0B2#00000000000E
(1485365966.392539) can0 0B0#00000000000E
(1485365966.395762) can0 2C1#08FD27FCFA0000ED
(1485365966.395920) can0 2C4#053400130000A2BC
(1485365966.402590) can0 0B2#00000000000F
(1485365966.402720) can0 0B0#00000000000F
(1485365966.403042) can0 223#0000007FE000008C
(1485365966.403210) can0 0B4#00000000000000BC
(1485365966.403494) can0 224#0000000000000000
(1485365966.406812) can0 610#2000006400000000
(1485365966.412067) can0 260#0800000000FFFC6D
(1485365966.412458) can0 0B2#000000000000
(1485365966.412638) can0 0B0#000000000000
(1485365966.415737) can0 2C4#051D00130000A2A5
(1485365966.422542) can0 0B2#000000000001
(1485365966.422660) can0 0B0#000000000001
(1485365966.422989) can0 0B4#00000000000000BC
(1485365966.425762) can0 2C1#08FD97FD5A0000BE
(1485365966.432264) can0 260#0800000000000577
(1485365966.432437) can0 0B2#000000000002
(1485365966.432645) can0 0B0#000000000002
(1485365966.432957) can0 223#0000007FE000008C
(1485365966.433266) can0 224#0000000000000000
(1485365966.435788) can0 2C4#04EC00130000A273
(1485365966.439641) can0 3A0#0000000000000014
(1485365966.442513) can0 0B2#000000000003
(1485365966.442639) can0 0B0#000000000003
(1485365966.442959) can0 0B4#00000000000000BC
(1485365966.452466) can0 0B2#000000000004
(1485365966.452549) can0 0B0#000000000004
(1485365966.452833) can0 260#0800000000FFFB6C
(1485365966.455738) can0 2C1#08FE0AFDDD0000B5
(1485365966.455897) can0 2C4#04DD00130000A264
(1485365966.462593) can0 0B2#000000000005
(1485365966.462741) can0 0B0#000000000005
(1485365966.463016) can0 223#0000007FE000008C
(1485365966.463270) can0 0B4#00000000000000BC
(1485365966.463508) can0 224#0000000000000000
(1485365966.466491) can0 442#4002000003000000
(1485365966.472468) can0 0B2#000000000006
(1485365966.472575) can0 0B0#000000000006
(1485365966.472873) can0 260#0800000000FFF667
(1485365966.475814) can0 2C4#04D100130000A258
(1485365966.482518) can0 0B2#000000000007
(1485365966.482651) can0 0B0#000000000007
(1485365966.482963) can0 0B4#00000000000000BC
(1485365966.485826) can0 2C1#08FE30FE27000026
(1485365966.492517) can0 0B2#000000000008
(1485365966.492663) can0 0B0#000000000008
(1485365966.492957) can0 223#0000007FE000008C
(1485365966.493177) can0 260#0800000000FFF869
(1485365966.493458) can0 224#0000000000000000
(1485365966.496917) can0 2C4#04D000130000A257
(1485365966.502537) can0 0B2#000000000009
(1485365966.502651) can0 0B0#000000000009
(1485365966.503000) can0 0B4#00000000000000BC
(1485365966.512470) can0 0B2#00000000000A
(1485365966.512602) can0 0B0#00000000000A
(1485365966.513095) can0 260#0800000000000678
(1485365966.515716) can0 2C1#08FE10FE1D0000FC
(1485365966.515866) can0 2C4#04D100130000A258
(1485365966.522618) can0 0B2#00000000000B
(1485365966.522751) can0 0B0#00000000000B
(1485365966.523045) can0 223#0000007FE000008C
(1485365966.523265) can0 0B4#00000000000000BC
(1485365966.523541) can0 224#0000000000000000
(1485365966.532471) can0 0B2#00000000000C
(1485365966.532595) can0 0B0#00000000000C
(1485365966.533316) can0 260#0800000000000779
(1485365966.535654) can0 2C4#04D100130000A258
(1485365966.539616) can0 3A0#0000000000000014
(1485365966.542447) can0 0B2#00000000000D
(1485365966.542651) can0 0B0#00000000000D
(1485365966.542954) can0 0B4#00000000000000BC
(1485365966.545665) can0 2C1#08FDFAFE000000C8
(1485365966.552506) can0 0B2#00000000000E
(1485365966.552666) can0 0B0#00000000000E
(1485365966.552961) can0 223#0000007FE000008C
(1485365966.553270) can0 224#0000000000000000
(1485365966.553509) can0 260#0800000000000779
(1485365966.555741) can0 2C4#04D100130000A258
(1485365966.562541) can0 0B2#00000000000F
(1485365966.562649) can0 0B0#00000000000F
(1485365966.562999) can0 0B4#00000000000000BC
(1485365966.565548) can0 440#4202000007000000
(1485365966.572469) can0 0B2#000000000000
(1485365966.572610) can0 0B0#000000000000
(1485365966.573738) can0 260#0800000000FFFC6D
(1485365966.575692) can0 2C1#08FDEDFDE70000A1
(1485365966.575876) can0 2C4#04CE00130000A255
(1485365966.582624) can0 0B2#000000000001
(1485365966.582739) can0 0B0#000000000001
(1485365966.583031) can0 223#0000007FE000008C
(1485365966.583290) can0 0B4#00000000000000BC
(1485365966.583547) can0 224#0000000000000000
(1485365966.583837) can0 3B7#0000000000000000
(1485365966.583901) can0 394#00
(1485365966.592469) can0 0B2#000000000002
(1485365966.592552) can0 0B0#000000000002
(1485365966.593966) can0 260#0800000000000779
(1485365966.595717) can0 2C4#04C500130000A24C
(1485365966.602464) can0 0B2#000000000003
(1485365966.602615) can0 0B0#000000000003
(1485365966.602958) can0 0B4#00000000000000BC
(1485365966.606068) can0 2C1#08FE17FDFD0000E2
(1485365966.612508) can0 0B2#000000000004
(1485365966.612644) can0 0B0#000000000004
(1485365966.612946) can0 223#0000007FE000008C
(1485365966.613243) can0 224#0000000000000000
(1485365966.614341) can0 260#0800000000000577
(1485365966.615743) can0 2C4#04BC00130000A243
(1485365966.622518) can0 0B2#000000000005
(1485365966.622652) can0 0B0#000000000005
(1485365966.622992) can0 0B4#00000000000000BC
(1485365966.623550) can0 3B1#0000022A00000000
(1485365966.625819) can0 620#1000000030600050
(1485365966.632491) can0 0B2#000000000006
(1485365966.632621) can0 0B0#000000000006
(1485365966.634367) can0 260#0800000000FFFA6B
(1485365966.635690) can0 2C1#08FE2AFE1400000D
(1485365966.635853) can0 2C4#04B300130000A23A
(1485365966.639619) can0 3A0#0000000000000014
(1485365966.642617) can0 0B2#000000000007
(1485365966.642753) can0 0B0#000000000007
(1485365966.643055) can0 223#0000007FE000008C
(1485365966.643313) can0 0B4#00000000000000BC
(1485365966.643520) can0 224#0000000000000000
(1485365966.652486) can0 0B2#000000000008
(1485365966.652625) can0 0B0#000000000008
(1485365966.654566) can0 260#0800000000000476
(1485365966.655715) can0 2C4#04B100130000A238
(1485365966.656997) can0 442#4002000003000000
(1485365966.662546) can0 0B2#000000000009
(1485365966.662678) can0 0B0#000000000009
(1485365966.663007) can0 0B4#00000000000000BC
(1485365966.665741) can0 2C1#08FE24FE20000013
(1485365966.672548) can0 0B2#00000000000A
(1485365966.672690) can0 0B0#00000000000A
(1485365966.672966) can0 223#0000007FE000008C
(1485365966.673295) can0 224#0000000000000000
(1485365966.674970) can0 260#0800000000000375
(1485365966.675739) can0 2C4#04B300130000A23A
(1485365966.682545) can0 0B2#00000000000B
(1485365966.682690) can0 0B0#00000000000B
(1485365966.683025) can0 0B4#00000000000000BC
(1485365966.692474) can0 0B2#00000000000C
(1485365966.692588) can0 0B0#00000000000C
(1485365966.694996) can0 260#0800000000000375
(1485365966.695716) can0 2C1#08FDFDFE0A0000D5
(1485365966.695883) can0 2C4#04B500130000A23C
(1485365966.702588) can0 0B2#00000000000D
(1485365966.702741) can0 0B0#00000000000D
(1485365966.703037) can0 223#0000007FE000008C
(1485365966.703292) can0 0B4#00000000000000BC
(1485365966.703509) can0 224#0000000000000000
(1485365966.712474) can0 0B2#00000000000E
(1485365966.712614) can0 0B0#00000000000E
(1485365966.715196) can0 260#0800000000000B7D
(1485365966.715670) can0 2C4#04AE00130000A235
(1485365966.722549) can0 0B2#00000000000F
(1485365966.722681) can0 0B0#00000000000F
(1485365966.723004) can0 0B4#00000000000000BC
(1485365966.724798) can0 4ED#5C00000000000000
(1485365966.725692) can0 2C1#08FE2AFE27000020
(1485365966.732548) can0 0B2#000000000000
(1485365966.732686) can0 0B0#000000000000
(1485365966.732962) can0 223#0000007FE000008C
(1485365966.733282) can0 224#0000000000000000
(1485365966.735596) can0 260#0800000000000678
(1485365966.735758) can0 2C4#049500130000A21C
(1485365966.739624) can0 3A0#0000000000000014
(1485365966.742546) can0 0B2#000000000001
(1485365966.742683) can0 0B0#000000000001
(1485365966.743006) can0 0B4#00000000000000BC
(1485365966.752400) can0 0B2#000000000002
(1485365966.752545) can0 0B0#000000000002
(1485365966.755021) can0 440#4202000007000000
(1485365966.755595) can0 260#0800010000000578
(1485365966.755762) can0 2C1#08FE77FE4D000093
(1485365966.756058) can0 2C4#048800130000A20F
(1485365966.762543) can0 0B2#000000000003
(1485365966.762698) can0 0B0#000000000003
(1485365966.762970) can0 223#0000007FE000008C
(1485365966.763249) can0 0B4#00000000000000BC
(1485365966.763474) can0 224#0000000000000000
(1485365966.769618) can0 4DC#1D00010900000000
(1485365966.772475) can0 0B2#000000000004
(1485365966.772609) can0 0B0#000000000004
(1485365966.775697) can0 2C4#048300130000A20A
(1485365966.775881) can0 260#0800000000000779
(1485365966.782550) can0 0B2#000000000005
(1485365966.782683) can0 0B0#000000000005
(1485365966.783004) can0 0B4#00000000000000BC
(1485365966.785699) can0 2C1#08FE80FE840000D3
(1485365966.792600) can0 0B2#000000000006
(1485365966.792706) can0 0B0#000000000006
(1485365966.793006) can0 223#0000007FE000008C
(1485365966.793354) can0 224#0000000000000000
(1485365966.795748) can0 2C4#048100130000A208
(1485365966.795831) can0 3B3#048100
(1485365966.796191) can0 260#0800010000FFFE70
(1485365966.802487) can0 0B2#000000000007
(1485365966.802668) can0 0B0#000000000007
(1485365966.803007) can0 0B4#00000000000000BC
(1485365966.805572) can0 621#1100000000000000
(1485365966.809574) can0 3B0#0000003200
(1485365966.812477) can0 0B2#000000000008
(1485365966.812549) can0 0B0#000000000008
(1485365966.814998) can0 622#1200000000000000
(1485365966.815696) can0 2C1#08FE77FE7D0000C3
(1485365966.815859) can0 2C4#048000130000A207
(1485365966.816207) can0 260#0800000000000173
(1485365966.822598) can0 0B2#000000000009
(1485365966.822756) can0 0B0#000000000009
(1485365966.823029) can0 223#0000007FE000008C
