(1485365732.550573) can0 260#080000000000087A
(1485365732.550812) can0 622#1200000000000000
(1485365732.554196) can0 0B2#00000000000B
(1485365732.554391) can0 0B0#00000000000B
(1485365732.554691) can0 0B4#00000000000000BC
(1485365732.559513) can0 624#1A0057FFFF400000
(1485365732.564210) can0 0B2#00000000000C
(1485365732.564322) can0 0B0#00000000000C
(1485365732.565455) can0 2C1#08FF77FF740000BC
(1485365732.565708) can0 2C4#040000130000A287
(1485365732.568764) can0 630#1700000000000000
(1485365732.570770) can0 260#0800010000FFF668
(1485365732.574282) can0 0B2#00000000000D
(1485365732.574477) can0 0B0#00000000000D
(1485365732.574690) can0 223#0000007FE000008C
(1485365732.574934) can0 0B4#00000000000000BC
(1485365732.575182) can0 224#0000000000000000
(1485365732.577949) can0 638#1300110000000000
(1485365732.584139) can0 0B2#00000000000E
(1485365732.584339) can0 0B0#00000000000E
(1485365732.585469) can0 2C4#040100130000A288
(1485365732.587076) can0 620#1000000030600050
(1485365732.590894) can0 260#0800000000000C7E
(1485365732.594259) can0 0B2#00000000000F
(1485365732.594399) can0 0B0#00000000000F
(1485365732.594737) can0 3A0#0000000000000014
(1485365732.594920) can0 0B4#00000000000000BC
(1485365732.595460) can0 2C1#08FF70FF6D0000AE
(1485365732.604193) can0 0B2#000000000000
(1485365732.604444) can0 0B0#000000000000
(1485365732.604721) can0 223#0000007FE000008C
(1485365732.604979) can0 224#0000000000000000
(1485365732.605410) can0 2C4#040300130000A28A
(1485365732.610483) can0 440#4202000007000000
(1485365732.611153) can0 260#0800000000000274
(1485365732.614263) can0 0B2#000000000001
(1485365732.614381) can0 0B0#000000000001
(1485365732.614724) can0 0B4#00000000000000BC
(1485365732.616083) can0 394#00
(1485365732.624136) can0 0B2#000000000002
(1485365732.624258) can0 0B0#000000000002
(1485365732.625459) can0 2C1#08FF67FF6700009F
(1485365732.625710) can0 2C4#040300130000A28A
(1485365732.626503) can0 4DD#1E00000500000000
(1485365732.631384) can0 260#0800000000FFFC6D
(1485365732.634287) can0 0B2#000000000003
(1485365732.634433) can0 0B0#000000000003
(1485365732.634727) can0 223#0000007FE000008C
(1485365732.634942) can0 0B4#00000000000000BC
(1485365732.635220) can0 224#0000000000000000
(1485365732.644161) can0 0B2#000000000004
(1485365732.644295) can0 0B0#000000000004
(1485365732.645458) can0 2C4#040300130000A28A
(1485365732.651009) can0 610#2000006400000000
(1485365732.651515) can0 260#0800000000000072
(1485365732.654234) can0 0B2#000000000005
(1485365732.654369) can0 0B0#000000000005
(1485365732.654737) can0 0B4#00000000000000BC
(1485365732.655466) can0 2C1#08FF64FF6700009C
(1485365732.664283) can0 0B2#000000000006
(1485365732.664419) can0 0B0#000000000006
(1485365732.664725) can0 223#0000007FE000008C
(1485365732.664996) can0 224#0000000000000000
(1485365732.665453) can0 2C4#040500130000A28C
(1485365732.671777) can0 260#0800010000000174
(1485365732.674284) can0 0B2#000000000007
(1485365732.674416) can0 0B0#000000000007
(1485365732.674745) can0 0B4#00000000000000BC
(1485365732.684184) can0 0B2#000000000008
(1485365732.684308) can0 0B0#000000000008
(1485365732.685456) can0 2C1#08FF54FF60000085
(1485365732.685709) can0 2C4#040800130000A28F
(1485365732.691186) can0 611#2100201200021DB5
(1485365732.691800) can0 260#0800000000000173
(1485365732.694364) can0 0B2#000000000009
(1485365732.694494) can0 0B0#000000000009
(1485365732.694799) can0 223#0000007FE000008C
(1485365732.695019) can0 0B4#00000000000000BC
(1485365732.695257) can0 224#0000000000000000
(1485365732.695548) can0 3A0#0000000000000014
(1485365732.701086) can0 640#A8000032020E0000
(1485365732.704207) can0 0B2#00000000000A
(1485365732.704345) can0 0B0#00000000000A
(1485365732.705684) can0 2C4#040900130000A290
(1485365732.710808) can0 442#4002000003000000
(1485365732.712187) can0 260#0800000000FFFA6B
(1485365732.714263) can0 0B2#00000000000B
(1485365732.714393) can0 0B0#00000000000B
(1485365732.714744) can0 0B4#00000000000000BC
(1485365732.715478) can0 2C1#08FF54FF4D000072
(1485365732.719428) can0 3B4#00003AB800000000
(1485365732.724227) can0 0B2#00000000000C
(1485365732.724371) can0 0B0#00000000000C
(1485365732.724717) can0 223#0000007FE000008C
(1485365732.724968) can0 224#0000000000000000
(1485365732.725466) can0 2C4#040800130000A28F
(1485365732.732204) can0 260#0800000000000577
(1485365732.734226) can0 0B2#00000000000D
(1485365732.734370) can0 0B0#00000000000D
(1485365732.734745) can0 0B4#00000000000000BC
(1485365732.744204) can0 0B2#00000000000E
(1485365732.744338) can0 0B0#00000000000E
(1485365732.745450) can0 2C1#08FF54FF50000075
(1485365732.745698) can0 2C4#040800130000A28F
(1485365732.752579) can0 260#0800000000FFF96A
(1485365732.754325) can0 0B2#00000000000F
(1485365732.754471) can0 0B0#00000000000F
(1485365732.754744) can0 223#0000007FE000008C
(1485365732.754990) can0 0B4#00000000000000BC
(1485365732.755288) can0 224#0000000000000000
(1485365732.755567) can0 3B7#0000000000000000
(1485365732.764179) can0 0B2#000000000000
(1485365732.764318) can0 0B0#000000000000
(1485365732.766150) can0 2C4#040700130000A28E
(1485365732.766234) can0 3B3#040700
(1485365732.772603) can0 260#0800000000000375
(1485365732.774198) can0 0B2#000000000001
(1485365732.774380) can0 0B0#000000000001
(1485365732.774745) can0 0B4#00000000000000BC
(1485365732.775432) can0 2C1#08FF5AFF57000082
(1485365732.784203) can0 0B2#000000000002
(1485365732.784339) can0 0B0#000000000002
(1485365732.784620) can0 223#0000007FE000008C
(1485365732.784902) can0 224#0000000000000000
(1485365732.785461) can0 2C4#040800130000A28F
(1485365732.792979) can0 260#0800000000FFFC6D
(1485365732.794200) can0 0B2#000000000003
(1485365732.794347) can0 0B0#000000000003
(1485365732.794621) can0 3A0#0000000000000014
(1485365732.794863) can0 0B4#00000000000000BC
(1485365732.804179) can0 0B2#000000000004
(1485365732.804309) can0 0B0#000000000004
(1485365732.805449) can0 2C1#08FF50FF50000071
(1485365732.805707) can0 2C4#040900130000A290
(1485365732.810254) can0 440#4202000007000000
(1485365732.813027) can0 260#0800000000000274
(1485365732.814324) can0 0B2#000000000005
(1485365732.814473) can0 0B0#000000000005
(1485365732.814745) can0 223#0000007FE000008C
(1485365732.815040) can0 0B4#00000000000000BC
(1485365732.815223) can0 224#0000000000000000
(1485365732.824179) can0 0B2#000000000006
(1485365732.824319) can0 0B0#000000000006
(1485365732.825452) can0 2C4#040B00130000A292
(1485365732.833402) can0 260#0800010000000174
(1485365732.834250) can0 0B2#000000000007
(1485365732.834396) can0 0B0#000000000007
(1485365732.834728) can0 0B4#00000000000000BC
(1485365732.835453) can0 2C1#08FF47FF4400005C
(1485365732.844228) can0 0B2#000000000008
(1485365732.844372) can0 0B0#000000000008
(1485365732.844746) can0 223#0000007FE000008C
(1485365732.844911) can0 224#0000000000000000
(1485365732.845472) can0 2C4#040C00130000A293
(1485365732.853429) can0 260#0800000000000779
(1485365732.854199) can0 0B2#000000000009
(1485365732.854345) can0 0B0#000000000009
(1485365732.854728) can0 0B4#00000000000000BC
(1485365732.864127) can0 0B2#00000000000A
(1485365732.864271) can0 0B0#00000000000A
(1485365732.865423) can0 2C1#08FF44FF44000059
(1485365732.865727) can0 2C4#040C00130000A293
(1485365732.873803) can0 260#080000000000097B
(1485365732.874246) can0 0B2#00000000000B
(1485365732.874429) can0 0B0#00000000000B
(1485365732.874730) can0 223#0000007FE000008C
(1485365732.874942) can0 0B4#00000000000000BC
(1485365732.875207) can0 224#0000000000000000
(1485365732.875727) can0 620#1000000030600050
(1485365732.884129) can0 0B2#00000000000C
(1485365732.884271) can0 0B0#00000000000C
(1485365732.885450) can0 2C4#040B00130000A292
(1485365732.893853) can0 260#0800010000000275
(1485365732.894131) can0 0B2#00000000000D
(1485365732.894352) can0 0B0#00000000000D
(1485365732.894635) can0 3A0#0000000000000014
(1485365732.894813) can0 0B4#00000000000000BC
(1485365732.896626) can0 2C1#08FF4DFF44000062
(1485365732.904195) can0 0B2#00000000000E
(1485365732.904336) can0 0B0#00000000000E
(1485365732.904644) can0 223#0000007FE000008C
(1485365732.904901) can0 224#0000000000000000
(1485365732.905408) can0 2C4#040900130000A290
(1485365732.910751) can0 442#4002000003000000
(1485365732.914229) can0 260#0800000000000173
(1485365732.914371) can0 0B2#00000000000F
(1485365732.914629) can0 0B0#00000000000F
(1485365732.914885) can0 0B4#00000000000000BC
(1485365732.919228) can0 38A#0804000000
(1485365732.919240) can0 394#00
(1485365732.924103) can0 0B2#000000000000
(1485365732.924248) can0 0B0#000000000000
(1485365732.925420) can0 2C1#08FF4DFF4A000068
(1485365732.925585) can0 2C4#040900130000A290
(1485365732.934254) can0 260#080000000000097B
(1485365732.934398) can0 0B2#000000000001
(1485365732.934614) can0 0B0#000000000001
(1485365732.934871) can0 223#0000007FE000008C
(1485365732.935110) can0 0B4#00000000000000BC
(1485365732.935370) can0 224#0000000000000000
(1485365732.944126) can0 0B2#000000000002
(1485365732.944255) can0 0B0#000000000002
(1485365732.945450) can0 2C4#040900130000A290
(1485365732.954204) can0 0B2#000000000003
(1485365732.954337) can0 0B0#000000000003
(1485365732.954653) can0 260#0800000000FFF061
(1485365732.954825) can0 0B4#00000000000000BC
(1485365732.955470) can0 2C1#08FF4AFF4A000065
(1485365732.964255) can0 0B2#000000000004
(1485365732.964388) can0 0B0#000000000004
(1485365732.964732) can0 223#0000007FE000008C
(1485365732.964947) can0 224#0000000000000000
(1485365732.965704) can0 2C4#040900130000A290
(1485365732.974230) can0 0B2#000000000005
(1485365732.974364) can0 0B0#000000000005
(1485365732.974727) can0 260#0800010000000A7D
(1485365732.974854) can0 0B4#00000000000000BC
(1485365732.984130) can0 0B2#000000000006
(1485365732.984258) can0 0B0#000000000006
(1485365732.985426) can0 2C1#08FF4DFF4A000068
(1485365732.985729) can0 2C4#040800130000A28F
(1485365732.994280) can0 0B2#000000000007
(1485365732.994414) can0 0B0#000000000007
(1485365732.994746) can0 223#0000007FE000008C
(1485365732.994913) can0 0B4#00000000000000BC
(1485365732.995206) can0 224#0000000000000000
(1485365732.995436) can0 260#0800010000000174
(1485365732.995737) can0 3A0#0000000000000014
(1485365733.004126) can0 0B2#000000000008
(1485365733.004261) can0 0B0#000000000008
(1485365733.005426) can0 2C4#040800130000A28F
(1485365733.009977) can0 440#4202000007000000
(1485365733.014201) can0 0B2#000000000009
(1485365733.014338) can0 0B0#000000000009
(1485365733.014727) can0 0B4#00000000000000BC
(1485365733.015237) can0 260#0800010000FFF567
(1485365733.015453) can0 2C1#08FF54FF50000075
(1485365733.024230) can0 0B2#00000000000A
(1485365733.024363) can0 0B0#00000000000A
(1485365733.024621) can0 223#0000007FE000008C
(1485365733.024971) can0 224#0000000000000000
(1485365733.026151) can0 2C4#040700130000A28E
(1485365733.034207) can0 0B2#00000000000B
(1485365733.034354) can0 0B0#00000000000B
(1485365733.034727) can0 0B4#00000000000000BC
(1485365733.035579) can0 260#0800000000000678
(1485365733.044151) can0 0B2#00000000000C
(1485365733.044276) can0 0B0#00000000000C
(1485365733.045427) can0 2C1#08FF54FF50000075
(1485365733.045729) can0 2C4#040700130000A28E
(1485365733.054279) can0 0B2#00000000000D
(1485365733.054407) can0 0B0#00000000000D
(1485365733.054728) can0 223#0000007FE000008C
(1485365733.054932) can0 0B4#00000000000000BC
(1485365733.055221) can0 224#0000000000000000
(1485365733.055484) can0 3B7#0000000000000000
(1485365733.055768) can0 260#0800000000000577
(1485365733.064180) can0 0B2#00000000000E
(1485365733.064310) can0 0B0#00000000000E
(1485365733.065423) can0 2C4#040600130000A28D
(1485365733.074226) can0 0B2#00000000000F
(1485365733.074363) can0 0B0#00000000000F
(1485365733.074745) can0 0B4#00000000000000BC
(1485365733.075614) can0 2C1#08FF57FF5400007C
(1485365733.075978) can0 260#0800000000000072
(1485365733.084255) can0 0B2#000000000000
(1485365733.084377) can0 0B0#000000000000
(1485365733.084748) can0 223#0000007FE000008C
(1485365733.084916) can0 224#0000000000000000
(1485365733.085459) can0 2C4#040400130000A28B
(1485365733.094231) can0 0B2#000000000001
(1485365733.094370) can0 0B0#000000000001
(1485365733.094730) can0 3A0#0000000000000014
(1485365733.094854) can0 0B4#00000000000000BC
(1485365733.096203) can0 260#0800000000000375
(1485365733.099648) can0 398#06B9
(1485365733.104129) can0 0B2#000000000002
(1485365733.104290) can0 0B0#000000000002
(1485365733.105423) can0 2C1#08FF64FF5D000092
(1485365733.105731) can0 2C4#040300130000A28A
(1485365733.110830) can0 442#4002000003000000
(1485365733.114306) can0 0B2#000000000003
(1485365733.114435) can0 0B0#000000000003
(1485365733.114729) can0 223#0000007FE000008C
(1485365733.114984) can0 0B4#00000000000000BC
(1485365733.115242) can0 224#0000000000000000
(1485365733.116454) can0 260#0800000000FFF869
(1485365733.119598) can0 3B1#0000022A00000000
(1485365733.124159) can0 0B2#000000000004
(1485365733.124288) can0 0B0#000000000004
(1485365733.125425) can0 2C4#040300130000A28A
(1485365733.134208) can0 0B2#000000000005
(1485365733.134336) can0 0B0#000000000005
(1485365733.134728) can0 0B4#00000000000000BC
(1485365733.135365) can0 2C1#08FF64FF60000095
(1485365733.136564) can0 260#0800000000FFFD6E
(1485365733.144127) can0 0B2#000000000006
(1485365733.144316) can0 0B0#000000000006
(1485365733.144563) can0 223#0000007FE000008C
(1485365733.144867) can0 224#0000000000000000
(1485365733.145368) can0 2C4#040400130000A28B
(1485365733.150987) can0 610#2000006400000000
(1485365733.154126) can0 0B2#000000000007
(1485365733.154318) can0 0B0#000000000007
(1485365733.154688) can0 0B4#00000000000000BC
(1485365733.156760) can0 260#0800010000000174
(1485365733.164059) can0 0B2#000000000008
(1485365733.164259) can0 0B0#000000000008
(1485365733.165358) can0 2C1#08FF64FF60000095
(1485365733.165581) can0 2C4#040400130000A28B
(1485365733.165831) can0 4C1#0100500500000000
(1485365733.174208) can0 0B2#000000000009
(1485365733.174429) can0 0B0#000000000009
(1485365733.174681) can0 223#0000007FE000008C
(1485365733.174911) can0 0B4#00000000000000BC
(1485365733.175161) can0 224#0000000000000000
(1485365733.175384) can0 620#1000000030600050
(1485365733.177009) can0 260#0800000000FFFE6F
(1485365733.184108) can0 0B2#00000000000A
(1485365733.184333) can0 0B0#00000000000A
(1485365733.185359) can0 2C4#040500130000A28C
(1485365733.188910) can0 4ED#5C00000000000000
(1485365733.194159) can0 0B2#00000000000B
(1485365733.194384) can0 0B0#00000000000B
(1485365733.194681) can0 3A0#0000000000000014
(1485365733.194883) can0 0B4#00000000000000BC
(1485365733.195359) can0 2C1#08FF5AFF5D000088
(1485365733.197183) can0 260#0800000000FFFB6C
(1485365733.204179) can0 0B2#00000000000C
(1485365733.204409) can0 0B0#00000000000C
(1485365733.204683) can0 223#0000007FE000008C
(1485365733.204933) can0 224#0000000000000000
(1485365733.205383) can0 2C4#040700130000A28E
(1485365733.209683) can0 440#4202000007000000
(1485365733.214160) can0 0B2#00000000000D
(1485365733.214384) can0 0B0#00000000000D
(1485365733.214681) can0 0B4#00000000000000BC
(1485365733.217360) can0 260#0800000000FFF364
(1485365733.222083) can0 394#00
(1485365733.224109) can0 0B2#00000000000E
(1485365733.224309) can0 0B0#00000000000E
(1485365733.224559) can0 4DC#1D00010900000000
(1485365733.225759) can0 2C1#08FF5DFF57000085
(1485365733.225985) can0 2C4#040600130000A28D
(1485365733.234260) can0 0B2#00000000000F
(1485365733.234457) can0 0B0#00000000000F
(1485365733.234707) can0 223#0000007FE000008C
(1485365733.234953) can0 0B4#00000000000000BC
(1485365733.235201) can0 224#0000000000000000
(1485365733.237583) can0 260#0800000000000577
(1485365733.244058) can0 0B2#000000000000
(1485365733.244283) can0 0B0#000000000000
(1485365733.245359) can0 2C4#040500130000A28C
(1485365733.254136) can0 0B2#000000000001
(1485365733.254333) can0 0B0#000000000001
(1485365733.254681) can0 0B4#00000000000000BC
(1485365733.255409) can0 2C1#08FF60FF60000091
(1485365733.257784) can0 260#0800000000000678
(1485365733.264183) can0 0B2#000000000002
(1485365733.264409) can0 0B0#000000000002
(1485365733.264680) can0 223#0000007FE000008C
(1485365733.264831) can0 3B0#0000003200
(1485365733.265080) can0 224#0000000000000000
(1485365733.265380) can0 2C4#040500130000A28C
(1485365733.265530) can0 3B3#040500
(1485365733.274161) can0 0B2#000000000003
(1485365733.274384) can0 0B0#000000000003
(1485365733.274685) can0 0B4#00000000000000BC
(1485365733.277986) can0 260#0800020000000377
(1485365733.284082) can0 0B2#000000000004
(1485365733.284305) can0 0B0#000000000004
(1485365733.285361) can0 2C1#08FF5AFF57000082
(1485365733.286259) can0 2C4#040700130000A28E
(1485365733.294235) can0 0B2#000000000005
(1485365733.294458) can0 0B0#000000000005
(1485365733.294682) can0 223#0000007FE000008C
(1485365733.294931) can0 0B4#00000000000000BC
(1485365733.295207) can0 224#0000000000000000
(1485365733.295454) can0 3A0#0000000000000014
(1485365733.298234) can0 260#0800010000000073
(1485365733.300694) can0 442#4002000003000000
(1485365733.304045) can0 0B2#000000000006
(1485365733.304239) can0 0B0#000000000006
(1485365733.306319) can0 2C4#040800130000A28F
(1485365733.314095) can0 0B2#000000000007
(1485365733.314307) can0 0B0#000000000007
(1485365733.314618) can0 0B4#00000000000000BC
(1485365733.315343) can0 2C1#08FF57FF5400007C
(1485365733.318447) can0 260#0800010000000073
(1485365733.319170) can0 3B4#00003AB801000000
(1485365733.324197) can0 0B2#000000000008
(1485365733.324386) can0 0B0#000000000008
(1485365733.324695) can0 223#0000007FE000008C
(1485365733.324887) can0 380#00A0043000000300
(1485365733.325144) can0 224#0000000000000000
(1485365733.325395) can0 2C4#040800130000A28F
(1485365733.334195) can0 0B2#000000000009
(1485365733.334387) can0 0B0#000000000009
(1485365733.334695) can0 0B4#00000000000000BC
(1485365733.338595) can0 260#0800010000000376
(1485365733.344121) can0 0B2#00000000000A
(1485365733.344309) can0 0B0#00000000000A
(1485365733.345370) can0 2C1#08FF57FF5400007C
(1485365733.345585) can0 2C4#040700130000A28E
(1485365733.354246) can0 0B2#00000000000B
(1485365733.354460) can0 0B0#00000000000B
(1485365733.354718) can0 223#0000007FE000008C
(1485365733.354966) can0 0B4#00000000000000BC
(1485365733.355215) can0 224#2000000000000000
(1485365733.355489) can0 3B7#0000000000000000
(1485365733.358844) can0 260#0800010000FFF769
(1485365733.364070) can0 0B2#00000000000C
(1485365733.364262) can0 0B0#00000000000C
(1485365733.365342) can0 2C4#040500130000A28C
(1485365733.374147) can0 0B2#00000000000D
(1485365733.374343) can0 0B0#00000000000D
(1485365733.374694) can0 0B4#00000000000000BC
(1485365733.375718) can0 2C1#08FF64FF60000095
(1485365733.379043) can0 260#0800010000FFF96B
(1485365733.384122) can0 0B2#00000000000E
(1485365733.384343) can0 0B0#00000000000E
(1485365733.384590) can0 223#0000007FE000008C
(1485365733.384895) can0 224#2000000000000000
(1485365733.385395) can0 2C4#040200130000A289
(1485365733.394122) can0 0B2#00000000000F
(1485365733.394321) can0 0B0#00000000000F
(1485365733.394569) can0 3A0#0000000000000014
(1485365733.394817) can0 0B4#00000000000000BC
(1485365733.399218) can0 260#080001000000087B
(1485365733.399465) can0 440#4202000007000000
(1485365733.404046) can0 0B2#000000000000
(1485365733.404246) can0 0B0#000000000000
(1485365733.405370) can0 2C1#08FF6AFF6A0000A5
(1485365733.405593) can0 2C4#040300130000A28A
(1485365733.414197) can0 0B2#000000000001
(1485365733.414395) can0 0B0#000000000001
(1485365733.414692) can0 223#0000007FE000008C
(1485365733.414895) can0 0B4#00000000000000BC
(1485365733.415145) can0 224#2000000000000000
(1485365733.419470) can0 260#0800010000000477
(1485365733.424047) can0 0B2#000000000002
(1485365733.424247) can0 0B0#000000000002
(1485365733.425343) can0 2C4#040600130000A28D
(1485365733.434148) can0 0B2#000000000003
(1485365733.434328) can0 0B0#000000000003
(1485365733.434633) can0 0B4#00000000000000BC
(1485365733.436340) can0 2C1#08FF5DFF5D00008B
(1485365733.439763) can0 260#0800010000000B7E
(1485365733.444191) can0 0B2#000000000004
(1485365733.444312) can0 0B0#000000000004
(1485365733.444621) can0 223#0000007FE000008C
(1485365733.444878) can0 224#2000000000000000
(1485365733.445218) can0 4C3#0400300500000000
(1485365733.445432) can0 2C4#040700130000A28E
(1485365733.454162) can0 0B2#000000000005
(1485365733.454305) can0 0B0#000000000005
(1485365733.454625) can0 4C8#0900010700000000
(1485365733.454873) can0 0B4#00000000000000BC
(1485365733.459864) can0 260#0800010000FFF86A
(1485365733.464115) can0 0B2#000000000006
(1485365733.464239) can0 0B0#000000000006
(1485365733.465412) can0 2C1#08FF64FF5A00008F
(1485365733.465561) can0 2C4#040500130000A28C
(1485365733.474266) can0 0B2#000000000007
(1485365733.474387) can0 0B0#000000000007
(1485365733.474730) can0 223#0000007FE000008C
(1485365733.474907) can0 0B4#00000000000000BC
(1485365733.475184) can0 224#2000000000000000
(1485365733.475418) can0 620#1000000030600050
(1485365733.480146) can0 260#080001000000097C
(1485365733.484162) can0 0B2#000000000008
(1485365733.484288) can0 0B0#000000000008
(1485365733.485431) can0 2C4#040700130000A28E
(1485365733.490585) can0 442#4002000003000000
(1485365733.494215) can0 0B2#000000000009
(1485365733.494337) can0 0B0#000000000009
(1485365733.494664) can0 3A0#0000000000000014
(1485365733.494842) can0 0B4#00000000000000BC
(1485365733.495401) can0 2C1#08FF57FF5A000082
(1485365733.500290) can0 260#0800010000FFFB6D
(1485365733.504212) can0 0B2#00000000000A
(1485365733.504328) can0 0B0#00000000000A
(1485365733.504623) can0 223#0000007FE000008C
(1485365733.504934) can0 224#2000000000000000
(1485365733.505378) can0 2C4#040800130000A28F
(1485365733.514189) can0 0B2#00000000000B
(1485365733.514317) can0 0B0#00000000000B
(1485365733.514728) can0 0B4#00000000000000BC
(1485365733.520389) can0 260#0800010000FFF365
(1485365733.524110) can0 0B2#00000000000C
(1485365733.524239) can0 0B0#00000000000C
(1485365733.525280) can0 394#00
(1485365733.525495) can0 2C1#08FF57FF5400007C
(1485365733.525747) can0 2C4#040800130000A28F
(1485365733.534289) can0 0B2#00000000000D
(1485365733.534403) can0 0B0#00000000000D
(1485365733.534741) can0 223#0000007FE000008C
(1485365733.534911) can0 0B4#00000000000000BC
(1485365733.535187) can0 224#2000000000000000
(1485365733.539463) can0 621#1100000000000000
(1485365733.540689) can0 260#0800010000000376
(1485365733.544137) can0 0B2#00000000000E
(1485365733.544265) can0 0B0#00000000000E
(1485365733.545413) can0 2C4#040800130000A28F
(1485365733.549513) can0 622#1200000000000000
(1485365733.554193) can0 0B2#00000000000F
(1485365733.554311) can0 0B0#00000000000F
(1485365733.554729) can0 0B4#00000000000000BC
(1485365733.555395) can0 2C1#08FF54FF50000075
(1485365733.558535) can0 624#1A0057FFFF400000
(1485365733.560816) can0 260#08FFF40000FFF65A
(1485365733.564212) can0 0B2#000000000000
(1485365733.564339) can0 0B0#000000000000
(1485365733.564635) can0 223#0000007FE000008C
(1485365733.564906) can0 224#2000000000000000
(1485365733.566586) can0 2C4#040900130000A290
(1485365733.567764) can0 630#1700000000000000
(1485365733.574191) can0 0B2#000000000001
(1485365733.574316) can0 0B0#000000000001
(1485365733.574744) can0 0B4#00000000000000BC
(1485365733.576917) can0 638#1300110000000000
(1485365733.580816) can0 260#08FFE70000FFF54C
(1485365733.584139) can0 0B2#000000000002
(1485365733.584260) can0 0B0#000000000002
(1485365733.585403) can0 2C1#08FF4AFF4A000065
(1485365733.585579) can0 2C4#040B00130000A292
(1485365733.589267) can0 440#4202000007000000
(1485365733.594285) can0 0B2#000000000003
(1485365733.594427) can0 0B0#000000000003
(1485365733.594742) can0 223#0000007FE000008C
(1485365733.594948) can0 0B4#00000000000000BC
(1485365733.595212) can0 224#2000000000000000
(1485365733.595440) can0 3A0#0000000000000014
(1485365733.601191) can0 260#08FFF10000000668
(1485365733.604139) can0 0B2#000000000004
(1485365733.604264) can0 0B0#000000000004
(1485365733.605415) can0 2C4#040B00130000A292
(1485365733.614218) can0 0B2#000000000005
(1485365733.614337) can0 0B0#000000000005
(1485365733.614736) can0 0B4#00000000000000BC
(1485365733.615397) can0 2C1#08FF47FF4400005C
(1485365733.621217) can0 260#080002000000077B
(1485365733.624215) can0 0B2#000000000006
(1485365733.624339) can0 0B0#000000000006
(1485365733.624667) can0 223#0000007FE000008C
(1485365733.624919) can0 224#2000000000000000
(1485365733.625377) can0 2C4#040A00130000A291
(1485365733.634211) can0 0B2#000000000007
(1485365733.634340) can0 0B0#000000000007
(1485365733.634731) can0 0B4#00000000000000BC
(1485365733.639664) can0 4DD#1E00000500000000
(1485365733.641617) can0 260#080005000000077E
(1485365733.644164) can0 0B2#000000000008
(1485365733.644291) can0 0B0#000000000008
(1485365733.645407) can0 2C1#08FF50FF4A00006B
(1485365733.645560) can0 2C4#040800130000A28F
(1485365733.651067) can0 610#2000006400000000
(1485365733.654288) can0 0B2#000000000009
(1485365733.654416) can0 0B0#000000000009
(1485365733.654758) can0 223#0000007FE000008C
(1485365733.654923) can0 0B4#00000000000000BC
(1485365733.655219) can0 224#2000000000000000
(1485365733.655499) can0 3B7#0000000000000000
(1485365733.661630) can0 260#080002000000077B
(1485365733.664080) can0 0B2#00000000000A
(1485365733.664217) can0 0B0#00000000000A
(1485365733.665405) can0 2C4#040700130000A28E
(1485365733.674158) can0 0B2#00000000000B
(1485365733.674292) can0 0B0#00000000000B
(1485365733.674617) can0 0B4#00000000000000BC
(1485365733.675452) can0 2C1#08FF5AFF57000082
(1485365733.680558) can0 442#4002000003000000
(1485365733.682005) can0 260#080005000000077E
(1485365733.684179) can0 0B2#00000000000C
(1485365733.684316) can0 0B0#00000000000C
(1485365733.684636) can0 223#0000007FE000008C
(1485365733.684847) can0 224#2000000000000000
(1485365733.685423) can0 2C4#040500130000A28C
(1485365733.691130) can0 611#2100201200021DB5
(1485365733.694132) can0 0B2#00000000000D
(1485365733.694356) can0 0B0#00000000000D
(1485365733.694624) can0 3A0#0000000000000014
(1485365733.694832) can0 0B4#00000000000000BC
(1485365733.701629) can0 640#A8000032020E0000
(1485365733.702195) can0 260#0800080000000680
(1485365733.704152) can0 0B2#00000000000E
(1485365733.704285) can0 0B0#00000000000E
(1485365733.705403) can0 2C1#08FF67FF60000098
(1485365733.705567) can0 2C4#040400130000A28B
(1485365733.714306) can0 0B2#00000000000F
(1485365733.714439) can0 0B0#00000000000F
(1485365733.714733) can0 223#0000007FE000008C
(1485365733.714990) can0 0B4#00000000000000BC
(1485365733.715198) can0 224#2000000000000000
(1485365733.722430) can0 260#080007000000037C
(1485365733.724153) can0 0B2#000000000000
(1485365733.724293) can0 0B0#000000000000
(1485365733.725377) can0 2C4#040300130000A28A
(1485365733.734207) can0 0B2#000000000001
(1485365733.734343) can0 0B0#000000000001
(1485365733.734721) can0 0B4#00000000000000BC
(1485365733.735393) can0 2C1#08FF70FF670000A8
(1485365733.742604) can0 260#0800070000FFF26A
(1485365733.744231) can0 0B2#000000000002
(1485365733.744367) can0 0B0#000000000002
(1485365733.744732) can0 223#0000007FE000008C
(1485365733.744947) can0 224#2000000000000000
(1485365733.745379) can0 2C4#040200130000A289
(1485365733.754160) can0 0B2#000000000003
(1485365733.754373) can0 0B0#000000000003
(1485365733.754690) can0 0B4#00000000000000BC
(1485365733.762764) can0 260#0800090000FFFE78
(1485365733.764037) can0 0B2#000000000004
(1485365733.764263) can0 0B0#000000000004
(1485365733.765335) can0 2C1#08FF77FF6D0000B5
(1485365733.765583) can0 2C4#040100130000A288
(1485365733.765738) can0 3B3#040100
(1485365733.774185) can0 0B2#000000000005
(1485365733.774412) can0 0B0#000000000005
(1485365733.774684) can0 223#0000007FE000008C
(1485365733.774887) can0 0B4#00000000000000BC
(1485365733.775161) can0 224#2000000000000000
(1485365733.775387) can0 620#1000000030600050
(1485365733.778862) can0 440#4202000007000000
(1485365733.782787) can0 260#08000C0000000785
(1485365733.784084) can0 0B2#000000000006
(1485365733.784308) can0 0B0#000000000006
(1485365733.785585) can0 2C4#040100130000A288
(1485365733.794137) can0 0B2#000000000007
(1485365733.794363) can0 0B0#000000000007
(1485365733.794613) can0 3A0#0000000000000014
(1485365733.794862) can0 0B4#00000000000000BC
(1485365733.795335) can0 2C1#08FF7AFF740000BF
(1485365733.803164) can0 260#080008000000057F
(1485365733.804137) can0 0B2#000000000008
(1485365733.804362) can0 0B0#000000000008
(1485365733.804584) can0 223#0000007FE000008C
(1485365733.804887) can0 224#2000000000000000
(1485365733.805334) can0 2C4#040000130000A287
(1485365733.814138) can0 0B2#000000000009
(1485365733.814336) can0 0B0#000000000009
(1485365733.814685) can0 0B4#00000000000000BC
(1485365733.823364) can0 260#0800020000000276
(1485365733.823988) can0 0B2#00000000000A
(1485365733.824185) can0 0B0#00000000000A
(1485365733.825313) can0 2C1#08FF84FF770000CC
(1485365733.825564) can0 2C4#03FF00130000A285
(1485365733.828461) can0 394#00
(1485365733.834164) can0 0B2#00000000000B
(1485365733.834363) can0 0B0#00000000000B
(1485365733.834613) can0 223#0000007FE000008C
(1485365733.834862) can0 0B4#00000000000000BC
(1485365733.835113) can0 224#2000000000000000
(1485365733.843564) can0 260#0800020000000A7E
(1485365733.844078) can0 0B2#00000000000C
(1485365733.844286) can0 0B0#00000000000C
(1485365733.846187) can0 2C4#03FE00130000A284
(1485365733.854137) can0 0B2#00000000000D
(1485365733.854361) can0 0B0#00000000000D
(1485365733.854684) can0 0B4#00000000000000BC
(1485365733.855309) can0 2C1#08FF8AFF870000E2
(1485365733.863612) can0 260#0800070000FFFE76
(1485365733.864162) can0 0B2#00000000000E
(1485365733.864362) can0 0B0#00000000000E
(1485365733.864612) can0 223#0000007FE000008C
(1485365733.864914) can0 224#2000000000000000
(1485365733.865814) can0 2C4#040200130000A289
(1485365733.871537) can0 442#4002000003000000
(1485365733.874138) can0 0B2#00000000000F
(1485365733.874362) can0 0B0#00000000000F
(1485365733.874684) can0 0B4#00000000000000BC
(1485365733.883990) can0 260#080007000000017A
(1485365733.884213) can0 0B2#000000000000
(1485365733.884412) can0 0B0#000000000000
(1485365733.885335) can0 2C1#08FF77FF770000BF
(1485365733.885584) can0 2C4#040300130000A28A
(1485365733.894186) can0 0B2#000000000001
(1485365733.894389) can0 0B0#000000000001
(1485365733.894688) can0 223#0000007FE000008C
(1485365733.894887) can0 0B4#00000000000000BC
(1485365733.895137) can0 224#2000000000000000
(1485365733.895387) can0 3A0#0000000000000014
(1485365733.904012) can0 260#0800000000000779
(1485365733.904238) can0 0B2#000000000002
(1485365733.904436) can0 0B0#000000000002
(1485365733.905309) can0 2C4#040300130000A28A
(1485365733.914095) can0 0B2#000000000003
(1485365733.914296) can0 0B0#000000000003
(1485365733.914593) can0 0B4#00000000000000BC
(1485365733.915323) can0 2C1#08FF7AFF770000C2
(1485365733.924097) can0 0B2#000000000004
(1485365733.924296) can0 0B0#000000000004
(1485365733.924545) can0 223#0000007FE000008C
(1485365733.924773) can0 260#08FFFA0000000A75
(1485365733.925048) can0 224#2000000000000000
(1485365733.925345) can0 2C4#040300130000A28A
(1485365733.934097) can0 0B2#000000000005
(1485365733.934321) can0 0B0#000000000005
(1485365733.934620) can0 0B4#00000000000000BC
(1485365733.944023) can0 0B2#000000000006
(1485365733.944217) can0 0B0#000000000006
(1485365733.944466) can0 260#08FFFE0000000A79
(1485365733.945323) can0 2C1#08FF7AFF770000C2
(1485365733.945573) can0 2C4#040300130000A28A
(1485365733.954176) can0 0B2#000000000007
(1485365733.954373) can0 0B0#000000000007
(1485365733.954623) can0 223#0000007FE000008C
(1485365733.954873) can0 0B4#00000000000000BC
(1485365733.955123) can0 224#2000000000000000
(1485365733.955423) can0 3B7#0000000000000000
(1485365733.964023) can0 0B2#000000000008
(1485365733.964223) can0 0B0#000000000008
(1485365733.964823) can0 260#080002000000077B
(1485365733.965323) can0 2C4#040100130000A288
(1485365733.968625) can0 440#4202000007000000
(1485365733.974096) can0 0B2#000000000009
(1485365733.974321) can0 0B0#000000000009
(1485365733.974621) can0 0B4#00000000000000BC
(1485365733.975321) can0 2C1#08FF80FF7D0000CE
(1485365733.984124) can0 0B2#00000000000A
(1485365733.984324) can0 0B0#00000000000A
(1485365733.984575) can0 223#0000007FE000008C
(1485365733.984873) can0 224#2000000000000000
(1485365733.985096) can0 260#0800000000000678
(1485365733.985371) can0 2C4#040000130000A287
(1485365733.994099) can0 0B2#00000000000B
(1485365733.994321) can0 0B0#00000000000B
(1485365733.994571) can0 3A0#0000000000000014
(1485365733.994799) can0 0B4#00000000000000BC
(1485365734.004019) can0 0B2#00000000000C
(1485365734.004275) can0 0B0#00000000000C
(1485365734.005324) can0 2C1#08FF8DFF870000E5
(1485365734.005571) can0 260#08FFFA0000FFFA64
(1485365734.005798) can0 2C4#040000130000A287
(1485365734.014223) can0 0B2#00000000000D
(1485365734.014423) can0 0B0#00000000000D
(1485365734.014698) can0 223#0000007FE000008C
(1485365734.014923) can0 0B4#00000000000000BC
(1485365734.015173) can0 224#2000000000000000
(1485365734.019275) can0 38A#0804000000
(1485365734.024051) can0 0B2#00000000000E
(1485365734.024248) can0 0B0#00000000000E
(1485365734.025323) can0 2C4#040100130000A288
(1485365734.025574) can0 260#08FFF80000FFF961
(1485365734.034099) can0 0B2#00000000000F
(1485365734.034296) can0 0B0#00000000000F
(1485365734.034594) can0 0B4#00000000000000BC
(1485365734.035323) can0 2C1#08FF84FF870000DC
(1485365734.044100) can0 0B2#000000000000
(1485365734.044293) can0 0B0#000000000000
(1485365734.044546) can0 223#0000007FE000008C
(1485365734.044888) can0 224#2000000000000000
(1485365734.045360) can0 2C4#040100130000A288
(1485365734.045812) can0 260#08FFF9000000046E
(1485365734.054139) can0 0B2#000000000001
(1485365734.054337) can0 0B0#000000000001
(1485365734.054637) can0 0B4#00000000000000BC
(1485365734.060736) can0 442#4002000003000000
(1485365734.064037) can0 0B2#000000000002
(1485365734.064264) can0 0B0#000000000002
(1485365734.065338) can0 2C1#08FF87FF800000D8
(1485365734.065587) can0 2C4#040100130000A288
(1485365734.065963) can0 260#08FFFC000000016E
(1485365734.074112) can0 620#1000000030600050
(1485365734.074312) can0 0B2#000000000003
(1485365734.074535) can0 0B0#000000000003
(1485365734.074763) can0 223#0000007FE000008C
(1485365734.075007) can0 0B4#00000000000000BC
(1485365734.075252) can0 224#2000000000000000
(1485365734.075488) can0 4C1#0100500500000000
(1485365734.084095) can0 0B2#000000000004
(1485365734.084244) can0 0B0#000000000004
(1485365734.085642) can0 2C4#040400130000A28B
(1485365734.086235) can0 260#08FFFF0000000777
(1485365734.094170) can0 0B2#000000000005
(1485365734.094293) can0 0B0#000000000005
(1485365734.094557) can0 3A0#0000000000000014
(1485365734.094846) can0 0B4#00000000000000BC
(1485365734.095378) can0 2C1#08FF70FF7A0000BB
(1485365734.104192) can0 0B2#000000000006
(1485365734.104311) can0 0B0#000000000006
(1485365734.104625) can0 223#0000007FE000008C
(1485365734.104884) can0 224#2000000000000000
(1485365734.105377) can0 2C4#040700130000A28E
(1485365734.106488) can0 260#08FFFF0000FFF766
(1485365734.114193) can0 0B2#000000000007
(1485365734.114316) can0 0B0#000000000007
(1485365734.114748) can0 0B4#00000000000000BC
(1485365734.120771) can0 3B1#0000022A00000000
(1485365734.124118) can0 0B2#000000000008
(1485365734.124244) can0 0B0#000000000008
(1485365734.125392) can0 2C1#08FF6DFF6A0000A8
(1485365734.126564) can0 2C4#040800130000A28F
(1485365734.126793) can0 260#08FFFF0000FFF160
(1485365734.131362) can0 394#00
(1485365734.134257) can0 0B2#000000000009
(1485365734.134394) can0 0B0#000000000009
(1485365734.134735) can0 223#0000007FE000008C
(1485365734.134911) can0 0B4#00000000000000BC
(1485365734.135165) can0 224#2000000000000000
(1485365734.144111) can0 0B2#00000000000A
(1485365734.144244) can0 0B0#00000000000A
(1485365734.145382) can0 2C4#040800130000A28F
(1485365734.146855) can0 260#0800020000000478
(1485365734.150960) can0 610#2000006400000000
(1485365734.154190) can0 0B2#00000000000B
(1485365734.154315) can0 0B0#00000000000B
(1485365734.154747) can0 0B4#00000000000000BC
(1485365734.155394) can0 2C1#08FF6AFF670000A2
(1485365734.158519) can0 440#4202000007000000
(1485365734.164217) can0 0B2#00000000000C
(1485365734.164316) can0 0B0#00000000000C
(1485365734.164631) can0 223#0000007FE000008C
(1485365734.164930) can0 224#2000000000000000
(1485365734.165387) can0 2C4#040A00130000A291
(1485365734.167118) can0 260#0800090000FFF872
(1485365734.174219) can0 0B2#00000000000D
(1485365734.174343) can0 0B0#00000000000D
(1485365734.174746) can0 0B4#00000000000000BC
(1485365734.184096) can0 0B2#00000000000E
(1485365734.184192) can0 0B0#00000000000E
(1485365734.185391) can0 2C1#08FF64FF60000095
(1485365734.185547) can0 2C4#040A00130000A291
(1485365734.187318) can0 260#08000C0000000583
(1485365734.188693) can0 4ED#5C00000000000000
(1485365734.194245) can0 0B2#00000000000F
(1485365734.194369) can0 0B0#00000000000F
(1485365734.194638) can0 223#0000007FE000008C
(1485365734.194885) can0 0B4#00000000000000BC
(1485365734.195133) can0 224#2000000000000000
(1485365734.195391) can0 3A0#0000000000000014
(1485365734.204096) can0 0B2#000000000000
(1485365734.204220) can0 0B0#000000000000
(1485365734.205392) can0 2C4#040900130000A290
(1485365734.207489) can0 260#0800070000FFFB73
(1485365734.214170) can0 0B2#000000000001
(1485365734.214296) can0 0B0#000000000001
(1485365734.214641) can0 0B4#00000000000000BC
(1485365734.215361) can0 2C1#08FF64FF60000095
(1485365734.224221) can0 0B2#000000000002
(1485365734.224344) can0 0B0#000000000002
(1485365734.224638) can0 223#0000007FE000008C
(1485365734.224870) can0 4DC#1D00010900000000
(1485365734.225139) can0 224#2000000000000000
(1485365734.225382) can0 2C4#040900130000A290
(1485365734.227767) can0 260#08FFFF0000000373
(1485365734.234221) can0 0B2#000000000003
(1485365734.234342) can0 0B0#000000000003
(1485365734.234744) can0 0B4#00000000000000BC
(1485365734.244144) can0 0B2#000000000004
(1485365734.244268) can0 0B0#000000000004
(1485365734.245394) can0 2C1#08FF64FF60000095
(1485365734.245548) can0 2C4#040900130000A290
(1485365734.247917) can0 260#08FFFB000000006C
(1485365734.250918) can0 442#4002000003000000
(1485365734.254296) can0 0B2#000000000005
(1485365734.254419) can0 0B0#000000000005
(1485365734.254737) can0 223#0000007FE000008C
(1485365734.254952) can0 0B4#00000000000000BC
(1485365734.255206) can0 224#2000000000000000
(1485365734.255513) can0 3B7#0000000000000000
(1485365734.264143) can0 0B2#000000000006
(1485365734.264269) can0 0B0#000000000006
(1485365734.264507) can0 3B0#0000003200
(1485365734.265392) can0 2C4#040800130000A28F
(1485365734.265466) can0 3B3#040800
(1485365734.268093) can0 260#0800000000FFF96A
(1485365734.274220) can0 0B2#000000000007
(1485365734.274320) can0 0B0#000000000007
(1485365734.274744) can0 0B4#00000000000000BC
(1485365734.276017) can0 2C1#08FF67FF6400009C
(1485365734.284163) can0 0B2#000000000008
(1485365734.284295) can0 0B0#000000000008
(1485365734.284595) can0 223#0000007FE000008C
(1485365734.284878) can0 224#2000000000000000
(1485365734.285369) can0 2C4#040800130000A28F
(1485365734.288337) can0 260#080000000000097B
(1485365734.294161) can0 0B2#000000000009
(1485365734.294296) can0 0B0#000000000009
(1485365734.294614) can0 3A0#0000000000000014
(1485365734.294839) can0 0B4#00000000000000BC
(1485365734.304111) can0 0B2#00000000000A
(1485365734.304269) can0 0B0#00000000000A
(1485365734.305357) can0 2C1#08FF67FF6400009C
(1485365734.305542) can0 2C4#040800130000A28F
(1485365734.308536) can0 260#08FFFA000000026D
(1485365734.314263) can0 0B2#00000000000B
(1485365734.314414) can0 0B0#00000000000B
(1485365734.314753) can0 223#0000007FE000008C
(1485365734.314896) can0 0B4#00000000000000BC
(1485365734.315199) can0 224#2000000000000000
(1485365734.319361) can0 3B4#00003AB801000000
(1485365734.324107) can0 0B2#00000000000C
(1485365734.324247) can0 0B0#00000000000C
(1485365734.324555) can0 380#00A0043000000300
(1485365734.325354) can0 2C4#040700130000A28E
(1485365734.328760) can0 260#08FFF60000000269
(1485365734.334187) can0 0B2#00000000000D
(1485365734.334310) can0 0B0#00000000000D
(1485365734.334721) can0 0B4#00000000000000BC
(1485365734.335389) can0 2C1#08FF6DFF670000A5
(1485365734.344159) can0 0B2#00000000000E
(1485365734.344284) can0 0B0#00000000000E
(1485365734.344586) can0 223#0000007FE000008C
(1485365734.344881) can0 224#2000000000000000
(1485365734.345628) can0 2C4#040700130000A28E
(1485365734.348285) can0 440#4202000007000000
(1485365734.348955) can0 260#08FFF80000FFFA62
(1485365734.354062) can0 0B2#00000000000F
(1485365734.354249) can0 0B0#00000000000F
(1485365734.354556) can0 0B4#00000000000000BC
(1485365734.364132) can0 0B2#000000000000
(1485365734.364267) can0 0B0#000000000000
(1485365734.365358) can0 2C1#08FF74FF6A0000AF
(1485365734.365524) can0 2C4#040500130000A28C
(1485365734.369095) can0 260#0800000000000779
(1485365734.373805) can0 620#1000000030600050
(1485365734.374274) can0 0B2#000000000001
(1485365734.374452) can0 0B0#000000000001
(1485365734.374775) can0 223#0000007FE000008C
(1485365734.374941) can0 0B4#00000000000000BC
(1485365734.375241) can0 224#2000000000000000
(1485365734.375541) can0 4C3#0400300500000000
(1485365734.384136) can0 0B2#000000000002
(1485365734.384271) can0 0B0#000000000002
(1485365734.385384) can0 2C4#040500130000A28C
(1485365734.389312) can0 260#0800050000FFF86E
(1485365734.394186) can0 0B2#000000000003
(1485365734.394318) can0 0B0#000000000003
(1485365734.394637) can0 3A0#0000000000000014
(1485365734.394809) can0 0B4#00000000000000BC
(1485365734.395350) can0 2C1#08FF70FF6D0000AE
(1485365734.404154) can0 0B2#000000000004
(1485365734.404290) can0 0B0#000000000004
(1485365734.404591) can0 223#0000007FE000008C
(1485365734.404879) can0 224#2000000000000000
(1485365734.405858) can0 2C4#040700130000A28E
(1485365734.409584) can0 260#080006000000057D
(1485365734.414161) can0 0B2#000000000005
(1485365734.414292) can0 0B0#000000000005
(1485365734.414632) can0 0B4#00000000000000BC
(1485365734.424058) can0 0B2#000000000006
(1485365734.424208) can0 0B0#000000000006
(1485365734.425358) can0 2C1#08FF60FF67000098
(1485365734.425533) can0 2C4#040A00130000A291
(1485365734.429762) can0 260#0800040000000076
(1485365734.434198) can0 0B2#000000000007
(1485365734.434347) can0 0B0#000000000007
(1485365734.434627) can0 223#0000007FE000008C
(1485365734.434871) can0 0B4#00000000000000BC
(1485365734.435131) can0 224#2000000000000000
(1485365734.435206) can0 394#00
(1485365734.440761) can0 442#4002000003000000
(1485365734.444057) can0 0B2#000000000008
(1485365734.444191) can0 0B0#000000000008
(1485365734.444763) can0 4C8#0900010700000000
(1485365734.445369) can0 2C4#040B00130000A292
(1485365734.449945) can0 260#0800010000000376
(1485365734.454143) can0 0B2#000000000009
(1485365734.454271) can0 0B0#000000000009
(1485365734.454626) can0 0B4#00000000000000BC
(1485365734.455816) can0 2C1#08FF5AFF57000082
(1485365734.464143) can0 0B2#00000000000A
(1485365734.464268) can0 0B0#00000000000A
(1485365734.464583) can0 223#0000007FE000008C
(1485365734.464870) can0 224#2000000000000000
(1485365734.465376) can0 2C4#040B00130000A292
(1485365734.470169) can0 260#0800000000000375
(1485365734.474146) can0 0B2#00000000000B
(1485365734.474245) can0 0B0#00000000000B
(1485365734.474607) can0 0B4#00000000000000BC
(1485365734.483999) can0 0B2#00000000000C
(1485365734.484183) can0 0B0#00000000000C
(1485365734.485274) can0 2C1#08FF5AFF5400007F
(1485365734.485523) can0 2C4#040A00130000A291
(1485365734.490335) can0 260#0800020000FFFA6D
(1485365734.494209) can0 0B2#00000000000D
(1485365734.494348) can0 0B0#00000000000D
(1485365734.494630) can0 223#0000007FE000008C
(1485365734.494871) can0 0B4#00000000000000BC
(1485365734.495127) can0 224#2000000000000000
(1485365734.495378) can0 3A0#0000000000000014
(1485365734.504089) can0 0B2#00000000000E
(1485365734.504237) can0 0B0#00000000000E
(1485365734.505357) can0 2C4#040800130000A28F
(1485365734.510434) can0 260#0800040000000278
(1485365734.514132) can0 0B2#00000000000F
(1485365734.514274) can0 0B0#00000000000F
(1485365734.514617) can0 0B4#00000000000000BC
(1485365734.515351) can0 2C1#08FF60FF5D00008E
(1485365734.524188) can0 0B2#000000000000
(1485365734.524318) can0 0B0#000000000000
(1485365734.524625) can0 223#0000007FE000008C
(1485365734.524879) can0 224#2000000000000000
(1485365734.525359) can0 2C4#040800130000A28F
(1485365734.530764) can0 260#0800030000000378
(1485365734.534187) can0 0B2#000000000001
(1485365734.534330) can0 0B0#000000000001
(1485365734.534734) can0 0B4#00000000000000BC
(1485365734.538063) can0 440#4202000007000000
(1485365734.538231) can0 621#1100000000000000
(1485365734.544087) can0 0B2#000000000002
(1485365734.544205) can0 0B0#000000000002
(1485365734.545360) can0 2C1#08FF67FF60000098
(1485365734.545534) can0 2C4#040800130000A28F
(1485365734.548109) can0 622#1200000000000000
(1485365734.550930) can0 260#0800000000000577
(1485365734.554210) can0 0B2#000000000003
(1485365734.554356) can0 0B0#000000000003
(1485365734.554631) can0 223#0000007FE000008C
(1485365734.554879) can0 0B4#00000000000000BC
(1485365734.555123) can0 224#2000000000000000
(1485365734.555478) can0 3B7#0000000000000000
(1485365734.557490) can0 624#1A0057FFFF400000
(1485365734.564084) can0 0B2#000000000004
(1485365734.564202) can0 0B0#000000000004
(1485365734.565359) can0 2C4#040700130000A28E
(1485365734.566656) can0 630#1700000000000000
(1485365734.571037) can0 260#08FFFD0000FFFE6B
(1485365734.574163) can0 0B2#000000000005
(1485365734.574306) can0 0B0#000000000005
(1485365734.574615) can0 0B4#00000000000000BC
(1485365734.575354) can0 2C1#08FF6DFF6A0000A8
(1485365734.575821) can0 638#1300110000000000
(1485365734.584163) can0 0B2#000000000006
(1485365734.584300) can0 0B0#000000000006
(1485365734.584594) can0 223#0000007FE000008C
(1485365734.584880) can0 224#2000000000000000
(1485365734.585378) can0 2C4#040600130000A28D
(1485365734.590588) can0 398#06FC
(1485365734.591006) can0 260#08FFFC0000FFFE6A
(1485365734.594137) can0 0B2#000000000007
(1485365734.594281) can0 0B0#000000000007
(1485365734.594573) can0 3A0#0000000000000014
(1485365734.594836) can0 0B4#00000000000000BC
(1485365734.604060) can0 0B2#000000000008
(1485365734.604197) can0 0B0#000000000008
(1485365734.605760) can0 2C1#08FF70FF6A0000AB
(1485365734.605857) can0 2C4#040600130000A28D
(1485365734.611458) can0 260#0800000000FFF96A
(1485365734.614214) can0 0B2#000000000009
(1485365734.614355) can0 0B0#000000000009
(1485365734.614631) can0 223#0000007FE000008C
(1485365734.614875) can0 0B4#00000000000000BC
(1485365734.615128) can0 224#2000000000000000
(1485365734.624087) can0 0B2#00000000000A
(1485365734.624224) can0 0B0#00000000000A
(1485365734.625360) can0 2C4#040500130000A28C
(1485365734.630638) can0 442#4002000003000000
(1485365734.631460) can0 260#0800030000000378
(1485365734.634163) can0 0B2#00000000000B
(1485365734.634308) can0 0B0#00000000000B
(1485365734.634635) can0 0B4#00000000000000BC
(1485365734.635346) can0 2C1#08FF70FF6D0000AE
(1485365734.644164) can0 0B2#00000000000C
(1485365734.644306) can0 0B0#00000000000C
(1485365734.644604) can0 223#0000007FE000008C
(1485365734.644882) can0 224#2000000000000000
(1485365734.645360) can0 2C4#040600130000A28D
(1485365734.650786) can0 4DD#1E00000500000000
(1485365734.650950) can0 610#2000006400000000
(1485365734.651834) can0 260#0800030000000C81
(1485365734.654184) can0 0B2#00000000000D
(1485365734.654306) can0 0B0#00000000000D
(1485365734.654633) can0 0B4#00000000000000BC
(1485365734.664085) can0 0B2#00000000000E
(1485365734.664231) can0 0B0#00000000000E
(1485365734.666210) can0 2C1#08FF6DFF670000A5
(1485365734.666385) can0 2C4#040600130000A28D
(1485365734.672061) can0 260#0800000000000274
(1485365734.673410) can0 620#1000000030600050
(1485365734.674259) can0 0B2#00000000000F
(1485365734.674406) can0 0B0#00000000000F
(1485365734.674738) can0 223#0000007FE000008C
(1485365734.674911) can0 0B4#00000000000000BC
(1485365734.675194) can0 224#2000000000000000
(1485365734.684113) can0 0B2#000000000000
(1485365734.684256) can0 0B0#000000000000
(1485365734.685436) can0 2C4#040600130000A28D
(1485365734.690984) can0 611#2100201200021DB5
(1485365734.692236) can0 260#08FFFE0000000675
(1485365734.694162) can0 0B2#000000000001
(1485365734.694307) can0 0B0#000000000001
(1485365734.694605) can0 3A0#0000000000000014
(1485365734.694793) can0 0B4#00000000000000BC
(1485365734.695353) can0 2C1#08FF6DFF6A0000A8
(1485365734.701563) can0 640#A8000032020E0000
(1485365734.704135) can0 0B2#000000000002
(1485365734.704281) can0 0B0#000000000002
(1485365734.704571) can0 223#0000007FE000008C
(1485365734.704865) can0 224#2000000000000000
(1485365734.705344) can0 2C4#040500130000A28C
(1485365734.712223) can0 260#0800000000FFFB6C
(1485365734.714110) can0 0B2#000000000003
(1485365734.714248) can0 0B0#000000000003
(1485365734.714599) can0 0B4#00000000000000BC
(1485365734.724061) can0 0B2#000000000004
(1485365734.724188) can0 0B0#000000000004
(1485365734.725360) can0 2C1#08FF7AFF700000BB
(1485365734.725527) can0 2C4#040300130000A28A
(1485365734.727760) can0 440#4202000007000000
(1485365734.732591) can0 260#0800020000000175
(1485365734.734130) can0 0B2#000000000005
(1485365734.734349) can0 0B0#000000000005
(1485365734.734600) can0 223#0000007FE000008C
(1485365734.734820) can0 0B4#00000000000000BC
(1485365734.735097) can0 224#2000000000000000
(1485365734.737813) can0 394#00
(1485365734.744113) can0 0B2#000000000006
(1485365734.744249) can0 0B0#000000000006
(1485365734.745360) can0 2C4#040300130000A28A
(1485365734.752688) can0 260#080002000000067A
(1485365734.754186) can0 0B2#000000000007
(1485365734.754325) can0 0B0#000000000007
(1485365734.754666) can0 0B4#00000000000000BC
(1485365734.755531) can0 2C1#08FF7AFF770000C2
(1485365734.764182) can0 0B2#000000000008
(1485365734.764311) can0 0B0#000000000008
(1485365734.764614) can0 223#0000007FE000008C
(1485365734.764928) can0 224#2000000000000000
(1485365734.765356) can0 2C4#040400130000A28B
(1485365734.765447) can0 3B3#040400
(1485365734.773089) can0 260#0800000000FFF263
(1485365734.774185) can0 0B2#000000000009
(1485365734.774323) can0 0B0#000000000009
(1485365734.774632) can0 0B4#00000000000000BC
(1485365734.784138) can0 0B2#00000000000A
(1485365734.784270) can0 0B0#00000000000A
(1485365734.785361) can0 2C1#08FF77FF740000BC
(1485365734.785526) can0 2C4#040400130000A28B
(1485365734.793114) can0 260#0800000000000476
(1485365734.794260) can0 0B2#00000000000B
(1485365734.794398) can0 0B0#00000000000B
(1485365734.794756) can0 223#0000007FE000008C
(1485365734.794870) can0 0B4#00000000000000BC
(1485365734.795174) can0 224#2000000000000000
(1485365734.795468) can0 3A0#0000000000000014
(1485365734.804060) can0 0B2#00000000000C
(1485365734.804212) can0 0B0#00000000000C
(1485365734.805330) can0 2C4#040400130000A28B
(1485365734.813489) can0 260#0800000000000678
(1485365734.814107) can0 0B2#00000000000D
(1485365734.814249) can0 0B0#00000000000D
(1485365734.814600) can0 0B4#00000000000000BC
(1485365734.815558) can0 2C1#08FF7AFF770000C2
(1485365734.821760) can0 442#4002000003000000
(1485365734.824186) can0 0B2#00000000000E
(1485365734.824320) can0 0B0#00000000000E
(1485365734.824629) can0 223#0000007FE000008C
(1485365734.824881) can0 224#2000000000000000
(1485365734.825360) can0 2C4#040400130000A28B
(1485365734.833521) can0 260#0800020000FFEC5F
(1485365734.834161) can0 0B2#00000000000F
(1485365734.834283) can0 0B0#00000000000F
(1485365734.834644) can0 0B4#00000000000000BC
(1485365734.844120) can0 0B2#000000000000
(1485365734.844247) can0 0B0#000000000000
(1485365734.845344) can0 2C1#08FF74FF770000BC
(1485365734.845521) can0 2C4#040500130000A28C
(1485365734.853899) can0 260#0800020000FFF265
(1485365734.854214) can0 0B2#000000000001
(1485365734.854432) can0 0B0#000000000001
(1485365734.854649) can0 223#0000007FE000008C
(1485365734.854897) can0 0B4#00000000000000BC
(1485365734.855150) can0 224#2000000000000000
(1485365734.855473) can0 3B7#0000000000000000
(1485365734.863985) can0 0B2#000000000002
(1485365734.864193) can0 0B0#000000000002
(1485365734.865770) can0 2C4#040600130000A28D
(1485365734.873947) can0 260#0800000000000072
(1485365734.874073) can0 0B2#000000000003
(1485365734.874335) can0 0B0#000000000003
(1485365734.874643) can0 0B4#00000000000000BC
(1485365734.875324) can0 2C1#08FF70FF6D0000AE
(1485365734.884196) can0 0B2#000000000004
(1485365734.884318) can0 0B0#000000000004
(1485365734.884653) can0 223#0000007FE000008C
(1485365734.884942) can0 224#2000000000000000
(1485365734.885373) can0 2C4#040700130000A28E
(1485365734.894196) can0 0B2#000000000005
(1485365734.894320) can0 0B0#000000000005
(1485365734.894653) can0 260#0800000000000173
(1485365734.894818) can0 0B4#00000000000000BC
(1485365734.895142) can0 3A0#0000000000000014
(1485365734.904124) can0 0B2#000000000006
(1485365734.904248) can0 0B0#000000000006
(1485365734.905347) can0 2C1#08FF67FF6D0000A5
(1485365734.905545) can0 2C4#040800130000A28F
(1485365734.914254) can0 0B2#000000000007
(1485365734.914440) can0 0B0#000000000007
(1485365734.914748) can0 223#0000007FE000008C
(1485365734.914935) can0 0B4#00000000000000BC
(1485365734.915200) can0 224#2000000000000000
(1485365734.915431) can0 260#0800000000FFFC6D
(1485365734.917496) can0 440#4202000007000000
(1485365734.924067) can0 0B2#000000000008
(1485365734.924193) can0 0B0#000000000008
(1485365734.926185) can0 2C4#040C00130000A293
(1485365734.934137) can0 0B2#000000000009
(1485365734.934273) can0 0B0#000000000009
(1485365734.934601) can0 0B4#00000000000000BC
(1485365734.934863) can0 260#0800010000000679
(1485365734.935295) can0 2C1#08FF54FF50000075
(1485365734.944160) can0 0B2#00000000000A
(1485365734.944293) can0 0B0#00000000000A
(1485365734.944597) can0 223#0000007FE000008C
(1485365734.944902) can0 224#2000000000000000
(1485365734.946105) can0 2C4#040E00130000A295
(1485365734.954041) can0 0B2#00000000000B
(1485365734.954252) can0 0B0#00000000000B
(1485365734.954525) can0 0B4#00000000000000BC
(1485365734.954776) can0 260#080001000000087B
(1485365734.963982) can0 0B2#00000000000C
(1485365734.964163) can0 0B0#00000000000C
(1485365734.965332) can0 2C1#08FF4DFF4A000068
(1485365734.965512) can0 2C4#040E00130000A295
(1485365734.972972) can0 620#1000000030600050
(1485365734.974236) can0 0B2#00000000000D
(1485365734.974384) can0 0B0#00000000000D
(1485365734.974738) can0 223#0000007FE000008C
(1485365734.974878) can0 0B4#00000000000000BC
(1485365734.975136) can0 224#2000000000000000
(1485365734.975436) can0 260#0800000000000375
(1485365734.984036) can0 0B2#00000000000E
(1485365734.984178) can0 0B0#00000000000E
(1485365734.985361) can0 2C4#040E00130000A295
(1485365734.985534) can0 4C1#0100500500000000
(1485365734.994115) can0 0B2#00000000000F
(1485365734.994233) can0 0B0#00000000000F
(1485365734.994508) can0 3A0#0000000000000014
(1485365734.994755) can0 0B4#00000000000000BC
(1485365734.995295) can0 2C1#08FF4AFF4A000065
(1485365734.995556) can0 260#0800000000FFF061
(1485365735.004111) can0 0B2#000000000000
(1485365735.004258) can0 0B0#000000000000
(1485365735.004564) can0 223#0000007FE000008C
(1485365735.004851) can0 224#2000000000000000
(1485365735.005356) can0 2C4#040D00130000A294
(1485365735.010270) can0 442#4002000003000000
(1485365735.014121) can0 0B2#000000000001
(1485365735.014218) can0 0B0#000000000001
(1485365735.014560) can0 0B4#00000000000000BC
(1485365735.015693) can0 260#0800000000FFFE6F
(1485365735.024048) can0 0B2#000000000002
(1485365735.024192) can0 0B0#000000000002
(1485365735.025340) can0 2C1#08FF4AFF4A000065
(1485365735.025498) can0 2C4#040D00130000A294
(1485365735.034225) can0 0B2#000000000003
(1485365735.034350) can0 0B0#000000000003
(1485365735.034636) can0 223#0000007FE000008C
(1485365735.034894) can0 0B4#00000000000000BC
(1485365735.035122) can0 224#2000000000000000
(1485365735.035891) can0 260#0800010000000679
(1485365735.040649) can0 394#00
(1485365735.044093) can0 0B2#000000000004
(1485365735.044224) can0 0B0#000000000004
(1485365735.045332) can0 2C4#040C00130000A293
(1485365735.054148) can0 0B2#000000000005
(1485365735.054267) can0 0B0#000000000005
(1485365735.054631) can0 0B4#00000000000000BC
(1485365735.056097) can0 260#0800000000FFF768
(1485365735.056515) can0 2C1#08FF4DFF4A000068
(1485365735.064149) can0 0B2#000000000006
(1485365735.064250) can0 0B0#000000000006
(1485365735.064501) can0 223#0000007FE000008C
(1485365735.064863) can0 224#2000000000000000
(1485365735.065350) can0 2C4#040B00130000A292
(1485365735.074125) can0 0B2#000000000007
(1485365735.074249) can0 0B0#000000000007
(1485365735.074614) can0 0B4#00000000000000BC
(1485365735.076300) can0 260#0800010000FFF264
(1485365735.084071) can0 0B2#000000000008
(1485365735.084192) can0 0B0#000000000008
(1485365735.085331) can0 2C1#08FF57FF4D000075
(1485365735.085499) can0 2C4#040900130000A290
(1485365735.094212) can0 0B2#000000000009
(1485365735.094349) can0 0B0#000000000009
(1485365735.094636) can0 223#0000007FE000008C
(1485365735.094862) can0 0B4#00000000000000BC
(1485365735.095133) can0 224#2000000000000000
(1485365735.095378) can0 3A0#0000000000000014
(1485365735.096565) can0 260#0800010000000A7D
(1485365735.104063) can0 0B2#00000000000A
(1485365735.104194) can0 0B0#00000000000A
(1485365735.105344) can0 2C4#040700130000A28E
(1485365735.107296) can0 440#4202000007000000
(1485365735.114125) can0 0B2#00000000000B
(1485365735.114246) can0 0B0#00000000000B
(1485365735.114606) can0 0B4#00000000000000BC
(1485365735.115342) can0 2C1#08FF6AFF6000009B
(1485365735.116772) can0 260#080001000000087B
(1485365735.119149) can0 38A#0804000000
(1485365735.122843) can0 3B1#0000022A00000000
(1485365735.124147) can0 0B2#00000000000C
(1485365735.124271) can0 0B0#00000000000C
(1485365735.124588) can0 223#0000007FE000008C
(1485365735.124874) can0 224#2000000000000000
(1485365735.125769) can0 2C4#040500130000A28C
(1485365735.134143) can0 0B2#00000000000D
(1485365735.134274) can0 0B0#00000000000D
(1485365735.134638) can0 0B4#00000000000000BC
(1485365735.136926) can0 260#0800010000000578
(1485365735.144097) can0 0B2#00000000000E
(1485365735.144194) can0 0B0#00000000000E
(1485365735.145347) can0 2C1#08FF70FF670000A8
(1485365735.145501) can0 2C4#040300130000A28A
(1485365735.150995) can0 610#2000006400000000
(1485365735.154243) can0 0B2#00000000000F
(1485365735.154373) can0 0B0#00000000000F
(1485365735.154643) can0 223#0000007FE000008C
(1485365735.154898) can0 0B4#00000000000000BC
(1485365735.155151) can0 224#2000000000000000
(1485365735.155444) can0 3B7#0000000000000000
(1485365735.157172) can0 260#0800010000000477
(1485365735.164072) can0 0B2#000000000000
(1485365735.164212) can0 0B0#000000000000
(1485365735.165305) can0 2C4#040200130000A289
(1485365735.174141) can0 0B2#000000000001
(1485365735.174275) can0 0B0#000000000001
(1485365735.174626) can0 0B4#00000000000000BC
(1485365735.175331) can0 2C1#08FF7AFF740000BF
(1485365735.177340) can0 260#0800010000000477
(1485365735.184142) can0 0B2#000000000002
(1485365735.184275) can0 0B0#000000000002
(1485365735.184577) can0 223#0000007FE000008C
(1485365735.184886) can0 224#2000000000000000
(1485365735.185334) can0 2C4#040100130000A288
(1485365735.188369) can0 4ED#5C00000000000000
(1485365735.194167) can0 0B2#000000000003
(1485365735.194300) can0 0B0#000000000003
(1485365735.194601) can0 3A0#0000000000000014
(1485365735.194829) can0 0B4#00000000000000BC
(1485365735.197513) can0 260#0800010000FFF264
(1485365735.200766) can0 442#4002000003000000
(1485365735.204059) can0 0B2#000000000004
(1485365735.204212) can0 0B0#000000000004
(1485365735.206438) can0 2C1#08FF77FF770000BF
(1485365735.206600) can0 2C4#040300130000A28A
(1485365735.214213) can0 0B2#000000000005
(1485365735.214371) can0 0B0#000000000005
(1485365735.214636) can0 223#0000007FE000008C
(1485365735.214879) can0 0B4#00000000000000BC
(1485365735.215128) can0 224#2000000000000000
(1485365735.217791) can0 260#0800010000000679
(1485365735.224032) can0 0B2#000000000006
(1485365735.224167) can0 0B0#000000000006
(1485365735.224479) can0 4DC#1D00010900000000
(1485365735.225342) can0 2C4#040400130000A28B
(1485365735.234099) can0 0B2#000000000007
(1485365735.234220) can0 0B0#000000000007
(1485365735.234560) can0 0B4#00000000000000BC
(1485365735.235340) can0 2C1#08FF74FF700000B5
(1485365735.237977) can0 260#0800000000000274
(1485365735.244123) can0 0B2#000000000008
(1485365735.244251) can0 0B0#000000000008
(1485365735.244562) can0 223#0000007FE000008C
(1485365735.244875) can0 224#2000000000000000
(1485365735.245305) can0 2C4#040400130000A28B
(1485365735.254123) can0 0B2#000000000009
(1485365735.254249) can0 0B0#000000000009
(1485365735.254625) can0 0B4#00000000000000BC
(1485365735.258146) can0 260#0800000000FFF96A
(1485365735.264099) can0 0B2#00000000000A
(1485365735.264224) can0 0B0#00000000000A
(1485365735.264481) can0 3B0#0000003200
(1485365735.265274) can0 2C1#08FF74FF700000B5
(1485365735.265525) can0 2C4#040400130000A28B
(1485365735.265719) can0 3B3#040400
(1485365735.272677) can0 620#1000000030600050
(1485365735.274298) can0 0B2#00000000000B
(1485365735.274440) can0 0B0#00000000000B
(1485365735.274750) can0 223#0000007FE000008C
(1485365735.274965) can0 0B4#00000000000000BC
(1485365735.275223) can0 224#2000000000000000
(1485365735.278402) can0 260#0800000000000072
(1485365735.284103) can0 0B2#00000000000C
(1485365735.284219) can0 0B0#00000000000C
(1485365735.285349) can0 2C4#040400130000A28B
(1485365735.294177) can0 0B2#00000000000D
(1485365735.294299) can0 0B0#00000000000D
(1485365735.294613) can0 3A0#0000000000000014
(1485365735.294829) can0 0B4#00000000000000BC
(1485365735.295270) can0 2C1#08FF74FF700000B5
(1485365735.297055) can0 440#4202000007000000
(1485365735.298595) can0 260#080001000000087B
(1485365735.304177) can0 0B2#00000000000E
(1485365735.304299) can0 0B0#00000000000E
(1485365735.304613) can0 223#0000007FE000008C
(1485365735.304893) can0 224#2000000000000000
(1485365735.305174) can0 4C3#0400300500000000
(1485365735.305426) can0 2C4#040400130000A28B
(1485365735.314176) can0 0B2#00000000000F
(1485365735.314301) can0 0B0#00000000000F
(1485365735.314647) can0 0B4#00000000000000BC
(1485365735.318775) can0 260#0800010000FFF96B
(1485365735.320699) can0 3B4#00003AB801000000
(1485365735.324024) can0 0B2#000000000000
(1485365735.324197) can0 0B0#000000000000
(1485365735.324490) can0 380#00A0043000000300
(1485365735.325335) can0 2C1#08FF77FF700000B8
(1485365735.325476) can0 2C4#040300130000A28A
(1485365735.334214) can0 0B2#000000000001
(1485365735.334348) can0 0B0#000000000001
(1485365735.334626) can0 223#0000007FE000008C
(1485365735.334885) can0 0B4#00000000000000BC
(1485365735.335125) can0 224#2000000000000000
(1485365735.339017) can0 260#0800000000FFFB6C
(1485365735.343767) can0 394#00
(1485365735.344027) can0 0B2#000000000002
(1485365735.344276) can0 0B0#000000000002
(1485365735.345312) can0 2C4#040400130000A28B
(1485365735.354074) can0 0B2#000000000003
(1485365735.354277) can0 0B0#000000000003
(1485365735.354579) can0 0B4#00000000000000BC
(1485365735.355807) can0 2C1#08FF6DFF740000B2
(1485365735.359192) can0 260#0800000000FFEE5F
(1485365735.364168) can0 0B2#000000000004
(1485365735.364302) can0 0B0#000000000004
(1485365735.364595) can0 223#0000007FE000008C
(1485365735.364864) can0 224#2000000000000000
(1485365735.365298) can0 2C4#040600130000A28D
(1485365735.374142) can0 0B2#000000000005
(1485365735.374277) can0 0B0#000000000005
(1485365735.374628) can0 0B4#00000000000000BC
(1485365735.379367) can0 260#0800010000000376
(1485365735.384018) can0 0B2#000000000006
(1485365735.384152) can0 0B0#000000000006
(1485365735.385341) can0 2C1#08FF6AFF6A0000A5
(1485365735.385505) can0 2C4#040700130000A28E
(1485365735.390489) can0 442#4002000003000000
(1485365735.394167) can0 0B2#000000000007
(1485365735.394302) can0 0B0#000000000007
(1485365735.394602) can0 223#0000007FE000008C
(1485365735.394817) can0 0B4#00000000000000BC
(1485365735.395108) can0 224#2000000000000000
(1485365735.395333) can0 3A0#0000000000000014
(1485365735.399614) can0 260#0800010000000376
(1485365735.404091) can0 0B2#000000000008
(1485365735.404227) can0 0B0#000000000008
(1485365735.405315) can0 2C4#040600130000A28D
(1485365735.414143) can0 0B2#000000000009
(1485365735.414277) can0 0B0#000000000009
(1485365735.414630) can0 0B4#00000000000000BC
(1485365735.415307) can0 2C1#08FF70FF6A0000AB
(1485365735.419814) can0 260#0800000000FFF869
(1485365735.424166) can0 0B2#00000000000A
(1485365735.424300) can0 0B0#00000000000A
(1485365735.424570) can0 223#0000007FE000008C
(1485365735.424875) can0 224#2000000000000000
(1485365735.425596) can0 2C4#040500130000A28C
(1485365735.434165) can0 0B2#00000000000B
(1485365735.434301) can0 0B0#00000000000B
(1485365735.434636) can0 0B4#00000000000000BC
(1485365735.434854) can0 4C8#0900010700000000
(1485365735.439967) can0 260#0800010000000679
(1485365735.444040) can0 0B2#00000000000C
(1485365735.444169) can0 0B0#00000000000C
(1485365735.445314) can0 2C1#08FF74FF6D0000B2
(1485365735.445480) can0 2C4#040500130000A28C
(1485365735.454191) can0 0B2#00000000000D
(1485365735.454323) can0 0B0#00000000000D
(1485365735.454628) can0 223#0000007FE000008C
(1485365735.454859) can0 0B4#00000000000000BC
(1485365735.455139) can0 224#2000000000000000
(1485365735.455394) can0 3B7#0000000000000000
(1485365735.460217) can0 260#0800000000FFFA6B
(1485365735.464015) can0 0B2#00000000000E
(1485365735.464156) can0 0B0#00000000000E
(1485365735.465323) can0 2C4#040300130000A28A
(1485365735.474103) can0 0B2#00000000000F
(1485365735.474226) can0 0B0#00000000000F
(1485365735.474563) can0 0B4#00000000000000BC
(1485365735.475315) can0 2C1#08FF87FF840000DC
(1485365735.480378) can0 260#080001000000077A
(1485365735.484099) can0 0B2#000000000000
(1485365735.484225) can0 0B0#000000000000
(1485365735.484538) can0 223#0000007FE000008C
(1485365735.484827) can0 224#2000000000000000
(1485365735.486124) can0 2C4#040000130000A287
(1485365735.486771) can0 440#4202000007000000
(1485365735.494103) can0 0B2#000000000001
(1485365735.494223) can0 0B0#000000000001
(1485365735.494524) can0 3A0#0000000000000014
(1485365735.494748) can0 0B4#00000000000000BC
(1485365735.500503) can0 260#0800010000000A7D
(1485365735.503994) can0 0B2#000000000002
(1485365735.504148) can0 0B0#000000000002
(1485365735.505375) can0 2C1#08FF8AFF870000E2
(1485365735.505524) can0 2C4#040000130000A287
(1485365735.514178) can0 0B2#000000000003
(1485365735.514300) can0 0B0#000000000003
(1485365735.514614) can0 223#0000007FE000008C
(1485365735.514828) can0 0B4#00000000000000BC
(1485365735.515103) can0 224#2000000000000000
(1485365735.520699) can0 260#0800010000FFFE70
(1485365735.524024) can0 0B2#000000000004
(1485365735.524152) can0 0B0#000000000004
(1485365735.525315) can0 2C4#040000130000A287
(1485365735.534067) can0 0B2#000000000005
(1485365735.534200) can0 0B0#000000000005
(1485365735.534548) can0 0B4#00000000000000BC
(1485365735.535308) can0 2C1#08FF8DFF8A0000E8
(1485365735.536895) can0 621#1100000000000000
(1485365735.540891) can0 260#0800000000000274
(1485365735.544114) can0 0B2#000000000006
(1485365735.544251) can0 0B0#000000000006
(1485365735.544546) can0 223#0000007FE000008C
(1485365735.544832) can0 224#2000000000000000
(1485365735.545296) can0 2C4#040000130000A287
(1485365735.546890) can0 622#1200000000000000
(1485365735.554029) can0 0B2#000000000007
(1485365735.554252) can0 0B0#000000000007
(1485365735.554543) can0 0B4#00000000000000BC
(1485365735.555310) can0 624#1A0057FFFF400000
(1485365735.560863) can0 260#0800010000FFFF71
(1485365735.564060) can0 0B2#000000000008
(1485365735.564192) can0 0B0#000000000008
(1485365735.564588) can0 630#1700000000000000
(1485365735.565311) can0 2C1#08FF90FF8A0000EB
(1485365735.565465) can0 2C4#040000130000A287
(1485365735.573801) can0 638#1300110000000000
(1485365735.574197) can0 0B2#000000000009
(1485365735.574338) can0 0B0#000000000009
(1485365735.574636) can0 223#0000007FE000008C
(1485365735.574879) can0 0B4#00000000000000BC
(1485365735.575133) can0 224#2000000000000000
(1485365735.580768) can0 442#4002000003000000
(1485365735.581253) can0 260#0800010000FFF466
(1485365735.582966) can0 620#1000000030600050
(1485365735.584089) can0 0B2#00000000000A
(1485365735.584225) can0 0B0#00000000000A
(1485365735.585315) can0 2C4#040000130000A287
(1485365735.594094) can0 0B2#00000000000B
(1485365735.594229) can0 0B0#00000000000B
(1485365735.594543) can0 3A0#0000000000000014
(1485365735.594737) can0 0B4#00000000000000BC
(1485365735.595296) can0 2C1#08FF94FF900000F5
(1485365735.601294) can0 260#0800010000000477
(1485365735.604115) can0 0B2#00000000000C
(1485365735.604246) can0 0B0#00000000000C
(1485365735.604549) can0 223#0000007FE000008C
(1485365735.604859) can0 224#2000000000000000
(1485365735.605304) can0 2C4#040000130000A287
(1485365735.614118) can0 0B2#00000000000D
(1485365735.614253) can0 0B0#00000000000D
(1485365735.614578) can0 0B4#00000000000000BC
(1485365735.621688) can0 260#0800010000FFF96B
(1485365735.624015) can0 0B2#00000000000E
(1485365735.624170) can0 0B0#00000000000E
(1485365735.625309) can0 2C1#08FF90FF900000F1
(1485365735.625494) can0 2C4#040100130000A288
(1485365735.634189) can0 0B2#00000000000F
(1485365735.634357) can0 0B0#00000000000F
(1485365735.634628) can0 223#0000007FE000008C
(1485365735.634899) can0 0B4#00000000000000BC
(1485365735.635085) can0 224#2000000000000000
(1485365735.641726) can0 260#0800010000FFFE70
(1485365735.644037) can0 0B2#000000000000
(1485365735.644182) can0 0B0#000000000000
(1485365735.645325) can0 2C4#040300130000A28A
(1485365735.646822) can0 394#00
(1485365735.651700) can0 610#2000006400000000
(1485365735.654100) can0 0B2#000000000001
(1485365735.654225) can0 0B0#000000000001
(1485365735.654561) can0 0B4#00000000000000BC
(1485365735.655317) can0 2C1#08FF74FF840000C9
(1485365735.662104) can0 260#0800010000000376
(1485365735.662924) can0 4DD#1E00000500000000
(1485365735.664151) can0 0B2#000000000002
(1485365735.664277) can0 0B0#000000000002
(1485365735.664589) can0 223#0000007FE000008C
(1485365735.664881) can0 224#2000000000000000
(1485365735.665307) can0 2C4#040800130000A28F
(1485365735.674128) can0 0B2#000000000003
(1485365735.674252) can0 0B0#000000000003
(1485365735.674614) can0 0B4#00000000000000BC
(1485365735.676523) can0 440#4202000007000000
(1485365735.682127) can0 260#0800000000FFFC6D
(1485365735.684047) can0 0B2#000000000004
(1485365735.684179) can0 0B0#000000000004
(1485365735.685566) can0 2C1#08FF6DFF700000AE
(1485365735.685712) can0 2C4#040A00130000A291
(1485365735.690815) can0 611#2100201200021DB5
(1485365735.694194) can0 0B2#000000000005
(1485365735.694324) can0 0B0#000000000005
(1485365735.694628) can0 223#0000007FE000008C
(1485365735.694898) can0 0B4#00000000000000BC
(1485365735.695065) can0 224#2000000000000000
(1485365735.695385) can0 3A0#0000000000000014
(1485365735.702518) can0 260#0800010000000174
(1485365735.702691) can0 640#A8000032020E0000
(1485365735.704040) can0 0B2#000000000006
(1485365735.704195) can0 0B0#000000000006
(1485365735.705325) can0 2C4#040900130000A290
(1485365735.714128) can0 0B2#000000000007
(1485365735.714251) can0 0B0#000000000007
(1485365735.714613) can0 0B4#00000000000000BC
(1485365735.715291) can0 2C1#08FF70FF6A0000AB
(1485365735.722549) can0 260#080001000000077A
(1485365735.724153) can0 0B2#000000000008
(1485365735.724277) can0 0B0#000000000008
(1485365735.724592) can0 223#0000007FE000008C
(1485365735.724896) can0 224#2000000000000000
(1485365735.725310) can0 2C4#040800130000A28F
(1485365735.734123) can0 0B2#000000000009
(1485365735.734252) can0 0B0#000000000009
(1485365735.734616) can0 0B4#00000000000000BC
(1485365735.742923) can0 260#0800010000FFFF71
(1485365735.744026) can0 0B2#00000000000A
(1485365735.744155) can0 0B0#00000000000A
(1485365735.745340) can0 2C1#08FF70FF6D0000AE
(1485365735.745493) can0 2C4#040800130000A28F
(1485365735.754173) can0 0B2#00000000000B
(1485365735.754303) can0 0B0#00000000000B
(1485365735.754605) can0 223#0000007FE000008C
(1485365735.754818) can0 0B4#00000000000000BC
(1485365735.755093) can0 224#0000000000000000
(1485365735.755385) can0 3B7#0000000000000000
(1485365735.763116) can0 260#0800000000FFF162
(1485365735.764015) can0 0B2#00000000000C
(1485365735.764154) can0 0B0#00000000000C
(1485365735.766476) can0 2C4#040500130000A28C
(1485365735.766549) can0 3B3#040500
(1485365735.771779) can0 442#4002000003000000
(1485365735.774103) can0 0B2#00000000000D
(1485365735.774225) can0 0B0#00000000000D
(1485365735.774560) can0 0B4#00000000000000BC
(1485365735.775293) can0 2C1#08FF7DFF7A0000C8
(1485365735.783350) can0 260#0800000000FFFE6F
(1485365735.784150) can0 0B2#00000000000E
(1485365735.784274) can0 0B0#00000000000E
(1485365735.784565) can0 223#0000007FE000008C
(1485365735.784877) can0 224#0000000000000000
(1485365735.785311) can0 2C4#040500130000A28C
(1485365735.794153) can0 0B2#00000000000F
(1485365735.794278) can0 0B0#00000000000F
(1485365735.794586) can0 3A0#0000000000000014
(1485365735.794807) can0 0B4#00000000000000BC
(1485365735.803529) can0 260#0800000000FFF364
(1485365735.804039) can0 0B2#000000000000
(1485365735.804217) can0 0B0#000000000000
(1485365735.805291) can0 2C1#08FF7DFF7D0000CB
(1485365735.805477) can0 2C4#040500130000A28C
(1485365735.814219) can0 0B2#000000000001
(1485365735.814353) can0 0B0#000000000001
(1485365735.814668) can0 223#0000007FE000008C
(1485365735.814840) can0 0B4#00000000000000BC
(1485365735.815138) can0 224#0000000000000000
(1485365735.819119) can0 3B4#00003AB800000000
(1485365735.823770) can0 260#0800000000000072
(1485365735.824030) can0 0B2#000000000002
(1485365735.824231) can0 0B0#000000000002
(1485365735.825340) can0 2C4#040600130000A28D
(1485365735.834120) can0 0B2#000000000003
(1485365735.834251) can0 0B0#000000000003
(1485365735.834605) can0 0B4#00000000000000BC
(1485365735.835743) can0 2C1#08FF7AFF770000C2
(1485365735.843768) can0 260#0800000000000577
(1485365735.844078) can0 0B2#000000000004
(1485365735.844244) can0 0B0#000000000004
(1485365735.844537) can0 223#0000007FE000008C
(1485365735.844860) can0 224#0000000000000000
(1485365735.845300) can0 2C4#040700130000A28E
(1485365735.854122) can0 0B2#000000000005
(1485365735.854254) can0 0B0#000000000005
(1485365735.854599) can0 0B4#00000000000000BC
(1485365735.864067) can0 0B2#000000000006
(1485365735.864194) can0 0B0#000000000006
(1485365735.864486) can0 260#0800000000000577
(1485365735.865320) can0 2C1#08FF70FF770000B8
(1485365735.865460) can0 2C4#040800130000A28F
(1485365735.871779) can0 440#4202000007000000
(1485365735.871878) can0 620#1000000030600050
(1485365735.874278) can0 0B2#000000000007
(1485365735.874403) can0 0B0#000000000007
(1485365735.874754) can0 223#0000007FE000008C
(1485365735.874871) can0 0B4#00000000000000BC
(1485365735.875185) can0 224#0000000000000000
(1485365735.884052) can0 0B2#000000000008
(1485365735.884194) can0 0B0#000000000008
(1485365735.884486) can0 260#0800000000000173
(1485365735.885324) can0 2C4#040C00130000A293
(1485365735.894130) can0 0B2#000000000009
(1485365735.894252) can0 0B0#000000000009
(1485365735.894557) can0 3A0#0000000000000014
(1485365735.894827) can0 0B4#00000000000000BC
(1485365735.896151) can0 2C1#08FF5AFF6000008B
(1485365735.896350) can0 4C1#0100500500000000
(1485365735.904076) can0 0B2#00000000000A
(1485365735.904218) can0 0B0#00000000000A
(1485365735.904521) can0 223#0000007FE000008C
(1485365735.904739) can0 260#0800000000000274
(1485365735.905013) can0 224#0000000000000000
(1485365735.905271) can0 2C4#040D00130000A294
(1485365735.914077) can0 0B2#00000000000B
(1485365735.914202) can0 0B0#00000000000B
(1485365735.914560) can0 0B4#00000000000000BC
(1485365735.924075) can0 0B2#00000000000C
(1485365735.924192) can0 0B0#00000000000C
(1485365735.924581) can0 260#0800010000000679
(1485365735.925322) can0 2C1#08FF5DFF57000085
(1485365735.925509) can0 2C4#040C00130000A293
(1485365735.934230) can0 0B2#00000000000D
(1485365735.934360) can0 0B0#00000000000D
(1485365735.934647) can0 223#0000007FE000008C
(1485365735.934876) can0 0B4#00000000000000BC
(1485365735.935145) can0 224#0000000000000000
(1485365735.944073) can0 0B2#00000000000E
(1485365735.944206) can0 0B0#00000000000E
(1485365735.944987) can0 260#0800000000000577
(1485365735.945495) can0 2C4#040C00130000A293
(1485365735.949905) can0 394#00
(1485365735.954130) can0 0B2#00000000000F
(1485365735.954253) can0 0B0#00000000000F
(1485365735.954617) can0 0B4#00000000000000BC
(1485365735.955318) can0 2C1#08FF60FF5A00008B
(1485365735.964104) can0 0B2#000000000000
(1485365735.964228) can0 0B0#000000000000
(1485365735.964541) can0 223#0000007FE000008C
(1485365735.964830) can0 224#0000000000000000
(1485365735.965259) can0 260#080000000000087A
(1485365735.965492) can0 2C4#040B00130000A292
(1485365735.971777) can0 442#4002000003000000
(1485365735.974101) can0 0B2#000000000001
(1485365735.974219) can0 0B0#000000000001
(1485365735.974558) can0 0B4#00000000000000BC
(1485365735.983920) can0 0B2#000000000002
(1485365735.984149) can0 0B0#000000000002
(1485365735.985244) can0 2C1#08FF60FF5D00008E
(1485365735.985480) can0 260#0800000000000577
(1485365735.985702) can0 2C4#040A00130000A291
(1485365735.994152) can0 0B2#000000000003
(1485365735.994278) can0 0B0#000000000003
(1485365735.994565) can0 223#0000007FE000008C
(1485365735.994853) can0 0B4#00000000000000BC
(1485365735.995070) can0 224#0000000000000000
(1485365735.995358) can0 3A0#0000000000000014
(1485365736.003999) can0 0B2#000000000004
(1485365736.004128) can0 0B0#000000000004
(1485365736.005255) can0 2C4#040900130000A290
(1485365736.005613) can0 260#0800000000000A7C
(1485365736.013998) can0 0B2#000000000005
(1485365736.014221) can0 0B0#000000000005
(1485365736.014522) can0 0B4#00000000000000BC
(1485365736.015222) can0 2C1#08FF6AFF670000A2
(1485365736.023999) can0 0B2#000000000006
(1485365736.024198) can0 0B0#000000000006
(1485365736.024448) can0 223#0000007FE000008C
(1485365736.024749) can0 224#0000000000000000
(1485365736.025875) can0 260#0800000000000577
(1485365736.026424) can0 2C4#040800130000A28F
(1485365736.034000) can0 0B2#000000000007
(1485365736.034199) can0 0B0#000000000007
(1485365736.034499) can0 0B4#00000000000000BC
(1485365736.043925) can0 0B2#000000000008
(1485365736.044126) can0 0B0#000000000008
(1485365736.045199) can0 2C1#08FF74FF6D0000B2
(1485365736.045422) can0 2C4#040600130000A28D
(1485365736.046049) can0 260#0800010000FFFC6E
(1485365736.054075) can0 0B2#000000000009
(1485365736.054274) can0 0B0#000000000009
(1485365736.054525) can0 223#0000007FE000008C
(1485365736.054775) can0 0B4#00000000000000BC
(1485365736.055024) can0 224#0000000000000000
(1485365736.055347) can0 3B7#0000000000000000
(1485365736.063946) can0 0B2#00000000000A
(1485365736.064150) can0 0B0#00000000000A
(1485365736.065221) can0 2C4#040700130000A28E
(1485365736.066273) can0 260#0800000000FFFB6C
(1485365736.071416) can0 440#4202000007000000
