(1485365641.156955) can0 440#4000800000000000
(1485365641.177230) can0 442#4200800003000000
(1485365641.232176) can0 4DC#1D00010900000000
(1485365641.243677) can0 4ED#5C00000000000000
(1485365641.256881) can0 440#4001800007000000
(1485365641.259303) can0 4C1#0100500500000000
(1485365641.260954) can0 0B2#000000008801
(1485365641.261089) can0 0B0#000000008801
(1485365641.261434) can0 0B4#00000000020000BE
(1485365641.261920) can0 620#1080000030600050
(1485365641.269181) can0 3B3#000000
(1485365641.270952) can0 0B2#000000008802
(1485365641.271088) can0 0B0#000000008802
(1485365641.272176) can0 3B0#0000000000
(1485365641.277400) can0 442#4201800003000000
(1485365641.280979) can0 0B2#000000008803
(1485365641.281088) can0 0B0#000000008803
(1485365641.281446) can0 0B4#00000000020000BE
(1485365641.290977) can0 0B2#000000008804
(1485365641.291106) can0 0B0#000000008804
(1485365641.291384) can0 223#0008007FE0000094
(1485365641.291691) can0 3B7#5800000000000000
(1485365641.301056) can0 0B2#000000008805
(1485365641.301182) can0 0B0#000000008805
(1485365641.301534) can0 0B4#00000000020000BE
(1485365641.302203) can0 3A0#0000000000000013
(1485365641.309277) can0 2C1#08FD0A07CC0000AD
(1485365641.311025) can0 0B2#000000008806
(1485365641.311254) can0 0B0#000000008806
(1485365641.321078) can0 0B2#000000008807
(1485365641.321208) can0 0B0#000000008807
(1485365641.321503) can0 223#0008007FE0000094
(1485365641.321759) can0 0B4#00000000020000BE
(1485365641.321997) can0 224#0000000000000000
(1485365641.322534) can0 38A#0C04000000
(1485365641.322826) can0 3B4#000033B800000418
(1485365641.329321) can0 2C4#000000130000A283
(1485365641.331125) can0 0B2#000000008808
(1485365641.331253) can0 0B0#000000008808
(1485365641.332257) can0 380#0000000000008000
(1485365641.339253) can0 2C1#08FD0A07C60000A7
(1485365641.341254) can0 0B2#000000008809
(1485365641.341387) can0 0B0#000000008809
(1485365641.341757) can0 0B4#00000000020000BE
(1485365641.349353) can0 2C4#000000130000A283
(1485365641.351101) can0 0B2#00000000880A
(1485365641.351241) can0 0B0#00000000880A
(1485365641.351534) can0 223#0008007FE0000094
(1485365641.351824) can0 224#0000000000000000
(1485365641.352105) can0 440#4202000007000000
(1485365641.360983) can0 0B2#00000000880B
(1485365641.361113) can0 0B0#00000000880B
(1485365641.361449) can0 0B4#00000000020000BE
(1485365641.366125) can0 260#0E00000000000078
(1485365641.369404) can0 2C1#08FD0A07C60000A7
(1485365641.369588) can0 2C4#000000130000A283
(1485365641.371101) can0 0B2#00000000880C
(1485365641.371236) can0 0B0#00000000880C
(1485365641.376083) can0 394#43
(1485365641.381059) can0 0B2#00000000880D
(1485365641.381186) can0 0B0#00000000880D
(1485365641.381497) can0 223#0008007FE0000094
(1485365641.381666) can0 0B4#00000000020000BE
(1485365641.381949) can0 224#0000000000000000
(1485365641.382190) can0 4C8#0900010700000000
(1485365641.382449) can0 4C3#0400300500000000
(1485365641.386383) can0 260#0E00000000000078
(1485365641.389307) can0 2C4#000000130000A283
(1485365641.391080) can0 0B2#00000000880E
(1485365641.391219) can0 0B0#00000000880E
(1485365641.399308) can0 2C1#08FD0A07C60000A7
(1485365641.401104) can0 0B2#00000000880F
(1485365641.401236) can0 0B0#00000000880F
(1485365641.401573) can0 0B4#00000000020000BE
(1485365641.402198) can0 3A0#0000000000000013
(1485365641.406540) can0 260#0E00000000000078
(1485365641.409304) can0 2C4#000000130000A283
(1485365641.411019) can0 0B2#000000008800
(1485365641.411230) can0 0B0#000000008800
(1485365641.411517) can0 223#0008007FE0000094
(1485365641.411805) can0 224#0000000000000000
(1485365641.421055) can0 0B2#000000008801
(1485365641.421201) can0 0B0#000000008801
(1485365641.421538) can0 0B4#00000000020000BE
(1485365641.422451) can0 3B4#010033B800000418
(1485365641.426751) can0 260#0E00000000000078
(1485365641.429271) can0 2C1#08FD0A07C60000A7
(1485365641.429449) can0 2C4#000000130000A283
(1485365641.431147) can0 0B2#000000008802
(1485365641.431301) can0 0B0#000000008802
(1485365641.441058) can0 0B2#000000008803
(1485365641.441199) can0 0B0#000000008803
(1485365641.441488) can0 223#0008007FE0000094
(1485365641.441754) can0 0B4#00000000020000BE
(1485365641.441940) can0 224#0000000000000000
(1485365641.446979) can0 260#0E00000000000078
(1485365641.449280) can0 2C4#000000130000A283
(1485365641.450479) can0 442#4002000003000000
(1485365641.451060) can0 0B2#000000008804
(1485365641.451286) can0 0B0#000000008804
(1485365641.459216) can0 2C1#08FD0D07C60000AA
(1485365641.460980) can0 0B2#000000000005
(1485365641.461127) can0 0B0#000000000005
(1485365641.461453) can0 0B4#00000000020000BE
(1485365641.467118) can0 260#0E00000000000078
(1485365641.469245) can0 2C4#000000130000A283
(1485365641.470987) can0 0B2#000000000006
(1485365641.471158) can0 0B0#000000000006
(1485365641.471439) can0 223#0000007FE000008C
(1485365641.471743) can0 224#0000000000000000
(1485365641.480957) can0 0B2#000000000007
(1485365641.481049) can0 0B0#000000000007
(1485365641.481367) can0 0B4#00000000020000BE
(1485365641.484712) can0 4DD#1E00000500000000
(1485365641.487328) can0 260#0E00000000000078
(1485365641.489261) can0 2C1#08FD0D07C60000AA
(1485365641.489442) can0 2C4#000000130000A283
(1485365641.490955) can0 0B2#000000000008
(1485365641.491095) can0 0B0#000000000008
(1485365641.500959) can0 0B2#000000000009
(1485365641.501101) can0 0B0#000000000009
(1485365641.501393) can0 223#0000007FE000008C
(1485365641.501604) can0 0B4#00000000020000BE
(1485365641.501941) can0 224#0000000000000000
(1485365641.502165) can0 3A0#0000000000000013
(1485365641.507528) can0 260#0E00000000000078
(1485365641.509284) can0 2C4#000000130000A283
(1485365641.511003) can0 0B2#00000000000A
(1485365641.511138) can0 0B0#00000000000A
(1485365641.519255) can0 2C1#08FD0D07C60000AA
(1485365641.520882) can0 0B2#00000000000B
(1485365641.521040) can0 0B0#00000000000B
(1485365641.521366) can0 0B4#00000000020000BE
(1485365641.527675) can0 260#0E00000000000078
(1485365641.529228) can0 2C4#000000130000A283
(1485365641.530949) can0 0B2#00000000000C
(1485365641.531171) can0 0B0#00000000000C
(1485365641.531418) can0 223#0000007FE000008C
(1485365641.531719) can0 224#0000000000000000
(1485365641.540899) can0 0B2#00000000000D
(1485365641.541073) can0 0B0#00000000000D
(1485365641.541372) can0 0B4#00000000020000BE
(1485365641.546450) can0 440#4202000007000000
(1485365641.547898) can0 260#0E00000000000078
(1485365641.549200) can0 2C1#08FD0D07C60000AA
(1485365641.549449) can0 2C4#000000130000A283
(1485365641.550899) can0 0B2#00000000000E
(1485365641.551097) can0 0B0#00000000000E
(1485365641.560775) can0 0B2#00000000000F
(1485365641.560972) can0 0B0#00000000000F
(1485365641.561223) can0 223#0000007FE000008C
(1485365641.561472) can0 0B4#00000000020000BE
(1485365641.561696) can0 224#0000000000000000
(1485365641.561972) can0 620#1000000030600050
(1485365641.562198) can0 3B7#5800000000000000
(1485365641.568073) can0 260#0E00000000000078
(1485365641.569224) can0 2C4#000000130000A283
(1485365641.570948) can0 0B2#000000000000
(1485365641.571146) can0 0B0#000000000000
(1485365641.579200) can0 2C1#08FD0D07C60000AA
(1485365641.581074) can0 0B2#000000000001
(1485365641.581274) can0 0B0#000000000001
(1485365641.581573) can0 0B4#00000000020000BE
(1485365641.584700) can0 3B1#0000062A00000000
(1485365641.588299) can0 260#0E00000000000078
(1485365641.589273) can0 2C4#000000130000A283
(1485365641.591073) can0 0B2#000000000002
(1485365641.591296) can0 0B0#000000000002
(1485365641.591544) can0 223#0000007FE000008C
(1485365641.591898) can0 224#0000000000000000
(1485365641.600999) can0 0B2#000000000003
(1485365641.601223) can0 0B0#000000000003
(1485365641.601498) can0 0B4#00000000020000BE
(1485365641.602146) can0 3A0#0000000000000013
(1485365641.608498) can0 260#0E00000000000078
(1485365641.609175) can0 2C1#08FD0D07C60000AA
(1485365641.609424) can0 2C4#000000130000A283
(1485365641.611072) can0 0B2#000000000004
(1485365641.611296) can0 0B0#000000000004
(1485365641.621019) can0 0B2#000000000005
(1485365641.621221) can0 0B0#000000000005
(1485365641.621497) can0 223#0000007FE000008C
(1485365641.621747) can0 0B4#00000000020000BE
(1485365641.621999) can0 224#0000000000000000
(1485365641.628677) can0 260#0E00000000000078
(1485365641.629223) can0 2C4#000000130000A283
(1485365641.631073) can0 0B2#000000000006
(1485365641.631275) can0 0B0#000000000006
(1485365641.639225) can0 2C1#08FD0D07C60000AA
(1485365641.640899) can0 442#4002000003000000
(1485365641.641060) can0 0B2#000000000007
(1485365641.641274) can0 0B0#000000000007
(1485365641.641574) can0 0B4#00000000020000BE
(1485365641.648901) can0 260#0E00000000000078
(1485365641.649249) can0 2C4#000000130000A283
(1485365641.650975) can0 0B2#000000000008
(1485365641.651172) can0 0B0#000000000008
(1485365641.651447) can0 223#0000007FE000008C
(1485365641.651748) can0 224#0000000000000000
(1485365641.656526) can0 621#1100000000000000
(1485365641.661022) can0 0B2#000000000009
(1485365641.661249) can0 0B0#000000000009
(1485365641.661547) can0 0B4#00000000020000BE
(1485365641.665401) can0 622#1200000000000000
(1485365641.669125) can0 260#0E00000000000078
(1485365641.669349) can0 2C1#08FD0D07C60000AA
(1485365641.669599) can0 2C4#000000130000A283
(1485365641.671149) can0 0B2#00000000000A
(1485365641.671350) can0 0B0#00000000000A
(1485365641.674601) can0 624#1A0057FFFF400000
(1485365641.679100) can0 394#43
(1485365641.679798) can0 610#2000006400000000
(1485365641.681049) can0 0B2#00000000000B
(1485365641.681272) can0 0B0#00000000000B
(1485365641.681497) can0 223#0000007FE000008C
(1485365641.681747) can0 0B4#00000000020000BE
(1485365641.681999) can0 224#0000000000000000
(1485365641.683797) can0 630#1700000000000000
(1485365641.689226) can0 2C4#000000130000A283
(1485365641.689474) can0 260#0E00000000000078
(1485365641.691074) can0 0B2#00000000000C
(1485365641.691297) can0 0B0#00000000000C
(1485365641.692227) can0 611#2100201200021DB5
(1485365641.692999) can0 638#1300110000000000
(1485365641.699199) can0 2C1#08FD0D07C60000AA
(1485365641.701101) can0 0B2#00000000000D
(1485365641.701298) can0 0B0#00000000000D
(1485365641.701597) can0 0B4#00000000020000BE
(1485365641.702124) can0 3A0#0000000000000013
(1485365641.703899) can0 640#A8000000020E0000
(1485365641.709250) can0 2C4#000000130000A283
(1485365641.709522) can0 260#0E00000000000078
(1485365641.711100) can0 0B2#00000000000E
(1485365641.711298) can0 0B0#00000000000E
(1485365641.711545) can0 223#0000007FE000008C
(1485365641.711897) can0 224#0000000000000000
(1485365641.720952) can0 0B2#00000000000F
(1485365641.721172) can0 0B0#00000000000F
(1485365641.721473) can0 0B4#00000000020000BE
(1485365641.729173) can0 2C1#08FD0D07C60000AA
(1485365641.729450) can0 2C4#000000130000A283
(1485365641.729724) can0 260#0E00000000000078
(1485365641.731150) can0 0B2#000000000000
(1485365641.731349) can0 0B0#000000000000
(1485365641.736201) can0 440#4202000007000000
(1485365641.741077) can0 0B2#000000000001
(1485365641.741275) can0 0B0#000000000001
(1485365641.741525) can0 223#0000007FE000008C
(1485365641.741775) can0 0B4#00000000020000BE
(1485365641.742025) can0 224#0000000000000000
(1485365641.749202) can0 2C4#000000130000A283
(1485365641.749950) can0 260#0E00000000000078
(1485365641.751075) can0 0B2#000000000002
(1485365641.751275) can0 0B0#000000000002
(1485365641.759202) can0 2C1#08FD0D07C60000AA
(1485365641.761076) can0 0B2#000000000003
(1485365641.761298) can0 0B0#000000000003
(1485365641.761599) can0 0B4#00000000020000BE
(1485365641.769227) can0 2C4#000000130000A283
(1485365641.769377) can0 3B3#000000
(1485365641.770151) can0 260#0E00000000000078
(1485365641.770975) can0 0B2#000000000004
(1485365641.771173) can0 0B0#000000000004
(1485365641.771421) can0 223#0000007FE000008C
(1485365641.771721) can0 224#0000000000000000
(1485365641.780953) can0 0B2#000000000005
(1485365641.781150) can0 0B0#000000000005
(1485365641.781451) can0 0B4#00000000020000BE
(1485365641.789202) can0 2C1#08FD0D07C60000AA
(1485365641.789451) can0 2C4#000000130000A283
(1485365641.790401) can0 260#0E00000000000078
(1485365641.790976) can0 0B2#000000000006
(1485365641.791200) can0 0B0#000000000006
(1485365641.801050) can0 0B2#000000000007
(1485365641.801274) can0 0B0#000000000007
(1485365641.801524) can0 223#0000007FE000008C
(1485365641.801771) can0 0B4#00000000020000BE
(1485365641.802026) can0 224#0000000000000000
(1485365641.802275) can0 3A0#0000000000000013
(1485365641.809169) can0 2C4#000000130000A283
(1485365641.810543) can0 260#0E00000000000078
(1485365641.811174) can0 0B2#000000000008
(1485365641.811399) can0 0B0#000000000008
(1485365641.819174) can0 2C1#08FD0D07C60000AA
(1485365641.821128) can0 0B2#000000000009
(1485365641.821326) can0 0B0#000000000009
(1485365641.821626) can0 0B4#00000000020000BE
(1485365641.828403) can0 442#4002000003000000
(1485365641.829226) can0 2C4#000000130000A283
(1485365641.830776) can0 260#0E00000000000078
(1485365641.831101) can0 0B2#00000000000A
(1485365641.831299) can0 0B0#00000000000A
(1485365641.831546) can0 223#0000007FE000008C
(1485365641.831901) can0 224#0000000000000000
(1485365641.840953) can0 0B2#00000000000B
(1485365641.841152) can0 0B0#00000000000B
(1485365641.841451) can0 0B4#00000000020000BE
(1485365641.849176) can0 2C1#08FD0D07C60000AA
(1485365641.849422) can0 2C4#000000130000A283
(1485365641.851001) can0 260#0E00000000000078
(1485365641.851201) can0 0B2#00000000000C
(1485365641.851425) can0 0B0#00000000000C
(1485365641.861114) can0 0B2#00000000000D
(1485365641.861235) can0 0B0#00000000000D
(1485365641.861538) can0 223#0000007FE000008C
(1485365641.861752) can0 0B4#00000000020000BE
(1485365641.862039) can0 224#0000000000000000
(1485365641.862250) can0 620#1000000030600050
(1485365641.862536) can0 3B7#5800000000000000
(1485365641.869260) can0 2C4#000000130000A283
(1485365641.871109) can0 0B2#00000000000E
(1485365641.871231) can0 0B0#00000000000E
(1485365641.871553) can0 260#0E00000000000078
(1485365641.879236) can0 2C1#08FD0D07C60000AA
(1485365641.881112) can0 0B2#00000000000F
(1485365641.881245) can0 0B0#00000000000F
(1485365641.881581) can0 0B4#00000000020000BE
(1485365641.889285) can0 2C4#000000130000A283
(1485365641.891107) can0 0B2#000000000000
(1485365641.891239) can0 0B0#000000000000
(1485365641.891541) can0 223#0000007FE000008C
(1485365641.891751) can0 260#0E00000000000078
(1485365641.892040) can0 224#0000000000000000
(1485365641.901038) can0 0B2#000000000001
(1485365641.901169) can0 0B0#000000000001
(1485365641.901496) can0 0B4#00000000020000BE
(1485365641.902159) can0 3A0#0000000000000013
(1485365641.909239) can0 2C1#08FD0D07C60000AA
(1485365641.909420) can0 2C4#000000130000A283
(1485365641.911134) can0 0B2#000000000002
(1485365641.911294) can0 0B0#000000000002
(1485365641.911654) can0 260#0E00000000000078
(1485365641.921060) can0 0B2#000000000003
(1485365641.921206) can0 0B0#000000000003
(1485365641.921494) can0 223#0000007FE000008C
(1485365641.921700) can0 0B4#00000000020000BE
(1485365641.921956) can0 224#0000000000000000
(1485365641.922432) can0 3B4#000033B800000418
(1485365641.926084) can0 440#4202000007000000
(1485365641.929262) can0 2C4#000000130000A283
(1485365641.931083) can0 0B2#000000000004
(1485365641.931230) can0 0B0#000000000004
(1485365641.931809) can0 260#0E00000000000078
(1485365641.939232) can0 2C1#08FD0D07C60000AA
(1485365641.941089) can0 0B2#000000000005
(1485365641.941215) can0 0B0#000000000005
(1485365641.941579) can0 0B4#00000000020000BE
(1485365641.949288) can0 2C4#000000130000A283
(1485365641.951008) can0 0B2#000000000006
(1485365641.951136) can0 0B0#000000000006
(1485365641.951454) can0 223#0000007FE000008C
(1485365641.951750) can0 224#0000000000000000
(1485365641.952082) can0 260#0E00000000000078
(1485365641.960973) can0 0B2#000000000007
(1485365641.961097) can0 0B0#000000000007
(1485365641.961453) can0 0B4#00000000020000BE
(1485365641.969245) can0 2C1#08FD0D07C60000AA
(1485365641.969401) can0 2C4#000000130000A283
(1485365641.971097) can0 0B2#000000000008
(1485365641.971221) can0 0B0#000000000008
(1485365641.972169) can0 380#00A0040000000300
(1485365641.972469) can0 260#0E00000000000078
(1485365641.981022) can0 0B2#000000000009
(1485365641.981144) can0 0B0#000000000009
(1485365641.981476) can0 223#0000007FE000008C
(1485365641.981646) can0 0B4#00000000020000BE
(1485365641.981948) can0 224#0000000000000000
(1485365641.982431) can0 394#43
(1485365641.989272) can0 2C4#000000130000A283
(1485365641.990993) can0 0B2#00000000000A
(1485365641.991131) can0 0B0#00000000000A
(1485365641.992522) can0 260#0E00000000000078
(1485365641.999245) can0 2C1#08FD0D07C60000AA
(1485365642.001021) can0 0B2#00000000000B
(1485365642.001141) can0 0B0#00000000000B
(1485365642.001503) can0 0B4#00000000020000BE
(1485365642.003396) can0 3A0#0000000000000013
(1485365642.009272) can0 2C4#000000130000A283
(1485365642.011018) can0 0B2#00000000000C
(1485365642.011160) can0 0B0#00000000000C
(1485365642.011449) can0 223#0000007FE000008C
(1485365642.011754) can0 224#0000000000000000
(1485365642.012974) can0 260#0E00000000000078
(1485365642.018246) can0 442#4002000003000000
(1485365642.020975) can0 0B2#00000000000D
(1485365642.021095) can0 0B0#00000000000D
(1485365642.021436) can0 0B4#00000000020000BE
(1485365642.029250) can0 2C1#08FD0D07C60000AA
(1485365642.029402) can0 2C4#000000130000A283
(1485365642.031067) can0 0B2#00000000000E
(1485365642.031195) can0 0B0#00000000000E
(1485365642.033125) can0 260#0E00000000000078
(1485365642.041076) can0 0B2#00000000000F
(1485365642.041198) can0 0B0#00000000000F
(1485365642.041505) can0 223#0000007FE000008C
(1485365642.041752) can0 0B4#00000000020000BE
(1485365642.042022) can0 224#0000000000000000
(1485365642.049291) can0 2C4#000000130000A283
(1485365642.051058) can0 0B2#000000000000
(1485365642.051259) can0 0B0#000000000000
(1485365642.053060) can0 260#0E00000000000078
(1485365642.059285) can0 2C1#08FD0D07C60000AA
(1485365642.061054) can0 0B2#000000000001
(1485365642.061267) can0 0B0#000000000001
(1485365642.061550) can0 0B4#00000000020000BE
(1485365642.069305) can0 2C4#000000130000A283
(1485365642.071104) can0 0B2#000000000002
(1485365642.071302) can0 0B0#000000000002
(1485365642.071550) can0 223#0000007FE000008C
(1485365642.071904) can0 224#0000000000000000
(1485365642.073480) can0 260#0E00000000000078
(1485365642.081032) can0 0B2#000000000003
(1485365642.081229) can0 0B0#000000000003
(1485365642.081529) can0 0B4#00000000020000BE
(1485365642.089257) can0 2C1#08FD0D07C60000AA
(1485365642.089505) can0 2C4#000000130000A283
(1485365642.091130) can0 0B2#000000000004
(1485365642.091330) can0 0B0#000000000004
(1485365642.093656) can0 260#0E00000000000078
(1485365642.101006) can0 0B2#000000000005
(1485365642.101230) can0 0B0#000000000005
(1485365642.101453) can0 223#0000007FE000008C
(1485365642.101704) can0 0B4#00000000020000BE
(1485365642.101954) can0 224#0000000000000000
(1485365642.102205) can0 3A0#0000000000000013
(1485365642.109222) can0 2C4#000000130000A283
(1485365642.110954) can0 0B2#000000000006
(1485365642.111177) can0 0B0#000000000006
(1485365642.113673) can0 260#0E00000000000078
(1485365642.115704) can0 440#4202000007000000
(1485365642.119256) can0 2C1#08FD0D07C60000AA
(1485365642.120980) can0 0B2#000000000007
(1485365642.121204) can0 0B0#000000000007
(1485365642.121479) can0 0B4#00000000020000BE
(1485365642.129267) can0 2C4#000000130000A283
(1485365642.130972) can0 0B2#000000000008
(1485365642.131168) can0 0B0#000000000008
(1485365642.131417) can0 223#0000007FE000008C
(1485365642.131716) can0 224#0000000000000000
(1485365642.134070) can0 260#0E00000000000078
(1485365642.141020) can0 0B2#000000000009
(1485365642.141220) can0 0B0#000000000009
(1485365642.141519) can0 0B4#00000000020000BE
(1485365642.149268) can0 2C1#08FD0D07C60000AA
(1485365642.149496) can0 2C4#000000130000A283
(1485365642.150970) can0 0B2#00000000000A
(1485365642.151168) can0 0B0#00000000000A
(1485365642.154267) can0 260#0E00000000000078
(1485365642.160820) can0 620#1000000030600050
(1485365642.161043) can0 0B2#00000000000B
(1485365642.161243) can0 0B0#00000000000B
(1485365642.161493) can0 223#0000007FE000008C
(1485365642.161742) can0 0B4#00000000020000BE
(1485365642.161995) can0 224#0000000000000000
(1485365642.162293) can0 3B7#5800000000000000
(1485365642.169245) can0 2C4#000000130000A283
(1485365642.169495) can0 4C1#0100500500000000
(1485365642.171017) can0 0B2#00000000000C
(1485365642.171243) can0 0B0#00000000000C
(1485365642.174267) can0 260#0E00000000000078
(1485365642.179246) can0 2C1#08FD0D07C60000AA
(1485365642.181071) can0 0B2#00000000000D
(1485365642.181270) can0 0B0#00000000000D
(1485365642.181570) can0 0B4#00000000020000BE
(1485365642.182246) can0 610#2000006400000000
(1485365642.189294) can0 2C4#000000130000A283
(1485365642.191121) can0 0B2#00000000000E
(1485365642.191293) can0 0B0#00000000000E
(1485365642.191542) can0 223#0000007FE000008C
(1485365642.191896) can0 224#0000000000000000
(1485365642.194722) can0 260#0E00000000000078
(1485365642.201072) can0 0B2#00000000000F
(1485365642.201269) can0 0B0#00000000000F
(1485365642.201571) can0 0B4#00000000020000BE
(1485365642.202097) can0 3A0#0000000000000013
(1485365642.208398) can0 442#4002000003000000
(1485365642.209245) can0 2C1#08FD0D07C60000AA
(1485365642.209495) can0 2C4#000000130000A283
(1485365642.211142) can0 0B2#000000000000
(1485365642.211346) can0 0B0#000000000000
(1485365642.214893) can0 260#0E00000000000078
(1485365642.215371) can0 4ED#5C00000000000000
(1485365642.221024) can0 0B2#000000000001
(1485365642.221248) can0 0B0#000000000001
(1485365642.221472) can0 223#0000007FE000008C
(1485365642.221722) can0 0B4#00000000020000BE
(1485365642.221970) can0 224#0000000000000000
(1485365642.229245) can0 2C4#000000130000A283
(1485365642.230970) can0 0B2#000000000002
(1485365642.231195) can0 0B0#000000000002
(1485365642.232044) can0 4DC#1D00010900000000
(1485365642.234893) can0 260#0E00000000000078
(1485365642.239245) can0 2C1#08FD0D07C60000AA
(1485365642.240996) can0 0B2#000000000003
(1485365642.241196) can0 0B0#000000000003
(1485365642.241495) can0 0B4#00000000020000BE
(1485365642.249274) can0 2C4#000000130000A283
(1485365642.250948) can0 0B2#000000000004
(1485365642.251147) can0 0B0#000000000004
(1485365642.251397) can0 223#0000007FE000008C
(1485365642.251698) can0 224#0000000000000000
(1485365642.255296) can0 260#0E00000000000078
(1485365642.260899) can0 0B2#000000000005
(1485365642.261099) can0 0B0#000000000005
(1485365642.261395) can0 0B4#00000000020000BE
(1485365642.269257) can0 2C1#08FD0D07C60000AA
(1485365642.269506) can0 2C4#000000130000A283
(1485365642.269659) can0 3B3#000000
(1485365642.271031) can0 0B2#000000000006
(1485365642.271231) can0 0B0#000000000006
(1485365642.272031) can0 3B0#0000003200
(1485365642.275306) can0 260#0E00000000000078
(1485365642.281033) can0 0B2#000000000007
(1485365642.281231) can0 0B0#000000000007
(1485365642.281482) can0 223#0000007FE000008C
(1485365642.281731) can0 0B4#00000000000000BC
(1485365642.281981) can0 224#0000000000000000
(1485365642.285483) can0 394#43
(1485365642.287582) can0 0B2#000000000008
(1485365642.287805) can0 0B0#000000000008
(1485365642.289258) can0 2C4#000000130000A283
(1485365642.295458) can0 260#0E00000000000078
(1485365642.297733) can0 0B2#000000000009
(1485365642.297957) can0 0B0#000000000009
(1485365642.298232) can0 0B4#00000000000000BC
(1485365642.299232) can0 2C1#08FD0D07C60000AA
(1485365642.302081) can0 3A0#0000000000000013
(1485365642.305432) can0 440#4202000007000000
(1485365642.307680) can0 0B2#00000000000A
(1485365642.307907) can0 0B0#00000000000A
(1485365642.308159) can0 223#0000007FE000008C
(1485365642.308456) can0 224#0000000000000000
(1485365642.308757) can0 4C3#0400300500000000
(1485365642.309282) can0 2C4#000000130000A283
(1485365642.315681) can0 260#0E00000000000078
(1485365642.317681) can0 0B2#00000000000B
(1485365642.317907) can0 0B0#00000000000B
(1485365642.318180) can0 0B4#00000000000000BC
(1485365642.327680) can0 0B2#00000000000C
(1485365642.327908) can0 0B0#00000000000C
(1485365642.329234) can0 2C1#08FD0D07C60000AA
(1485365642.329482) can0 2C4#000000130000A283
(1485365642.332082) can0 380#00A0040000000300
(1485365642.335907) can0 260#0E00000000000078
(1485365642.337907) can0 0B2#00000000000D
(1485365642.338136) can0 0B0#00000000000D
(1485365642.338391) can0 223#0000007FE000008C
(1485365642.338597) can0 0B4#00000000000000BC
(1485365642.338939) can0 224#0000000000000000
(1485365642.347641) can0 0B2#00000000000E
(1485365642.347752) can0 0B0#00000000000E
(1485365642.349319) can0 2C4#000000130000A283
(1485365642.356140) can0 260#0E00000000000078
(1485365642.357687) can0 0B2#00000000000F
(1485365642.357913) can0 0B0#00000000000F
(1485365642.358169) can0 0B4#00000000000000BC
(1485365642.359290) can0 2C1#08FD0D07C30000A7
(1485365642.367670) can0 0B2#000000000000
(1485365642.367802) can0 0B0#000000000000
(1485365642.368078) can0 223#0000007FE000008C
(1485365642.368376) can0 224#0000000000000000
(1485365642.369313) can0 2C4#000000130000A283
(1485365642.371492) can0 4C8#0900010700000000
(1485365642.376344) can0 260#0E00000000000078
(1485365642.377668) can0 0B2#000000000001
(1485365642.377774) can0 0B0#000000000001
(1485365642.378124) can0 0B4#00000000000000BC
(1485365642.387569) can0 0B2#000000000002
(1485365642.387702) can0 0B0#000000000002
(1485365642.389302) can0 2C1#08FD0D07C30000A7
(1485365642.389498) can0 2C4#000000130000A283
(1485365642.396577) can0 260#0E00000000000078
(1485365642.397801) can0 0B2#000000000003
(1485365642.397942) can0 0B0#000000000003
(1485365642.398222) can0 223#0000007FE000008C
(1485365642.398466) can0 0B4#00000000000000BC
(1485365642.398702) can0 224#0000000000000000
(1485365642.400479) can0 442#4002000003000000
(1485365642.402123) can0 3A0#0000000000000013
(1485365642.407679) can0 0B2#000000000004
(1485365642.407802) can0 0B0#000000000004
(1485365642.409300) can0 2C4#000000130000A283
(1485365642.416753) can0 260#0E00000000000078
(1485365642.417748) can0 0B2#000000000005
(1485365642.417891) can0 0B0#000000000005
(1485365642.418242) can0 0B4#00000000000000BC
(1485365642.419301) can0 2C1#08FD0D07C30000A7
(1485365642.422380) can0 38A#0C04000000
(1485365642.427748) can0 0B2#000000000006
(1485365642.427891) can0 0B0#000000000006
(1485365642.428173) can0 223#0000007FE000008C
(1485365642.428467) can0 224#0000000000000000
(1485365642.429347) can0 2C4#000000130000A283
(1485365642.436979) can0 260#0E00000000000078
(1485365642.437712) can0 0B2#000000000007
(1485365642.437929) can0 0B0#000000000007
(1485365642.438206) can0 0B4#00000000000000BC
(1485365642.447646) can0 0B2#000000000008
(1485365642.447807) can0 0B0#000000000008
(1485365642.449289) can0 2C1#08FD0D07C60000AA
(1485365642.449459) can0 2C4#000000130000A283
(1485365642.457119) can0 260#0E00000000000078
(1485365642.457811) can0 0B2#000000000009
(1485365642.457943) can0 0B0#000000000009
(1485365642.458212) can0 223#0000007FE000008C
(1485365642.458454) can0 0B4#00000000000000BC
(1485365642.458710) can0 224#0000000000000000
(1485365642.459027) can0 3B7#5800000000000000
(1485365642.460522) can0 620#1000000030600050
(1485365642.467595) can0 0B2#00000000000A
(1485365642.467727) can0 0B0#00000000000A
(1485365642.469259) can0 2C4#000000130000A283
(1485365642.477370) can0 260#0E00000000000078
(1485365642.477599) can0 0B2#00000000000B
(1485365642.477811) can0 0B0#00000000000B
(1485365642.478088) can0 0B4#00000000000000BC
(1485365642.479289) can0 2C1#08FD0D07C60000AA
(1485365642.487694) can0 0B2#00000000000C
(1485365642.487919) can0 0B0#00000000000C
(1485365642.488099) can0 223#0000007FE000008C
(1485365642.488435) can0 224#0000000000000000
(1485365642.489255) can0 2C4#000000130000A283
(1485365642.494989) can0 4DD#1E00000500000000
(1485365642.497571) can0 260#0E00000000000078
(1485365642.497716) can0 0B2#00000000000D
(1485365642.497983) can0 0B0#00000000000D
(1485365642.498264) can0 0B4#00000000000000BC
(1485365642.500270) can0 440#4202000007000000
(1485365642.503140) can0 3A0#0000000000000013
(1485365642.507571) can0 0B2#00000000000E
(1485365642.507697) can0 0B0#00000000000E
(1485365642.509295) can0 2C1#08FD0D07C60000AA
(1485365642.509459) can0 2C4#000000130000A283
(1485365642.517718) can0 0B2#00000000000F
(1485365642.517885) can0 0B0#00000000000F
(1485365642.518167) can0 223#0000007FE000008C
(1485365642.518385) can0 0B4#00000000000000BC
(1485365642.518641) can0 224#0000000000000000
(1485365642.518936) can0 260#0E00000000000078
(1485365642.527563) can0 0B2#000000000000
(1485365642.527705) can0 0B0#000000000000
(1485365642.529293) can0 2C4#000000130000A283
(1485365642.537645) can0 0B2#000000000001
(1485365642.537764) can0 0B0#000000000001
(1485365642.538087) can0 260#0E00000000000078
(1485365642.538295) can0 0B4#00000000000000BC
(1485365642.539292) can0 2C1#08FD0D07C30000A7
(1485365642.547643) can0 0B2#000000000002
(1485365642.547793) can0 0B0#000000000002
(1485365642.548090) can0 223#0000007FE000008C
(1485365642.548399) can0 224#0000000000000000
(1485365642.549329) can0 2C4#000000130000A283
(1485365642.557577) can0 0B2#000000000003
(1485365642.557819) can0 0B0#000000000003
(1485365642.558164) can0 0B4#00000000000000BC
(1485365642.558333) can0 260#0E00000000000078
(1485365642.567572) can0 0B2#000000000004
(1485365642.567700) can0 0B0#000000000004
(1485365642.569292) can0 2C1#08FD0D07C30000A7
(1485365642.569459) can0 2C4#000000130000A283
(1485365642.577722) can0 0B2#000000000005
(1485365642.577894) can0 0B0#000000000005
(1485365642.578170) can0 223#0000007FE000008C
(1485365642.578385) can0 0B4#00000000000000BC
(1485365642.578654) can0 224#0000000000000000
(1485365642.578945) can0 260#0E00000000000078
(1485365642.585020) can0 3B1#0000062A00000000
(1485365642.587593) can0 0B2#000000000006
(1485365642.587730) can0 0B0#000000000006
(1485365642.588405) can0 394#43
(1485365642.589293) can0 2C4#000000130000A283
(1485365642.597668) can0 0B2#000000000007
(1485365642.597803) can0 0B0#000000000007
(1485365642.598164) can0 0B4#00000000000000BC
(1485365642.598593) can0 260#0E00000000000078
(1485365642.599261) can0 2C1#08FD0D07C30000A7
(1485365642.600973) can0 442#4002000003000000
(1485365642.602116) can0 3A0#0000000000000013
(1485365642.607672) can0 0B2#000000000008
(1485365642.607806) can0 0B0#000000000008
(1485365642.608110) can0 223#0000007FE000008C
(1485365642.608395) can0 224#0000000000000000
(1485365642.609316) can0 2C4#000000130000A283
(1485365642.617669) can0 0B2#000000000009
(1485365642.617806) can0 0B0#000000000009
(1485365642.618125) can0 0B4#00000000000000BC
(1485365642.618862) can0 260#0E00000000000078
(1485365642.627597) can0 0B2#00000000000A
(1485365642.627730) can0 0B0#00000000000A
(1485365642.629222) can0 2C1#08FD0D07C30000A7
(1485365642.629495) can0 2C4#000000130000A283
(1485365642.637744) can0 0B2#00000000000B
(1485365642.637895) can0 0B0#00000000000B
(1485365642.638188) can0 223#0000007FE000008C
(1485365642.638357) can0 0B4#00000000000000BC
(1485365642.638684) can0 224#0000000000000000
(1485365642.639038) can0 260#0E00000000000078
(1485365642.647597) can0 0B2#00000000000C
(1485365642.647729) can0 0B0#00000000000C
(1485365642.649294) can0 2C4#000000130000A283
(1485365642.655192) can0 621#1100000000000000
(1485365642.657675) can0 0B2#00000000000D
(1485365642.657807) can0 0B0#00000000000D
(1485365642.658159) can0 0B4#00000000000000BC
(1485365642.659267) can0 260#0E00000000000078
(1485365642.659451) can0 2C1#08FD0D07C30000A7
(1485365642.664396) can0 622#1200000000000000
(1485365642.667620) can0 0B2#00000000000E
(1485365642.667782) can0 0B0#00000000000E
(1485365642.668089) can0 223#0000007FE000008C
(1485365642.668333) can0 224#0000000000000000
(1485365642.669319) can0 2C4#000000130000A283
(1485365642.673598) can0 624#1A0057FFFF400000
(1485365642.677621) can0 0B2#00000000000F
(1485365642.677750) can0 0B0#00000000000F
(1485365642.678089) can0 0B4#00000000000000BC
(1485365642.679469) can0 260#0E00000000000078
(1485365642.682397) can0 610#2000006400000000
(1485365642.682724) can0 630#1700000000000000
(1485365642.687561) can0 0B2#000000000000
(1485365642.687706) can0 0B0#000000000000
(1485365642.689298) can0 2C1#08FD0D07C30000A7
(1485365642.689456) can0 2C4#000000130000A283
(1485365642.690867) can0 611#2100201200021DB5
(1485365642.691971) can0 638#1300110000000000
(1485365642.697724) can0 0B2#000000000001
(1485365642.697893) can0 0B0#000000000001
(1485365642.698139) can0 223#0000007FE000008C
(1485365642.698388) can0 0B4#00000000000000BC
(1485365642.698637) can0 224#0000000000000000
(1485365642.699870) can0 260#0E00000000000078
(1485365642.700031) can0 440#4202000007000000
(1485365642.702095) can0 3A0#0000000000000013
(1485365642.703043) can0 640#A8000032020E0000
(1485365642.707621) can0 0B2#000000000002
(1485365642.707757) can0 0B0#000000000002
(1485365642.709296) can0 2C4#000000130000A283
(1485365642.717673) can0 0B2#000000000003
(1485365642.717804) can0 0B0#000000000003
(1485365642.718128) can0 0B4#00000000000000BC
(1485365642.719267) can0 2C1#08FD0D07C30000A7
(1485365642.719964) can0 260#0E00000000000078
(1485365642.727635) can0 0B2#000000000004
(1485365642.727896) can0 0B0#000000000004
(1485365642.728074) can0 223#0000007FE000008C
(1485365642.728372) can0 224#0000000000000000
(1485365642.729236) can0 2C4#000000130000A283
(1485365642.737692) can0 0B2#000000000005
(1485365642.737919) can0 0B0#000000000005
(1485365642.738198) can0 0B4#00000000000000BC
(1485365642.740095) can0 260#0E00000000000078
(1485365642.747575) can0 0B2#000000000006
(1485365642.747772) can0 0B0#000000000006
(1485365642.749323) can0 2C1#08FD0D07C30000A7
(1485365642.749483) can0 2C4#000000130000A283
(1485365642.757796) can0 0B2#000000000007
(1485365642.757893) can0 0B0#000000000007
(1485365642.758198) can0 223#0000007FE000008C
(1485365642.758457) can0 0B4#00000000000000BC
(1485365642.758687) can0 224#0000000000000000
(1485365642.759015) can0 3B7#5800000000000000
(1485365642.760095) can0 620#1000000030600050
(1485365642.760467) can0 260#0E00000000000078
(1485365642.767598) can0 0B2#000000000008
(1485365642.767732) can0 0B0#000000000008
(1485365642.769292) can0 2C4#000000130000A283
(1485365642.769352) can0 3B3#000000
(1485365642.777696) can0 0B2#000000000009
(1485365642.777921) can0 0B0#000000000009
(1485365642.778177) can0 0B4#00000000000000BC
(1485365642.779268) can0 2C1#08FD0D07C30000A7
(1485365642.780672) can0 260#0E00000000000078
(1485365642.787773) can0 0B2#00000000000A
(1485365642.787919) can0 0B0#00000000000A
(1485365642.788235) can0 223#0000007FE000008C
(1485365642.788493) can0 224#0000000000000000
(1485365642.789318) can0 2C4#000000130000A283
(1485365642.797746) can0 0B2#00000000000B
(1485365642.797898) can0 0B0#00000000000B
(1485365642.798217) can0 0B4#00000000000000BC
(1485365642.800295) can0 442#4002000003000000
(1485365642.800684) can0 260#0E00000000000078
(1485365642.802069) can0 3A0#0000000000000013
(1485365642.807596) can0 0B2#00000000000C
(1485365642.807733) can0 0B0#00000000000C
(1485365642.809275) can0 2C1#08FD0D07C30000A7
(1485365642.809445) can0 2C4#000000130000A283
(1485365642.817747) can0 0B2#00000000000D
(1485365642.817897) can0 0B0#00000000000D
(1485365642.818177) can0 223#0000007FE000008C
(1485365642.818434) can0 0B4#00000000000000BC
(1485365642.818664) can0 224#0000000000000000
(1485365642.821099) can0 260#0E00000000000078
(1485365642.827482) can0 0B2#00000000000E
(1485365642.827671) can0 0B0#00000000000E
(1485365642.829296) can0 2C4#000000130000A283
(1485365642.837597) can0 0B2#00000000000F
(1485365642.837733) can0 0B0#00000000000F
(1485365642.838094) can0 0B4#00000000000000BC
(1485365642.839270) can0 2C1#08FD0D07C60000AA
(1485365642.841300) can0 260#0E00000000000078
(1485365642.847701) can0 0B2#000000000000
(1485365642.847924) can0 0B0#000000000000
(1485365642.848124) can0 223#0000007FE000008C
(1485365642.848466) can0 224#0000000000000000
(1485365642.849317) can0 2C4#000000130000A283
(1485365642.857744) can0 0B2#000000000001
(1485365642.857899) can0 0B0#000000000001
(1485365642.858221) can0 0B4#00000000000000BC
(1485365642.861326) can0 260#0E00000000000078
(1485365642.867700) can0 0B2#000000000002
(1485365642.867923) can0 0B0#000000000002
(1485365642.869271) can0 2C1#08FD0D07C60000AA
(1485365642.869457) can0 2C4#000000130000A283
(1485365642.877852) can0 0B2#000000000003
(1485365642.877973) can0 0B0#000000000003
(1485365642.878218) can0 223#0000007FE000008C
(1485365642.878474) can0 0B4#00000000000000BC
(1485365642.878769) can0 224#0000000000000000
(1485365642.881725) can0 260#0E00000000000078
(1485365642.887601) can0 0B2#000000000004
(1485365642.887705) can0 0B0#000000000004
(1485365642.889299) can0 2C4#000000130000A283
(1485365642.891649) can0 394#43
(1485365642.897651) can0 0B2#000000000005
(1485365642.897782) can0 0B0#000000000005
(1485365642.898093) can0 0B4#00000000000000BC
(1485365642.899267) can0 2C1#08FD0D07C60000AA
(1485365642.899770) can0 440#4202000007000000
(1485365642.901975) can0 260#0E00000000000078
(1485365642.902083) can0 3A0#0000000000000013
(1485365642.907648) can0 0B2#000000000006
(1485365642.907784) can0 0B0#000000000006
(1485365642.908054) can0 223#0000007FE000008C
(1485365642.908390) can0 224#0000000000000000
(1485365642.909258) can0 2C4#000000130000A283
(1485365642.917623) can0 0B2#000000000007
(1485365642.917759) can0 0B0#000000000007
(1485365642.918094) can0 0B4#00000000000000BC
(1485365642.921975) can0 260#0E00000000000078
(1485365642.922528) can0 3B4#000033B800000418
(1485365642.927549) can0 0B2#000000000008
(1485365642.927681) can0 0B0#000000000008
(1485365642.929241) can0 2C1#08FD0D07C60000AA
(1485365642.929486) can0 2C4#000000130000A283
(1485365642.937757) can0 0B2#000000000009
(1485365642.937897) can0 0B0#000000000009
(1485365642.938185) can0 223#0000007FE000008C
(1485365642.938441) can0 0B4#00000000000000BC
(1485365642.938685) can0 224#0000000000000000
(1485365642.942358) can0 260#0E00000000000078
(1485365642.947633) can0 0B2#00000000000A
(1485365642.947747) can0 0B0#00000000000A
(1485365642.949309) can0 2C4#000000130000A283
(1485365642.957686) can0 0B2#00000000000B
(1485365642.957809) can0 0B0#00000000000B
(1485365642.958111) can0 0B4#00000000000000BC
(1485365642.959305) can0 2C1#08FD0D07C30000A7
(1485365642.962557) can0 260#0E00000000000078
(1485365642.967634) can0 0B2#00000000000C
(1485365642.967774) can0 0B0#00000000000C
(1485365642.968078) can0 223#0000007FE000008C
(1485365642.968334) can0 224#0000000000000000
(1485365642.969244) can0 2C4#000000130000A283
(1485365642.977627) can0 0B2#00000000000D
(1485365642.977768) can0 0B0#00000000000D
(1485365642.978094) can0 0B4#00000000000000BC
(1485365642.982550) can0 260#0E00000000000078
(1485365642.987551) can0 0B2#00000000000E
(1485365642.987719) can0 0B0#00000000000E
(1485365642.988093) can0 442#4002000003000000
(1485365642.989283) can0 2C1#08FD0D07C30000A7
(1485365642.989479) can0 2C4#000000130000A283
(1485365642.997709) can0 0B2#00000000000F
(1485365642.997926) can0 0B0#00000000000F
(1485365642.998149) can0 223#0000007FE000008C
(1485365642.998390) can0 0B4#00000000000000BC
(1485365642.998650) can0 224#0000000000000000
(1485365643.002083) can0 3A0#0000000000000013
(1485365643.002982) can0 260#0E00000000000078
(1485365643.007609) can0 0B2#000000000000
(1485365643.007733) can0 0B0#000000000000
(1485365643.009284) can0 2C4#000000130000A283
(1485365643.017737) can0 0B2#000000000001
(1485365643.017899) can0 0B0#000000000001
(1485365643.018211) can0 0B4#00000000000000BC
(1485365643.019281) can0 2C1#08FD0D07C30000A7
(1485365643.023159) can0 260#0E00000000000078
(1485365643.027762) can0 0B2#000000000002
(1485365643.027897) can0 0B0#000000000002
(1485365643.028114) can0 223#0000007FE000008C
(1485365643.028429) can0 224#0000000000000000
(1485365643.029309) can0 2C4#000000130000A283
(1485365643.037708) can0 0B2#000000000003
(1485365643.037935) can0 0B0#000000000003
(1485365643.038177) can0 0B4#00000000000000BC
(1485365643.043187) can0 260#0E00000000000078
(1485365643.047562) can0 0B2#000000000004
(1485365643.047692) can0 0B0#000000000004
(1485365643.049284) can0 2C1#08FD0D07C60000AA
(1485365643.049480) can0 2C4#000000130000A283
(1485365643.057759) can0 0B2#000000000005
(1485365643.057895) can0 0B0#000000000005
(1485365643.058186) can0 223#0000007FE000008C
(1485365643.058441) can0 0B4#00000000000000BC
(1485365643.058658) can0 224#0000000000000000
(1485365643.058962) can0 3B7#5800000000000000
(1485365643.059712) can0 620#1000000030600050
(1485365643.063591) can0 260#0E00000000000078
(1485365643.067582) can0 0B2#000000000006
(1485365643.067710) can0 0B0#000000000006
(1485365643.069283) can0 2C4#000000130000A283
(1485365643.077637) can0 0B2#000000000007
(1485365643.077761) can0 0B0#000000000007
(1485365643.078105) can0 0B4#00000000000000BC
(1485365643.079279) can0 2C1#08FD0D07C60000AA
(1485365643.079425) can0 4C1#0100500500000000
(1485365643.083584) can0 260#0E00000000000078
(1485365643.084503) can0 440#4202000007000000
(1485365643.087657) can0 0B2#000000000008
(1485365643.087782) can0 0B0#000000000008
(1485365643.088087) can0 223#0000007FE000008C
(1485365643.088377) can0 224#0000000000000000
(1485365643.089293) can0 2C4#000000130000A283
(1485365643.097698) can0 0B2#000000000009
(1485365643.097927) can0 0B0#000000000009
(1485365643.098175) can0 0B4#00000000000000BC
(1485365643.102049) can0 3A0#0000000000000013
(1485365643.103722) can0 260#0E00000000000078
(1485365643.107646) can0 0B2#00000000000A
(1485365643.107807) can0 0B0#00000000000A
(1485365643.109278) can0 2C1#08FD0D07C60000AA
(1485365643.109449) can0 2C4#000000130000A283
(1485365643.117798) can0 0B2#00000000000B
(1485365643.117959) can0 0B0#00000000000B
(1485365643.118241) can0 223#0000007FE000008C
(1485365643.118459) can0 0B4#00000000000000BC
(1485365643.118707) can0 224#0000000000000000
(1485365643.123979) can0 260#0E00000000000078
(1485365643.127577) can0 0B2#00000000000C
(1485365643.127721) can0 0B0#00000000000C
(1485365643.129272) can0 2C4#000000130000A283
(1485365643.137676) can0 0B2#00000000000D
(1485365643.137822) can0 0B0#00000000000D
(1485365643.138170) can0 0B4#00000000000000BC
(1485365643.139325) can0 2C1#08FD0D07C30000A7
(1485365643.144152) can0 260#0E00000000000078
(1485365643.147673) can0 0B2#00000000000E
(1485365643.147813) can0 0B0#00000000000E
(1485365643.148095) can0 223#0000007FE000008C
(1485365643.148411) can0 224#0000000000000000
(1485365643.149291) can0 2C4#000000130000A283
(1485365643.157679) can0 0B2#00000000000F
(1485365643.157793) can0 0B0#00000000000F
(1485365643.158097) can0 0B4#00000000000000BC
(1485365643.164258) can0 260#0E00000000000078
(1485365643.167600) can0 0B2#000000000000
(1485365643.167711) can0 0B0#000000000000
(1485365643.169251) can0 2C1#08FD0D07C30000A7
(1485365643.169435) can0 2C4#000000130000A283
(1485365643.177776) can0 0B2#000000000001
(1485365643.177924) can0 0B0#000000000001
(1485365643.178223) can0 223#0000007FE000008C
(1485365643.178462) can0 0B4#00000000000000BC
(1485365643.178694) can0 224#0000000000000000
(1485365643.181329) can0 442#4002000003000000
(1485365643.182448) can0 610#2000006400000000
(1485365643.184528) can0 260#0E00000000000078
(1485365643.187626) can0 0B2#000000000002
(1485365643.187762) can0 0B0#000000000002
(1485365643.189278) can0 2C4#000000130000A283
(1485365643.194556) can0 394#43
(1485365643.197656) can0 0B2#000000000003
(1485365643.197815) can0 0B0#000000000003
(1485365643.198135) can0 0B4#00000000000000BC
(1485365643.199248) can0 2C1#08FD0D07C30000A7
(1485365643.202052) can0 3A0#0000000000000013
(1485365643.204780) can0 260#0E00000000000078
(1485365643.207651) can0 0B2#000000000004
(1485365643.207789) can0 0B0#000000000004
(1485365643.208069) can0 223#0000007FE000008C
(1485365643.208380) can0 224#0000000000000000
(1485365643.209297) can0 2C4#000000130000A283
(1485365643.215151) can0 4ED#5C00000000000000
(1485365643.217677) can0 0B2#000000000005
(1485365643.217805) can0 0B0#000000000005
(1485365643.218172) can0 0B4#00000000000000BC
(1485365643.224978) can0 260#0E00000000000078
(1485365643.227626) can0 0B2#000000000006
(1485365643.227764) can0 0B0#000000000006
(1485365643.229230) can0 2C1#08FD0D07C30000A7
(1485365643.229446) can0 2C4#000000130000A283
(1485365643.232052) can0 4DC#1D00010900000000
(1485365643.237761) can0 0B2#000000000007
(1485365643.237901) can0 0B0#000000000007
(1485365643.238197) can0 223#0000007FE000008C
(1485365643.238422) can0 0B4#00000000000000BC
(1485365643.238694) can0 224#0000000000000000
(1485365643.239003) can0 4C3#0400300500000000
(1485365643.245163) can0 260#0E00000000000078
(1485365643.247611) can0 0B2#000000000008
(1485365643.247737) can0 0B0#000000000008
(1485365643.249287) can0 2C4#000000130000A283
(1485365643.257740) can0 0B2#000000000009
(1485365643.257912) can0 0B0#000000000009
(1485365643.258214) can0 0B4#00000000000000BC
(1485365643.259286) can0 2C1#08FD0D07C30000A7
(1485365643.265286) can0 260#0E00000000000078
(1485365643.267761) can0 0B2#00000000000A
(1485365643.267900) can0 0B0#00000000000A
(1485365643.268189) can0 223#0000007FE000008C
(1485365643.268482) can0 224#0000000000000000
(1485365643.269306) can0 2C4#000000130000A283
(1485365643.269385) can0 3B3#000000
(1485365643.272064) can0 3B0#0000003200
(1485365643.277729) can0 0B2#00000000000B
(1485365643.277902) can0 0B0#00000000000B
(1485365643.278219) can0 0B4#00000000000000BC
(1485365643.279229) can0 440#4202000007000000
(1485365643.285577) can0 260#0E00000000000078
(1485365643.287577) can0 0B2#00000000000C
(1485365643.287711) can0 0B0#00000000000C
(1485365643.289257) can0 2C1#08FD0D07C30000A7
(1485365643.289441) can0 2C4#000000130000A283
(1485365643.297730) can0 0B2#00000000000D
(1485365643.297902) can0 0B0#00000000000D
(1485365643.298162) can0 223#0000007FE000008C
(1485365643.298386) can0 0B4#00000000000000BC
(1485365643.298658) can0 224#0000000000000000
(1485365643.302055) can0 3A0#0000000000000013
(1485365643.305751) can0 260#0E00000000000078
(1485365643.307602) can0 0B2#00000000000E
(1485365643.307737) can0 0B0#00000000000E
(1485365643.309255) can0 2C4#000000130000A283
(1485365643.317658) can0 0B2#00000000000F
(1485365643.317785) can0 0B0#00000000000F
(1485365643.318134) can0 0B4#00000000000000BC
(1485365643.319251) can0 2C1#08FD0D07C30000A7
(1485365643.325978) can0 260#0E00000000000078
(1485365643.327653) can0 0B2#000000000000
(1485365643.327787) can0 0B0#000000000000
(1485365643.328098) can0 223#0000007FE000008C
(1485365643.328367) can0 224#0000000000000000
(1485365643.329214) can0 2C4#000000130000A283
(1485365643.331981) can0 380#00A0040000000300
(1485365643.337698) can0 0B2#000000000001
(1485365643.337925) can0 0B0#000000000001
(1485365643.338205) can0 0B4#00000000000000BC
(1485365643.346168) can0 260#0E00000000000078
(1485365643.347554) can0 0B2#000000000002
(1485365643.347770) can0 0B0#000000000002
(1485365643.349256) can0 2C1#08FD0D07C30000A7
(1485365643.349443) can0 2C4#000000130000A283
(1485365643.357751) can0 0B2#000000000003
(1485365643.357904) can0 0B0#000000000003
(1485365643.358180) can0 223#0000007FE000008C
(1485365643.358446) can0 0B4#00000000000000BC
(1485365643.358668) can0 224#0000000000000000
(1485365643.358973) can0 3B7#5800000000000000
(1485365643.359263) can0 620#1000000030600050
(1485365643.361531) can0 4C8#0900010700000000
(1485365643.366381) can0 260#0E00000000000078
(1485365643.367634) can0 0B2#000000000004
(1485365643.367747) can0 0B0#000000000004
(1485365643.369160) can0 442#4002000003000000
(1485365643.369383) can0 2C4#000000130000A283
(1485365643.377678) can0 0B2#000000000005
(1485365643.377815) can0 0B0#000000000005
(1485365643.378119) can0 0B4#00000000000000BC
(1485365643.379278) can0 2C1#08FD0D07C30000A7
(1485365643.386583) can0 260#0E00000000000078
(1485365643.387678) can0 0B2#000000000006
(1485365643.387814) can0 0B0#000000000006
(1485365643.388100) can0 223#0000007FE000008C
(1485365643.388406) can0 224#0000000000000000
(1485365643.389301) can0 2C4#000000130000A283
(1485365643.397655) can0 0B2#000000000007
(1485365643.397802) can0 0B0#000000000007
(1485365643.398173) can0 0B4#00000000000000BC
(1485365643.402028) can0 3A0#0000000000000013
(1485365643.406806) can0 260#0E00000000000078
(1485365643.407511) can0 0B2#000000000008
(1485365643.407679) can0 0B0#000000000008
(1485365643.409257) can0 2C1#08FD0D07C30000A7
(1485365643.409420) can0 2C4#000000130000A283
(1485365643.417707) can0 0B2#000000000009
(1485365643.417930) can0 0B0#000000000009
(1485365643.418110) can0 223#0000007FE000008C
(1485365643.418396) can0 0B4#00000000000000BC
(1485365643.418578) can0 224#0000000000000000
(1485365643.427004) can0 260#0E00000000000078
(1485365643.427529) can0 0B2#00000000000A
(1485365643.427659) can0 0B0#00000000000A
(1485365643.429256) can0 2C4#000000130000A283
(1485365643.437602) can0 0B2#00000000000B
(1485365643.437740) can0 0B0#00000000000B
(1485365643.438071) can0 0B4#00000000000000BC
(1485365643.439249) can0 2C1#08FD0D07C30000A7
(1485365643.447203) can0 260#0E00000000000078
(1485365643.447585) can0 0B2#00000000000C
(1485365643.447767) can0 0B0#00000000000C
(1485365643.448031) can0 223#0000007FE000008C
(1485365643.448339) can0 224#0000000000000000
(1485365643.449277) can0 2C4#000000130000A283
(1485365643.457605) can0 0B2#00000000000D
(1485365643.457735) can0 0B0#00000000000D
(1485365643.458080) can0 0B4#00000000000000BC
(1485365643.464002) can0 440#4202000007000000
(1485365643.467403) can0 260#0E00000000000078
(1485365643.467537) can0 0B2#00000000000E
(1485365643.467793) can0 0B0#00000000000E
(1485365643.469235) can0 2C1#08FD0D07C30000A7
(1485365643.469451) can0 2C4#000000130000A283
(1485365643.477682) can0 0B2#00000000000F
(1485365643.477815) can0 0B0#00000000000F
(1485365643.478100) can0 223#0000007FE000008C
(1485365643.478339) can0 0B4#00000000000000BC
(1485365643.478600) can0 224#0000000000000000
(1485365643.487533) can0 0B2#000000000000
(1485365643.487664) can0 0B0#000000000000
(1485365643.487996) can0 260#0E00000000000078
(1485365643.489280) can0 2C4#000000130000A283
(1485365643.497608) can0 0B2#000000000001
(1485365643.497740) can0 0B0#000000000001
(1485365643.497945) can0 394#43
(1485365643.498125) can0 0B4#00000000000000BC
(1485365643.499252) can0 2C1#08FD0D07C30000A7
(1485365643.502108) can0 3A0#0000000000000013
(1485365643.505109) can0 4DD#1E00000500000000
(1485365643.507630) can0 0B2#000000000002
(1485365643.507760) can0 0B0#000000000002
(1485365643.508057) can0 223#0000007FE000008C
(1485365643.508291) can0 260#0E00000000000078
(1485365643.508571) can0 224#0000000000000000
(1485365643.509235) can0 2C4#000000130000A283
(1485365643.517618) can0 0B2#000000000003
(1485365643.517740) can0 0B0#000000000003
(1485365643.518100) can0 0B4#00000000000000BC
(1485365643.522494) can0 38A#0C04000000
(1485365643.527593) can0 0B2#000000000004
(1485365643.527714) can0 0B0#000000000004
(1485365643.528033) can0 260#0E00000000000078
(1485365643.529264) can0 2C1#08FD0D07C30000A7
(1485365643.529412) can0 2C4#000000130000A283
(1485365643.537764) can0 0B2#000000000005
(1485365643.537903) can0 0B0#000000000005
(1485365643.538176) can0 223#0000007FE000008C
(1485365643.538403) can0 0B4#00000000000000BC
(1485365643.538643) can0 224#0000000000000000
(1485365643.547567) can0 0B2#000000000006
(1485365643.547691) can0 0B0#000000000006
(1485365643.548233) can0 260#0E00000000000078
(1485365643.549265) can0 2C4#000000130000A283
(1485365643.557618) can0 0B2#000000000007
(1485365643.557740) can0 0B0#000000000007
(1485365643.558093) can0 0B4#00000000000000BC
(1485365643.558349) can0 442#4002000003000000
(1485365643.559260) can0 2C1#08FD0D07C30000A7
(1485365643.567645) can0 0B2#000000000008
(1485365643.567766) can0 0B0#000000000008
(1485365643.568068) can0 223#0000007FE000008C
(1485365643.568355) can0 224#0000000000000000
(1485365643.568593) can0 260#0E00000000000078
(1485365643.569226) can0 2C4#000000130000A283
(1485365643.577631) can0 0B2#000000000009
(1485365643.577743) can0 0B0#000000000009
(1485365643.578124) can0 0B4#00000000000000BC
(1485365643.585153) can0 3B1#0000062A00000000
(1485365643.587553) can0 0B2#00000000000A
(1485365643.587665) can0 0B0#00000000000A
(1485365643.588681) can0 260#0E00000000000078
(1485365643.589245) can0 2C1#08FD0D07C30000A7
(1485365643.589459) can0 2C4#000000130000A283
(1485365643.597704) can0 0B2#00000000000B
(1485365643.597935) can0 0B0#00000000000B
(1485365643.598112) can0 223#0000007FE000008C
(1485365643.598395) can0 0B4#00000000000000BC
(1485365643.598604) can0 224#0000000000000000
(1485365643.602029) can0 3A0#0000000000000013
(1485365643.607556) can0 0B2#00000000000C
(1485365643.607685) can0 0B0#00000000000C
(1485365643.608880) can0 260#0E00000000000078
(1485365643.609246) can0 2C4#000000130000A283
(1485365643.617659) can0 0B2#00000000000D
(1485365643.617770) can0 0B0#00000000000D
(1485365643.618103) can0 0B4#00000000000000BC
(1485365643.619228) can0 2C1#08FD0D07C30000A7
(1485365643.627659) can0 0B2#00000000000E
(1485365643.627791) can0 0B0#00000000000E
(1485365643.628083) can0 223#0000007FE000008C
(1485365643.628383) can0 224#0000000000000000
(1485365643.629090) can0 260#0E00000000000078
(1485365643.629331) can0 2C4#000000130000A283
(1485365643.637633) can0 0B2#00000000000F
(1485365643.637766) can0 0B0#00000000000F
(1485365643.638104) can0 0B4#00000000000000BC
(1485365643.647558) can0 0B2#000000000000
(1485365643.647692) can0 0B0#000000000000
(1485365643.649258) can0 2C1#08FD0D07C30000A7
(1485365643.649423) can0 260#0E00000000000078
(1485365643.649722) can0 2C4#000000130000A283
(1485365643.653753) can0 440#4202000007000000
(1485365643.653928) can0 621#1100000000000000
(1485365643.657736) can0 0B2#000000000001
(1485365643.657909) can0 0B0#000000000001
(1485365643.658158) can0 223#0000007FE000008C
(1485365643.658414) can0 0B4#00000000000000BC
(1485365643.658649) can0 224#0000000000000000
(1485365643.658963) can0 3B7#5800000000000000
(1485365643.663307) can0 620#1000000030600050
(1485365643.667582) can0 0B2#000000000002
(1485365643.667717) can0 0B0#000000000002
(1485365643.669258) can0 2C4#000000130000A283
(1485365643.669430) can0 260#0E00000000000078
(1485365643.672510) can0 622#1200000000000000
(1485365643.677636) can0 0B2#000000000003
(1485365643.677769) can0 0B0#000000000003
(1485365643.678103) can0 0B4#00000000000000BC
(1485365643.678352) can0 610#2000006400000000
(1485365643.679229) can0 2C1#08FD0D07C30000A7
(1485365643.681708) can0 624#1A0057FFFF400000
(1485365643.687628) can0 0B2#000000000004
(1485365643.687767) can0 0B0#000000000004
(1485365643.688062) can0 223#0000007FE000008C
(1485365643.688386) can0 224#0000000000000000
(1485365643.689280) can0 2C4#000000130000A283
(1485365643.689983) can0 260#0E00000000000078
(1485365643.690147) can0 611#2100201200021DB5
(1485365643.690889) can0 630#1700000000000000
(1485365643.697632) can0 0B2#000000000005
(1485365643.697767) can0 0B0#000000000005
(1485365643.698106) can0 0B4#00000000000000BC
(1485365643.700081) can0 638#1300110000000000
(1485365643.702031) can0 3A0#0000000000000013
(1485365643.702334) can0 640#A8000032020F0000
(1485365643.707534) can0 0B2#000000000006
(1485365643.707665) can0 0B0#000000000006
(1485365643.709235) can0 2C1#08FD0D07C30000A7
(1485365643.709418) can0 2C4#000000130000A283
(1485365643.709977) can0 260#0E00000000000078
(1485365643.717687) can0 0B2#000000000007
(1485365643.717819) can0 0B0#000000000007
(1485365643.718092) can0 223#0000007FE000008C
(1485365643.718346) can0 0B4#00000000000000BC
(1485365643.718592) can0 224#0000000000000000
(1485365643.727537) can0 0B2#000000000008
(1485365643.727667) can0 0B0#000000000008
(1485365643.729257) can0 2C4#000000130000A283
(1485365643.730064) can0 260#0E00000000000078
(1485365643.737611) can0 0B2#000000000009
(1485365643.737744) can0 0B0#000000000009
(1485365643.738086) can0 0B4#00000000000000BC
(1485365643.739233) can0 2C1#08FD0D07C30000A7
(1485365643.747654) can0 0B2#00000000000A
(1485365643.747807) can0 0B0#00000000000A
(1485365643.748103) can0 223#0000007FE000008C
(1485365643.748306) can0 442#4002000003000000
(1485365643.748624) can0 224#0000000000000000
(1485365643.749232) can0 2C4#000000130000A283
(1485365643.750528) can0 260#0E00000000000078
(1485365643.757592) can0 0B2#00000000000B
(1485365643.757772) can0 0B0#00000000000B
(1485365643.758077) can0 0B4#00000000000000BC
(1485365643.767587) can0 0B2#00000000000C
(1485365643.767720) can0 0B0#00000000000C
(1485365643.769234) can0 2C1#08FD0D07C30000A7
(1485365643.769420) can0 2C4#000000130000A283
(1485365643.769622) can0 3B3#000000
(1485365643.770733) can0 260#0E00000000000078
(1485365643.777732) can0 0B2#00000000000D
(1485365643.777906) can0 0B0#00000000000D
(1485365643.778159) can0 223#0000007FE000008C
(1485365643.778415) can0 0B4#00000000000000BC
(1485365643.778651) can0 224#0000000000000000
(1485365643.787584) can0 0B2#00000000000E
(1485365643.787720) can0 0B0#00000000000E
(1485365643.789273) can0 2C4#000000130000A283
(1485365643.790756) can0 260#0E00000000000078
(1485365643.797662) can0 0B2#00000000000F
(1485365643.797791) can0 0B0#00000000000F
(1485365643.798104) can0 0B4#00000000000000BC
(1485365643.799234) can0 2C1#08FD0D07C30000A7
(1485365643.800887) can0 394#43
(1485365643.802005) can0 3A0#0000000000000013
(1485365643.807633) can0 0B2#000000000000
(1485365643.807771) can0 0B0#000000000000
(1485365643.808061) can0 223#0000007FE000008C
(1485365643.808356) can0 224#0000000000000000
(1485365643.809256) can0 2C4#000000130000A283
(1485365643.811155) can0 260#0E00000000000078
(1485365643.817637) can0 0B2#000000000001
(1485365643.817771) can0 0B0#000000000001
(1485365643.818094) can0 0B4#00000000000000BC
(1485365643.827586) can0 0B2#000000000002
(1485365643.827709) can0 0B0#000000000002
(1485365643.829235) can0 2C1#08FD0D07C30000A7
(1485365643.829401) can0 2C4#000000130000A283
(1485365643.831330) can0 260#0E00000000000078
(1485365643.837737) can0 0B2#000000000003
(1485365643.837908) can0 0B0#000000000003
(1485365643.838162) can0 223#0000007FE000008C
(1485365643.838377) can0 0B4#00000000000000BC
(1485365643.838665) can0 224#0000000000000000
(1485365643.843562) can0 440#4202000007000000
(1485365643.847557) can0 0B2#000000000004
(1485365643.847702) can0 0B0#000000000004
(1485365643.849264) can0 2C4#000000130000A283
(1485365643.851344) can0 260#0E00000000000078
(1485365643.857638) can0 0B2#000000000005
(1485365643.857771) can0 0B0#000000000005
(1485365643.858106) can0 0B4#00000000000000BC
(1485365643.859280) can0 2C1#08FD0D07C30000A7
(1485365643.867613) can0 0B2#000000000006
(1485365643.867746) can0 0B0#000000000006
(1485365643.868036) can0 223#0000007FE000008C
(1485365643.868342) can0 224#0000000000000000
(1485365643.869260) can0 2C4#000000130000A283
(1485365643.871760) can0 260#0E00000000000078
(1485365643.877586) can0 0B2#000000000007
(1485365643.877718) can0 0B0#000000000007
(1485365643.878061) can0 0B4#00000000000000BC
(1485365643.887591) can0 0B2#000000000008
(1485365643.887715) can0 0B0#000000000008
(1485365643.889235) can0 2C1#08FD0D07C30000A7
(1485365643.889420) can0 2C4#000000130000A283
(1485365643.891985) can0 260#0E00000000000078
(1485365643.897759) can0 0B2#000000000009
(1485365643.897911) can0 0B0#000000000009
(1485365643.898203) can0 223#0000007FE000008C
(1485365643.898425) can0 0B4#00000000000000BC
(1485365643.898701) can0 224#0000000000000000
(1485365643.902036) can0 3A0#0000000000000013
(1485365643.907585) can0 0B2#00000000000A
(1485365643.907722) can0 0B0#00000000000A
(1485365643.909237) can0 2C4#000000130000A283
(1485365643.911984) can0 260#0E00000000000078
(1485365643.917638) can0 0B2#00000000000B
(1485365643.917769) can0 0B0#00000000000B
(1485365643.918105) can0 0B4#00000000000000BC
(1485365643.919220) can0 2C1#08FD0D07C30000A7
(1485365643.922488) can0 3B4#000033B800000418
(1485365643.927638) can0 0B2#00000000000C
(1485365643.927766) can0 0B0#00000000000C
(1485365643.928036) can0 223#0000007FE000008C
(1485365643.928356) can0 224#0000000000000000
(1485365643.929231) can0 2C4#000000130000A283
(1485365643.932310) can0 260#0E00000000000078
(1485365643.937611) can0 0B2#00000000000D
(1485365643.937758) can0 0B0#00000000000D
(1485365643.938087) can0 0B4#00000000000000BC
(1485365643.938346) can0 442#4002000003000000
(1485365643.947477) can0 0B2#00000000000E
(1485365643.947659) can0 0B0#00000000000E
(1485365643.949173) can0 2C1#08FD0D07C30000A7
(1485365643.949416) can0 2C4#000000130000A283
(1485365643.952493) can0 260#0E00000000000078
(1485365643.957617) can0 0B2#00000000000F
(1485365643.957815) can0 0B0#00000000000F
(1485365643.958065) can0 223#0000007FE000008C
(1485365643.958312) can0 0B4#00000000000000BC
(1485365643.958560) can0 224#0000000000000000
(1485365643.958810) can0 620#1000000030600050
(1485365643.959039) can0 3B7#5800000000000000
(1485365643.967441) can0 0B2#000000000000
(1485365643.967664) can0 0B0#000000000000
(1485365643.969141) can0 2C4#000000130000A283
(1485365643.972519) can0 260#0E00000000000078
(1485365643.977518) can0 0B2#000000000001
(1485365643.977718) can0 0B0#000000000001
(1485365643.978018) can0 0B4#00000000000000BC
(1485365643.979167) can0 2C1#08FD0D07C30000A7
(1485365643.987518) can0 0B2#000000000002
(1485365643.987743) can0 0B0#000000000002
(1485365643.987992) can0 223#0000007FE000008C
(1485365643.988293) can0 224#0000000000000000
(1485365643.989190) can0 2C4#000000130000A283
(1485365643.989438) can0 4C1#0100500500000000
(1485365643.992941) can0 260#0E00000000000078
(1485365643.997493) can0 0B2#000000000003
(1485365643.997719) can0 0B0#000000000003
(1485365643.998017) can0 0B4#00000000000000BC
(1485365644.001914) can0 3A0#0000000000000013
(1485365644.007417) can0 0B2#000000000004
(1485365644.007642) can0 0B0#000000000004
(1485365644.009167) can0 2C1#08FD0D07C30000A7
(1485365644.009414) can0 2C4#000000130000A283
(1485365644.013142) can0 260#0E00000000000078
(1485365644.017593) can0 0B2#000000000005
(1485365644.017792) can0 0B0#000000000005
(1485365644.018040) can0 223#0000007FE000008C
(1485365644.018290) can0 0B4#00000000000000BC
(1485365644.018539) can0 224#0000000000000000
(1485365644.027468) can0 0B2#000000000006
(1485365644.027665) can0 0B0#000000000006
(1485365644.029165) can0 2C4#000000130000A283
(1485365644.033145) can0 260#0E00000000000078
(1485365644.037518) can0 0B2#000000000007
(1485365644.037744) can0 0B0#000000000007
(1485365644.038021) can0 0B4#00000000000000BC
(1485365644.038269) can0 440#4202000007000000
(1485365644.039169) can0 2C1#08FD0D07C30000A7
(1485365644.047567) can0 0B2#000000000008
(1485365644.047792) can0 0B0#000000000008
(1485365644.048045) can0 223#0000007FE000008C
(1485365644.048345) can0 224#0000000000000000
(1485365644.049191) can0 2C4#000000130000A283
(1485365644.053542) can0 260#0E00000000000078
(1485365644.057567) can0 0B2#000000000009
(1485365644.057766) can0 0B0#000000000009
(1485365644.058095) can0 0B4#00000000000000BC
(1485365644.067449) can0 0B2#00000000000A
(1485365644.067676) can0 0B0#00000000000A
(1485365644.069181) can0 2C1#08FD0D07C30000A7
(1485365644.069403) can0 2C4#000000130000A283
(1485365644.073528) can0 260#0E00000000000078
(1485365644.077628) can0 0B2#00000000000B
(1485365644.077827) can0 0B0#00000000000B
(1485365644.078076) can0 223#0000007FE000008C
(1485365644.078324) can0 0B4#00000000000000BC
(1485365644.078572) can0 224#0000000000000000
(1485365644.087480) can0 0B2#00000000000C
(1485365644.087679) can0 0B0#00000000000C
(1485365644.089179) can0 2C4#000000130000A283
(1485365644.093731) can0 260#0E00000000000078
(1485365644.097529) can0 0B2#00000000000D
(1485365644.097754) can0 0B0#00000000000D
(1485365644.098054) can0 0B4#00000000000000BC
(1485365644.099230) can0 2C1#08FD0D07C30000A7
(1485365644.101931) can0 3A0#0000000000000013
(1485365644.103703) can0 394#43
(1485365644.107553) can0 0B2#00000000000E
(1485365644.107754) can0 0B0#00000000000E
(1485365644.108004) can0 223#0000007FE000008C
(1485365644.108305) can0 224#0000000000000000
(1485365644.109229) can0 2C4#000000130000A283
(1485365644.113931) can0 260#0E00000000000078
(1485365644.117530) can0 0B2#00000000000F
(1485365644.117754) can0 0B0#00000000000F
(1485365644.118053) can0 0B4#00000000000000BC
(1485365644.127454) can0 0B2#000000000000
(1485365644.127677) can0 0B0#000000000000
(1485365644.129154) can0 2C1#08FD0D07C30000A7
(1485365644.129404) can0 2C4#000000130000A283
(1485365644.134154) can0 260#0E00000000000078
(1485365644.137631) can0 0B2#000000000001
(1485365644.137827) can0 0B0#000000000001
(1485365644.138078) can0 223#0000007FE000008C
(1485365644.138325) can0 0B4#00000000000000BC
(1485365644.138572) can0 224#0000000000000000
(1485365644.138822) can0 442#4002000003000000
(1485365644.147479) can0 0B2#000000000002
(1485365644.147703) can0 0B0#000000000002
(1485365644.149147) can0 2C4#000000130000A283
(1485365644.154341) can0 260#0E00000000000078
(1485365644.157568) can0 0B2#000000000003
(1485365644.157793) can0 0B0#000000000003
(1485365644.158068) can0 0B4#00000000000000BC
(1485365644.159243) can0 2C1#08FD0D07C30000A7
(1485365644.167592) can0 0B2#000000000004
(1485365644.167791) can0 0B0#000000000004
(1485365644.168044) can0 223#0000007FE000008C
(1485365644.168342) can0 224#0000000000000000
(1485365644.168642) can0 4C3#0400300500000000
(1485365644.169216) can0 2C4#000000130000A283
(1485365644.174571) can0 260#0E00000000000078
(1485365644.177570) can0 0B2#000000000005
(1485365644.177793) can0 0B0#000000000005
(1485365644.178069) can0 0B4#00000000000000BC
(1485365644.178819) can0 610#2000006400000000
(1485365644.187494) can0 0B2#000000000006
(1485365644.187717) can0 0B0#000000000006
(1485365644.189194) can0 2C1#08FD0D07C30000A7
(1485365644.189444) can0 2C4#000000130000A283
(1485365644.194746) can0 260#0E00000000000078
(1485365644.197693) can0 0B2#000000000007
(1485365644.197944) can0 0B0#000000000007
(1485365644.198144) can0 223#0000007FE000008C
(1485365644.198394) can0 0B4#00000000000000BC
(1485365644.198644) can0 224#0000000000000000
(1485365644.201945) can0 3A0#0000000000000013
(1485365644.207496) can0 0B2#000000000008
(1485365644.207717) can0 0B0#000000000008
(1485365644.209194) can0 2C4#000000130000A283
(1485365644.214822) can0 4ED#5C00000000000000
(1485365644.215069) can0 260#0E00000000000078
(1485365644.217570) can0 0B2#000000000009
(1485365644.217769) can0 0B0#000000000009
(1485365644.218068) can0 0B4#00000000000000BC
(1485365644.219169) can0 2C1#08FD0D07C30000A7
(1485365644.227545) can0 0B2#00000000000A
(1485365644.227770) can0 0B0#00000000000A
(1485365644.227994) can0 223#0000007FE000008C
(1485365644.228320) can0 224#0000000000000000
(1485365644.229218) can0 2C4#000000130000A283
(1485365644.231941) can0 4DC#1D00010900000000
(1485365644.235146) can0 260#0E00000000000078
(1485365644.237544) can0 0B2#00000000000B
(1485365644.237745) can0 0B0#00000000000B
(1485365644.237994) can0 440#4202000007000000
(1485365644.238244) can0 0B4#00000000000000BC
(1485365644.247496) can0 0B2#00000000000C
(1485365644.247694) can0 0B0#00000000000C
(1485365644.249219) can0 2C1#08FD0D07C30000A7
(1485365644.249465) can0 2C4#000000130000A283
(1485365644.255344) can0 260#0E00000000000078
(1485365644.257620) can0 0B2#00000000000D
(1485365644.257843) can0 0B0#00000000000D
(1485365644.258092) can0 223#0000007FE000008C
(1485365644.258340) can0 0B4#00000000000000BC
(1485365644.258588) can0 224#0000000000000000
(1485365644.258838) can0 620#1000000030600050
(1485365644.259046) can0 3B7#0000000000000000
(1485365644.267602) can0 0B2#00000000000E
(1485365644.267713) can0 0B0#00000000000E
(1485365644.269224) can0 2C4#000000130000A283
(1485365644.269295) can0 3B3#000000
(1485365644.271926) can0 3B0#0000003200
(1485365644.275602) can0 260#0E00000000000078
(1485365644.277651) can0 0B2#00000000000F
(1485365644.277763) can0 0B0#00000000000F
(1485365644.278119) can0 0B4#00000000000000BC
(1485365644.279222) can0 2C1#08FD0D07C30000A7
(1485365644.287649) can0 0B2#000000000000
(1485365644.287790) can0 0B0#000000000000
(1485365644.288101) can0 223#0000007FE000008C
(1485365644.288351) can0 224#0000000000000000
(1485365644.289258) can0 2C4#000000130000A283
(1485365644.295818) can0 260#0E00000000000078
(1485365644.297639) can0 0B2#000000000001
(1485365644.297769) can0 0B0#000000000001
(1485365644.298112) can0 0B4#00000000000000BC
(1485365644.301989) can0 3A0#0000000000000013
(1485365644.307590) can0 0B2#000000000002
(1485365644.307725) can0 0B0#000000000002
(1485365644.309215) can0 2C1#08FD0D07C30000A7
(1485365644.309379) can0 2C4#000000130000A283
(1485365644.316012) can0 260#0E00000000000078
(1485365644.317748) can0 0B2#000000000003
(1485365644.317932) can0 0B0#000000000003
(1485365644.318176) can0 223#0000007FE000008C
(1485365644.318433) can0 0B4#00000000000000BC
(1485365644.318667) can0 224#0000000000000000
(1485365644.327550) can0 0B2#000000000004
(1485365644.327650) can0 0B0#000000000004
(1485365644.329225) can0 2C4#000000130000A283
(1485365644.331923) can0 380#00A0040000000300
(1485365644.336228) can0 260#0E00000000000078
(1485365644.337599) can0 0B2#000000000005
(1485365644.337726) can0 0B0#000000000005
(1485365644.338094) can0 0B4#00000000000000BC
(1485365644.338320) can0 442#4002000003000000
(1485365644.339272) can0 2C1#08FD0D07C30000A7
(1485365644.347653) can0 0B2#000000000006
(1485365644.347775) can0 0B0#000000000006
(1485365644.348078) can0 223#0000007FE000008C
(1485365644.348352) can0 224#0000000000000000
(1485365644.349233) can0 2C4#000000130000A283
(1485365644.351568) can0 4C8#0900010700000000
(1485365644.356419) can0 260#0E00000000000078
(1485365644.357641) can0 0B2#000000000007
(1485365644.357777) can0 0B0#000000000007
(1485365644.358112) can0 0B4#00000000000000BC
(1485365644.367537) can0 0B2#000000000008
(1485365644.367678) can0 0B0#000000000008
(1485365644.369219) can0 2C1#08FD0D07C30000A7
(1485365644.369373) can0 2C4#000000130000A283
(1485365644.376618) can0 260#0E00000000000078
(1485365644.377690) can0 0B2#000000000009
(1485365644.377828) can0 0B0#000000000009
(1485365644.378113) can0 223#0000007FE000008C
(1485365644.378362) can0 0B4#00000000000000BC
(1485365644.378605) can0 224#0000000000000000
(1485365644.387520) can0 0B2#00000000000A
(1485365644.387623) can0 0B0#00000000000A
(1485365644.389241) can0 2C4#000000130000A283
(1485365644.396845) can0 260#0E00000000000078
(1485365644.397537) can0 0B2#00000000000B
(1485365644.397666) can0 0B0#00000000000B
(1485365644.398059) can0 0B4#00000000000000BC
(1485365644.399211) can0 2C1#08FD0D07C30000A7
(1485365644.401993) can0 3A0#0000000000000013
(1485365644.406840) can0 394#43
(1485365644.407637) can0 0B2#00000000000C
(1485365644.407768) can0 0B0#00000000000C
(1485365644.408069) can0 223#0000007FE000008C
(1485365644.408350) can0 224#0000000000000000
(1485365644.409236) can0 2C4#000000130000A283
(1485365644.417049) can0 260#0E00000000000078
(1485365644.417622) can0 0B2#00000000000D
(1485365644.417765) can0 0B0#00000000000D
(1485365644.418134) can0 0B4#00000000000000BC
(1485365644.427595) can0 0B2#00000000000E
(1485365644.427723) can0 0B0#00000000000E
(1485365644.429218) can0 2C1#08FD0D07C30000A7
(1485365644.429381) can0 2C4#000000130000A283
(1485365644.437266) can0 260#0E00000000000078
(1485365644.437704) can0 0B2#00000000000F
(1485365644.437968) can0 0B0#00000000000F
(1485365644.438095) can0 223#0000007FE000008C
(1485365644.438364) can0 0B4#00000000000000BC
(1485365644.438614) can0 224#0000000000000000
(1485365644.438958) can0 440#4202000007000000
(1485365644.447517) can0 0B2#000000000000
(1485365644.447654) can0 0B0#000000000000
(1485365644.449220) can0 2C4#000000130000A283
(1485365644.457398) can0 260#0E00000000000078
(1485365644.457610) can0 0B2#000000000001
(1485365644.457808) can0 0B0#000000000001
(1485365644.458105) can0 0B4#00000000000000BC
(1485365644.459189) can0 2C1#08FD0D07C30000A7
(1485365644.467595) can0 0B2#000000000002
(1485365644.467727) can0 0B0#000000000002
(1485365644.467987) can0 223#0000007FE000008C
(1485365644.468300) can0 224#0000000000000000
(1485365644.469236) can0 2C4#000000130000A283
(1485365644.477570) can0 0B2#000000000003
(1485365644.477697) can0 0B0#000000000003
(1485365644.477987) can0 260#0E00000000000078
(1485365644.478235) can0 0B4#00000000000000BC
(1485365644.487471) can0 0B2#000000000004
(1485365644.487634) can0 0B0#000000000004
(1485365644.489217) can0 2C1#08FD0D07C30000A7
(1485365644.489378) can0 2C4#000000130000A283
(1485365644.497643) can0 0B2#000000000005
(1485365644.497778) can0 0B0#000000000005
(1485365644.498062) can0 223#0000007FE000008C
(1485365644.498308) can0 0B4#00000000000000BC
(1485365644.498558) can0 224#0000000000000000
(1485365644.498816) can0 260#0E00000000000078
(1485365644.501996) can0 3A0#0000000000000013
(1485365644.507489) can0 0B2#000000000006
(1485365644.507628) can0 0B0#000000000006
(1485365644.509220) can0 2C4#000000130000A283
(1485365644.515266) can0 4DD#1E00000500000000
(1485365644.517569) can0 0B2#000000000007
(1485365644.517700) can0 0B0#000000000007
(1485365644.518061) can0 0B4#00000000000000BC
(1485365644.518230) can0 260#0E00000000000078
(1485365644.519194) can0 2C1#08FD0D07C30000A7
(1485365644.527567) can0 0B2#000000000008
(1485365644.527695) can0 0B0#000000000008
(1485365644.527990) can0 223#0000007FE000008C
(1485365644.528274) can0 224#0000000000000000
(1485365644.529239) can0 2C4#000000130000A283
(1485365644.537556) can0 0B2#000000000009
(1485365644.537705) can0 0B0#000000000009
(1485365644.537987) can0 442#4002000003000000
(1485365644.538250) can0 0B4#00000000000000BC
(1485365644.538463) can0 260#0E00000000000078
(1485365644.547518) can0 0B2#00000000000A
(1485365644.547647) can0 0B0#00000000000A
(1485365644.549131) can0 2C1#08FD0D07C30000A7
(1485365644.549374) can0 2C4#000000130000A283
(1485365644.557637) can0 0B2#00000000000B
(1485365644.557801) can0 0B0#00000000000B
(1485365644.558113) can0 223#0000007FE000008C
(1485365644.558281) can0 0B4#00000000000000BC
(1485365644.558580) can0 224#0000000000000000
(1485365644.558840) can0 260#0E00000000000078
(1485365644.559091) can0 3B7#0000000000000000
(1485365644.559303) can0 620#1000000030600050
(1485365644.567571) can0 0B2#00000000000C
(1485365644.567675) can0 0B0#00000000000C
(1485365644.569220) can0 2C4#000000130000A283
(1485365644.577621) can0 0B2#00000000000D
(1485365644.577754) can0 0B0#00000000000D
(1485365644.578099) can0 0B4#00000000000000BC
(1485365644.578743) can0 260#0E00000000000078
(1485365644.579146) can0 2C1#08FD0D07C30000A7
(1485365644.585296) can0 3B1#0000062A00000000
(1485365644.587592) can0 0B2#00000000000E
(1485365644.587729) can0 0B0#00000000000E
(1485365644.587990) can0 223#0000007FE000008C
(1485365644.588326) can0 224#0000000000000000
(1485365644.589268) can0 2C4#000000130000A283
(1485365644.597568) can0 0B2#00000000000F
(1485365644.597708) can0 0B0#00000000000F
(1485365644.598074) can0 0B4#00000000000000BC
(1485365644.599120) can0 260#0E00000000000078
(1485365644.601994) can0 3A0#0000000000000013
(1485365644.607518) can0 0B2#000000000000
(1485365644.607656) can0 0B0#000000000000
(1485365644.609220) can0 2C1#08FD0D07C30000A7
(1485365644.609385) can0 2C4#000000130000A283
(1485365644.617671) can0 0B2#000000000001
(1485365644.617802) can0 0B0#000000000001
(1485365644.618099) can0 223#0000007FE000008C
(1485365644.618309) can0 0B4#00000000000000BC
(1485365644.618600) can0 224#0000000000000000
(1485365644.619362) can0 260#0E00000000000078
(1485365644.622472) can0 38A#0C04000000
(1485365644.627517) can0 0B2#000000000002
(1485365644.627654) can0 0B0#000000000002
(1485365644.629222) can0 2C4#000000130000A283
(1485365644.637547) can0 440#4202000007000000
(1485365644.637677) can0 0B2#000000000003
(1485365644.637964) can0 0B0#000000000003
(1485365644.638229) can0 0B4#00000000000000BC
(1485365644.639214) can0 2C1#08FD0D07C30000A7
(1485365644.639482) can0 260#0E00000000000078
(1485365644.647598) can0 0B2#000000000004
(1485365644.647729) can0 0B0#000000000004
(1485365644.648037) can0 223#0000007FE000008C
(1485365644.648300) can0 224#0000000000000000
(1485365644.649243) can0 2C4#000000130000A283
(1485365644.652690) can0 621#1100000000000000
(1485365644.657572) can0 0B2#000000000005
(1485365644.657702) can0 0B0#000000000005
(1485365644.658073) can0 0B4#00000000000000BC
(1485365644.659744) can0 260#0E00000000000078
(1485365644.662622) can0 622#1200000000000000
(1485365644.667523) can0 0B2#000000000006
(1485365644.667671) can0 0B0#000000000006
(1485365644.669140) can0 2C1#08FD0D07C30000A7
(1485365644.669375) can0 2C4#000000130000A283
(1485365644.671378) can0 624#1A0057FFFF400000
(1485365644.677669) can0 0B2#000000000007
(1485365644.677802) can0 0B0#000000000007
(1485365644.678113) can0 223#0000007FE000008C
(1485365644.678334) can0 0B4#00000000000000BC
(1485365644.678608) can0 224#0000000000000000
(1485365644.678864) can0 610#2000006400000000
(1485365644.680045) can0 260#0E00000000000078
(1485365644.680626) can0 630#1700000000000000
(1485365644.687544) can0 0B2#000000000008
(1485365644.687672) can0 0B0#000000000008
(1485365644.689172) can0 611#2100201200021DB5
(1485365644.689354) can0 2C4#000000130000A283
(1485365644.689796) can0 638#1300110000000000
(1485365644.697597) can0 0B2#000000000009
(1485365644.697718) can0 0B0#000000000009
(1485365644.698070) can0 0B4#00000000000000BC
(1485365644.699194) can0 2C1#08FD0D07C30000A7
(1485365644.700172) can0 260#0E00000000000078
(1485365644.701469) can0 640#A8000032020F0000
(1485365644.701959) can0 3A0#0000000000000013
(1485365644.707624) can0 0B2#00000000000A
(1485365644.707743) can0 0B0#00000000000A
(1485365644.708028) can0 223#0000007FE000008C
(1485365644.708366) can0 224#0000000000000000
(1485365644.709243) can0 2C4#000000130000A283
(1485365644.710144) can0 394#43
(1485365644.717595) can0 0B2#00000000000B
(1485365644.717749) can0 0B0#00000000000B
(1485365644.718075) can0 0B4#00000000000000BC
(1485365644.720349) can0 260#0E00000000000078
(1485365644.727521) can0 0B2#00000000000C
(1485365644.727657) can0 0B0#00000000000C
(1485365644.729195) can0 2C1#08FD0D07C30000A7
(1485365644.729358) can0 2C4#000000130000A283
(1485365644.737673) can0 0B2#00000000000D
(1485365644.737820) can0 0B0#00000000000D
(1485365644.738114) can0 223#0000007FE000008C
(1485365644.738368) can0 0B4#00000000000000BC
(1485365644.738607) can0 224#0000000000000000
(1485365644.738864) can0 442#4002000003000000
(1485365644.740672) can0 260#0E00000000000078
(1485365644.747498) can0 0B2#00000000000E
(1485365644.747629) can0 0B0#00000000000E
(1485365644.749220) can0 2C4#000000130000A283
(1485365644.757545) can0 0B2#00000000000F
(1485365644.757685) can0 0B0#00000000000F
(1485365644.757992) can0 0B4#00000000000000BC
(1485365644.759194) can0 2C1#08FD0D07C30000A7
(1485365644.760772) can0 260#0E00000000000078
(1485365644.767598) can0 0B2#000000000000
(1485365644.767730) can0 0B0#000000000000
(1485365644.767991) can0 223#0000007FE000008C
(1485365644.768321) can0 224#0000000000000000
(1485365644.769243) can0 2C4#000000130000A283
(1485365644.769301) can0 3B3#000000
(1485365644.777577) can0 0B2#000000000001
(1485365644.777706) can0 0B0#000000000001
(1485365644.778077) can0 0B4#00000000000000BC
(1485365644.780980) can0 260#0E00000000000078
(1485365644.787554) can0 0B2#000000000002
(1485365644.787678) can0 0B0#000000000002
(1485365644.789197) can0 2C1#08FD0D07C30000A7
(1485365644.789377) can0 2C4#000000130000A283
(1485365644.797699) can0 0B2#000000000003
(1485365644.797832) can0 0B0#000000000003
(1485365644.798116) can0 223#0000007FE000008C
(1485365644.798368) can0 0B4#00000000000000BC
(1485365644.798619) can0 224#0000000000000000
(1485365644.801279) can0 260#0E00000000000078
(1485365644.801913) can0 3A0#0000000000000013
(1485365644.807545) can0 0B2#000000000004
(1485365644.807677) can0 0B0#000000000004
(1485365644.809199) can0 2C4#000000130000A283
(1485365644.817600) can0 0B2#000000000005
(1485365644.817733) can0 0B0#000000000005
(1485365644.818100) can0 0B4#00000000000000BC
(1485365644.819195) can0 2C1#08FD0D07C30000A7
(1485365644.821399) can0 260#0E00000000000078
(1485365644.827624) can0 0B2#000000000006
(1485365644.827757) can0 0B0#000000000006
(1485365644.828073) can0 223#0000007FE000008C
(1485365644.828356) can0 224#0000000000000000
(1485365644.829222) can0 2C4#000000130000A283
(1485365644.837250) can0 440#4202000007000000
(1485365644.837608) can0 0B2#000000000007
(1485365644.837739) can0 0B0#000000000007
(1485365644.838106) can0 0B4#00000000000000BC
(1485365644.841575) can0 260#0E00000000000078
(1485365644.847524) can0 0B2#000000000008
(1485365644.847658) can0 0B0#000000000008
(1485365644.849198) can0 2C1#08FD0D07C30000A7
(1485365644.849364) can0 2C4#000000130000A283
(1485365644.857445) can0 620#1000000030600050
(1485365644.857632) can0 0B2#000000000009
(1485365644.857991) can0 0B0#000000000009
(1485365644.858078) can0 223#0000007FE000008C
(1485365644.858369) can0 0B4#00000000000000BC
(1485365644.858616) can0 224#0000000000000000
(1485365644.858974) can0 3B7#0000000000000000
(1485365644.861897) can0 260#0E00000000000078
(1485365644.867550) can0 0B2#00000000000A
(1485365644.867676) can0 0B0#00000000000A
(1485365644.869197) can0 2C4#000000130000A283
(1485365644.877600) can0 0B2#00000000000B
(1485365644.877732) can0 0B0#00000000000B
(1485365644.878090) can0 0B4#00000000000000BC
(1485365644.879193) can0 2C1#08FD0D07C30000A7
(1485365644.882021) can0 260#0E00000000000078
(1485365644.887596) can0 0B2#00000000000C
(1485365644.887734) can0 0B0#00000000000C
(1485365644.888030) can0 223#0000007FE000008C
(1485365644.888329) can0 224#0000000000000000
(1485365644.889246) can0 2C4#000000130000A283
(1485365644.897601) can0 0B2#00000000000D
(1485365644.897735) can0 0B0#00000000000D
(1485365644.898073) can0 0B4#00000000000000BC
(1485365644.899247) can0 4C1#0100500500000000
(1485365644.901925) can0 3A0#0000000000000013
(1485365644.902150) can0 260#0E00000000000078
(1485365644.907469) can0 0B2#00000000000E
(1485365644.907610) can0 0B0#00000000000E
(1485365644.909198) can0 2C1#08FD0D07C30000A7
(1485365644.909360) can0 2C4#000000130000A283
(1485365644.917616) can0 0B2#00000000000F
(1485365644.917752) can0 0B0#00000000000F
(1485365644.918031) can0 223#0000007FE000008C
(1485365644.918278) can0 0B4#00000000000000BC
(1485365644.918548) can0 224#0000000000000000
(1485365644.922498) can0 260#0E00000000000078
(1485365644.922689) can0 3B4#000033B800000418
(1485365644.927538) can0 0B2#000000000000
(1485365644.927697) can0 0B0#000000000000
(1485365644.928194) can0 442#4002000003000000
(1485365644.929197) can0 2C4#000000130000A283
(1485365644.937622) can0 0B2#000000000001
(1485365644.937756) can0 0B0#000000000001
(1485365644.938101) can0 0B4#00000000000000BC
(1485365644.939198) can0 2C1#08FD0D07C30000A7
(1485365644.942647) can0 260#0E00000000000078
(1485365644.947623) can0 0B2#000000000002
(1485365644.947759) can0 0B0#000000000002
(1485365644.948023) can0 223#0000007FE000008C
(1485365644.948372) can0 224#0000000000000000
(1485365644.949219) can0 2C4#000000130000A283
(1485365644.957601) can0 0B2#000000000003
(1485365644.957734) can0 0B0#000000000003
(1485365644.958074) can0 0B4#00000000000000BC
(1485365644.962797) can0 260#0E00000000000078
(1485365644.967501) can0 0B2#000000000004
(1485365644.967633) can0 0B0#000000000004
(1485365644.969198) can0 2C1#08FD0D07C30000A7
(1485365644.969350) can0 2C4#000000130000A283
(1485365644.977651) can0 0B2#000000000005
(1485365644.977783) can0 0B0#000000000005
(1485365644.978089) can0 223#0000007FE000008C
(1485365644.978308) can0 0B4#00000000000000BC
(1485365644.978585) can0 224#0000000000000000
(1485365644.983125) can0 260#0E00000000000078
(1485365644.987502) can0 0B2#000000000006
(1485365644.987609) can0 0B0#000000000006
(1485365644.989197) can0 2C4#000000130000A283
(1485365644.997553) can0 0B2#000000000007
(1485365644.997683) can0 0B0#000000000007
(1485365644.998044) can0 0B4#00000000000000BC
(1485365644.999190) can0 2C1#08FD0D07C30000A7
(1485365645.001922) can0 3A0#0000000000000013
(1485365645.003248) can0 260#0E00000000000078
(1485365645.007548) can0 0B2#000000000008
(1485365645.007684) can0 0B0#000000000008
(1485365645.007975) can0 223#0000007FE000008C
(1485365645.008232) can0 224#0000000000000000
(1485365645.009224) can0 2C4#000000130000A283
(1485365645.013300) can0 394#43
(1485365645.017544) can0 0B2#000000000009
(1485365645.017675) can0 0B0#000000000009
(1485365645.017990) can0 0B4#00000000000000BC
(1485365645.023423) can0 260#0E00000000000078
(1485365645.027426) can0 440#4202000007000000
(1485365645.027558) can0 0B2#00000000000A
(1485365645.027808) can0 0B0#00000000000A
(1485365645.029174) can0 2C1#08FD0D07C30000A7
(1485365645.029359) can0 2C4#000000130000A283
(1485365645.037626) can0 0B2#00000000000B
(1485365645.037760) can0 0B0#00000000000B
(1485365645.038075) can0 223#0000007FE000008C
(1485365645.038287) can0 0B4#00000000000000BC
(1485365645.038570) can0 224#0000000000000000
(1485365645.043648) can0 260#0E00000000000078
(1485365645.047476) can0 0B2#00000000000C
(1485365645.047607) can0 0B0#00000000000C
(1485365645.049323) can0 2C4#000000130000A283
(1485365645.057527) can0 0B2#00000000000D
(1485365645.057662) can0 0B0#00000000000D
(1485365645.057995) can0 0B4#00000000000000BC
(1485365645.059203) can0 2C1#08FD0D07C30000A7
(1485365645.063651) can0 260#0E00000000000078
(1485365645.067576) can0 0B2#00000000000E
(1485365645.067708) can0 0B0#00000000000E
(1485365645.068016) can0 223#0000007FE000008C
(1485365645.068283) can0 224#0000000000000000
(1485365645.069222) can0 2C4#000000130000A283
(1485365645.077577) can0 0B2#00000000000F
(1485365645.077710) can0 0B0#00000000000F
(1485365645.078025) can0 0B4#00000000000000BC
(1485365645.083828) can0 260#0E00000000000078
(1485365645.087523) can0 0B2#000000000000
(1485365645.087676) can0 0B0#000000000000
(1485365645.089198) can0 2C1#08FD0D07C30000A7
(1485365645.089355) can0 2C4#000000130000A283
(1485365645.097675) can0 0B2#000000000001
(1485365645.097807) can0 0B0#000000000001
(1485365645.098103) can0 223#0000007FE000008C
(1485365645.098359) can0 0B4#00000000000000BC
(1485365645.098613) can0 224#0000000000000000
(1485365645.098868) can0 4C3#0400300500000000
(1485365645.101896) can0 3A0#0000000000000013
(1485365645.104048) can0 260#0E00000000000078
(1485365645.107498) can0 0B2#000000000002
(1485365645.107651) can0 0B0#000000000002
(1485365645.109178) can0 2C4#000000130000A283
(1485365645.117554) can0 0B2#000000000003
(1485365645.117700) can0 0B0#000000000003
(1485365645.118040) can0 0B4#00000000000000BC
(1485365645.119171) can0 2C1#08FD0D07C30000A7
(1485365645.119351) can0 442#4002000003000000
(1485365645.124253) can0 260#0E00000000000078
(1485365645.127575) can0 0B2#000000000004
(1485365645.127727) can0 0B0#000000000004
(1485365645.127973) can0 223#0000007FE000008C
(1485365645.128325) can0 224#0000000000000000
(1485365645.129165) can0 2C4#000000130000A283
(1485365645.137511) can0 0B2#000000000005
(1485365645.137689) can0 0B0#000000000005
(1485365645.137990) can0 0B4#00000000000000BC
(1485365645.144344) can0 260#0E00000000000078
(1485365645.147415) can0 0B2#000000000006
(1485365645.147617) can0 0B0#000000000006
(1485365645.149087) can0 2C1#08FD0D07C30000A7
(1485365645.149343) can0 2C4#000000130000A283
(1485365645.156996) can0 620#1000000030600050
(1485365645.157584) can0 0B2#000000000007
(1485365645.157868) can0 0B0#000000000007
(1485365645.158088) can0 223#0000007FE000008C
(1485365645.158328) can0 0B4#00000000000000BC
(1485365645.158583) can0 224#0000000000000000
(1485365645.158870) can0 3B7#0000000000000000
(1485365645.164632) can0 260#0E00000000000078
(1485365645.167511) can0 0B2#000000000008
(1485365645.167633) can0 0B0#000000000008
(1485365645.169188) can0 2C4#000000130000A283
(1485365645.177589) can0 0B2#000000000009
(1485365645.177706) can0 0B0#000000000009
(1485365645.178038) can0 0B4#00000000000000BC
(1485365645.178487) can0 610#2000006400000000
(1485365645.179177) can0 2C1#08FD0D07C30000A7
(1485365645.184861) can0 260#0E00000000000078
(1485365645.187606) can0 0B2#00000000000A
(1485365645.187736) can0 0B0#00000000000A
(1485365645.187996) can0 223#0000007FE000008C
(1485365645.188344) can0 224#0000000000000000
(1485365645.189232) can0 2C4#000000130000A283
(1485365645.197585) can0 0B2#00000000000B
(1485365645.197709) can0 0B0#00000000000B
(1485365645.198088) can0 0B4#00000000000000BC
(1485365645.201910) can0 3A0#0000000000000013
(1485365645.205011) can0 260#0E00000000000078
(1485365645.207511) can0 0B2#00000000000C
(1485365645.207626) can0 0B0#00000000000C
(1485365645.209189) can0 2C1#08FD0D07C30000A7
(1485365645.209375) can0 2C4#000000130000A283
(1485365645.214588) can0 4ED#5C00000000000000
(1485365645.216714) can0 440#4202000007000000
(1485365645.217682) can0 0B2#00000000000D
(1485365645.217800) can0 0B0#00000000000D
(1485365645.218115) can0 223#0000007FE000008C
(1485365645.218331) can0 0B4#00000000000000BC
(1485365645.218589) can0 224#0000000000000000
(1485365645.222538) can0 3B4#000033B800000018
(1485365645.225260) can0 260#0E00000000000078
(1485365645.227517) can0 0B2#00000000000E
(1485365645.227626) can0 0B0#00000000000E
(1485365645.229188) can0 2C4#000000130000A283
(1485365645.231885) can0 4DC#1D00010900000000
(1485365645.237592) can0 0B2#00000000000F
(1485365645.237710) can0 0B0#00000000000F
(1485365645.238030) can0 0B4#00000000000000BC
(1485365645.239136) can0 2C1#08FD0D07C30000A7
(1485365645.245459) can0 260#0E00000000000078
(1485365645.247611) can0 0B2#000000000000
(1485365645.247730) can0 0B0#000000000000
(1485365645.247975) can0 223#0000007FE000008C
(1485365645.248309) can0 224#0000000000000000
(1485365645.249204) can0 2C4#000000130000A283
(1485365645.257613) can0 0B2#000000000001
(1485365645.257709) can0 0B0#000000000001
(1485365645.258106) can0 0B4#00000000000000BC
(1485365645.265689) can0 260#0E00000000000078
(1485365645.267460) can0 0B2#000000000002
(1485365645.267585) can0 0B0#000000000002
(1485365645.269188) can0 2C1#08FD0D07C30000A7
(1485365645.269339) can0 2C4#000000130000A283
(1485365645.269550) can0 3B3#000000
(1485365645.271860) can0 3B0#0000003200
(1485365645.277637) can0 0B2#000000000003
(1485365645.277777) can0 0B0#000000000003
(1485365645.278052) can0 223#0000007FE000008C
(1485365645.278308) can0 0B4#00000000000000BC
(1485365645.278566) can0 224#0000000000000000
(1485365645.285856) can0 260#0E00000000000078
(1485365645.287511) can0 0B2#000000000004
(1485365645.287610) can0 0B0#000000000004
(1485365645.289213) can0 2C4#000000130000A283
(1485365645.297488) can0 0B2#000000000005
(1485365645.297669) can0 0B0#000000000005
(1485365645.297991) can0 0B4#00000000000000BC
(1485365645.299094) can0 2C1#08FD0D07C30000A7
(1485365645.301814) can0 3A0#0000000000000013
(1485365645.305997) can0 260#0E00000000000078
(1485365645.307521) can0 0B2#000000000006
(1485365645.307743) can0 0B0#000000000006
(1485365645.308031) can0 223#0000007FE000008C
(1485365645.308253) can0 442#4002000003000000
(1485365645.308491) can0 224#0000000000000000
(1485365645.309156) can0 2C4#000000130000A283
(1485365645.316064) can0 394#43
(1485365645.317604) can0 0B2#000000000007
(1485365645.317730) can0 0B0#000000000007
(1485365645.318080) can0 0B4#00000000000000BC
(1485365645.326274) can0 260#0E00000000000078
(1485365645.327526) can0 0B2#000000000008
(1485365645.327673) can0 0B0#000000000008
(1485365645.329179) can0 2C1#08FD0D07C30000A7
(1485365645.329352) can0 2C4#000000130000A283
(1485365645.331901) can0 380#00A0040000000300
(1485365645.337676) can0 0B2#000000000009
(1485365645.337811) can0 0B0#000000000009
(1485365645.338106) can0 223#0000007FE000008C
(1485365645.338362) can0 0B4#00000000000000BC
(1485365645.338575) can0 224#0000000000000000
(1485365645.341656) can0 4C8#0900010700000000
(1485365645.346481) can0 260#0E00000000000078
(1485365645.347524) can0 0B2#00000000000A
(1485365645.347665) can0 0B0#00000000000A
(1485365645.349179) can0 2C4#000000130000A283
(1485365645.357606) can0 0B2#00000000000B
(1485365645.357749) can0 0B0#00000000000B
(1485365645.358080) can0 0B4#00000000000000BC
(1485365645.359175) can0 2C1#08FD0D07C30000A7
(1485365645.366682) can0 260#0E00000000000078
(1485365645.367578) can0 0B2#00000000000C
(1485365645.367712) can0 0B0#00000000000C
(1485365645.367994) can0 223#0000007FE000008C
(1485365645.368319) can0 224#0000000000000000
(1485365645.369199) can0 2C4#000000130000A283
(1485365645.377557) can0 0B2#00000000000D
(1485365645.377687) can0 0B0#00000000000D
(1485365645.378002) can0 0B4#00000000000000BC
(1485365645.386840) can0 260#0E00000000000078
(1485365645.387417) can0 0B2#00000000000E
(1485365645.387675) can0 0B0#00000000000E
(1485365645.389183) can0 2C1#08FD0D07C30000A7
(1485365645.389355) can0 2C4#000000130000A283
(1485365645.397681) can0 0B2#00000000000F
(1485365645.397801) can0 0B0#00000000000F
(1485365645.398104) can0 223#0000007FE000008C
(1485365645.398362) can0 0B4#00000000000000BC
(1485365645.398578) can0 224#0000000000000000
(1485365645.401880) can0 3A0#0000000000000013
(1485365645.406900) can0 440#4202000007000000
(1485365645.407126) can0 260#0E00000000000078
(1485365645.407454) can0 0B2#000000000000
(1485365645.407661) can0 0B0#000000000000
(1485365645.409173) can0 2C4#000000130000A283
(1485365645.417576) can0 0B2#000000000001
(1485365645.417715) can0 0B0#000000000001
(1485365645.418034) can0 0B4#00000000000000BC
(1485365645.419151) can0 2C1#08FD0D07C30000A7
(1485365645.427303) can0 260#0E00000000000078
(1485365645.427452) can0 0B2#000000000002
(1485365645.427728) can0 0B0#000000000002
(1485365645.427982) can0 223#0000007FE000008C
(1485365645.428255) can0 224#0000000000000000
(1485365645.429204) can0 2C4#000000130000A283
(1485365645.437532) can0 0B2#000000000003
(1485365645.437665) can0 0B0#000000000003
(1485365645.438014) can0 0B4#00000000000000BC
(1485365645.447507) can0 260#0E00000000000078
(1485365645.447636) can0 0B2#000000000004
(1485365645.447982) can0 0B0#000000000004
(1485365645.449177) can0 2C1#08FD0D07C30000A7
(1485365645.449344) can0 2C4#000000130000A283
(1485365645.456545) can0 620#1000000030600050
(1485365645.457724) can0 0B2#000000000005
(1485365645.457952) can0 0B0#000000000005
(1485365645.458131) can0 223#0000007FE000008C
(1485365645.458380) can0 0B4#00000000000000BC
(1485365645.458670) can0 224#0000000000000000
(1485365645.458981) can0 3B7#0000000000000000
(1485365645.467532) can0 0B2#000000000006
(1485365645.467656) can0 0B0#000000000006
(1485365645.467979) can0 260#0E00000000000078
(1485365645.469139) can0 2C4#000000130000A283
(1485365645.477583) can0 0B2#000000000007
(1485365645.477716) can0 0B0#000000000007
(1485365645.478035) can0 0B4#00000000000000BC
(1485365645.479153) can0 2C1#08FD0D07C30000A7
(1485365645.487557) can0 0B2#000000000008
(1485365645.487690) can0 0B0#000000000008
(1485365645.488000) can0 223#0000007FE000008C
(1485365645.488242) can0 260#0E00000000000078
(1485365645.488498) can0 224#0000000000000000
(1485365645.489184) can0 2C4#000000130000A283
(1485365645.497556) can0 0B2#000000000009
(1485365645.497688) can0 0B0#000000000009
(1485365645.497982) can0 442#4002000003000000
(1485365645.498239) can0 0B4#00000000000000BC
(1485365645.501854) can0 3A0#0000000000000013
(1485365645.507479) can0 0B2#00000000000A
(1485365645.507603) can0 0B0#00000000000A
(1485365645.508115) can0 260#0E00000000000078
(1485365645.509157) can0 2C1#08FD0D07C30000A7
(1485365645.509339) can0 2C4#000000130000A283
(1485365645.517608) can0 0B2#00000000000B
(1485365645.517759) can0 0B0#00000000000B
(1485365645.517999) can0 223#0000007FE000008C
(1485365645.518280) can0 0B4#00000000000000BC
(1485365645.518554) can0 224#0000000000000000
(1485365645.526005) can0 4DD#1E00000500000000
(1485365645.527454) can0 0B2#00000000000C
(1485365645.527605) can0 0B0#00000000000C
(1485365645.528335) can0 260#0E00000000000078
(1485365645.529176) can0 2C4#000000130000A283
(1485365645.537529) can0 0B2#00000000000D
(1485365645.537655) can0 0B0#00000000000D
(1485365645.538000) can0 0B4#00000000000000BC
(1485365645.539176) can0 2C1#08FD0D07C30000A7
(1485365645.547532) can0 0B2#00000000000E
(1485365645.547682) can0 0B0#00000000000E
(1485365645.547982) can0 223#0000007FE000008C
(1485365645.548252) can0 224#0000000000000000
(1485365645.548528) can0 260#0E00000000000078
(1485365645.549164) can0 2C4#000000130000A283
(1485365645.557532) can0 0B2#00000000000F
(1485365645.557655) can0 0B0#00000000000F
(1485365645.558000) can0 0B4#00000000000000BC
(1485365645.567457) can0 0B2#000000000000
(1485365645.567591) can0 0B0#000000000000
(1485365645.568780) can0 260#0E00000000000078
(1485365645.569125) can0 2C1#08FD0D07C30000A7
(1485365645.569372) can0 2C4#000000130000A283
(1485365645.577606) can0 0B2#000000000001
(1485365645.577732) can0 0B0#000000000001
(1485365645.578000) can0 223#0000007FE000008C
(1485365645.578253) can0 0B4#00000000000000BC
(1485365645.578500) can0 224#0000000000000000
(1485365645.586084) can0 3B1#0000062A00000000
(1485365645.587480) can0 0B2#000000000002
(1485365645.587609) can0 0B0#000000000002
(1485365645.589008) can0 260#0E00000000000078
(1485365645.589140) can0 2C4#000000130000A283
(1485365645.596232) can0 440#4202000007000000
(1485365645.597530) can0 0B2#000000000003
(1485365645.597667) can0 0B0#000000000003
(1485365645.598001) can0 0B4#00000000000000BC
(1485365645.599150) can0 2C1#08FD0D07C30000A7
(1485365645.601905) can0 3A0#0000000000000013
(1485365645.607606) can0 0B2#000000000004
(1485365645.607755) can0 0B0#000000000004
(1485365645.608001) can0 223#0000007FE000008C
(1485365645.608333) can0 224#0000000000000000
(1485365645.609203) can0 2C4#000000130000A283
(1485365645.609365) can0 260#0E00000000000078
(1485365645.617583) can0 0B2#000000000005
(1485365645.617710) can0 0B0#000000000005
(1485365645.618038) can0 0B4#00000000000000BC
(1485365645.619332) can0 394#43
(1485365645.627453) can0 0B2#000000000006
(1485365645.627592) can0 0B0#000000000006
(1485365645.629158) can0 2C1#08FD0D07C30000A7
(1485365645.629357) can0 260#0E00000000000078
(1485365645.629623) can0 2C4#000000130000A283
(1485365645.637607) can0 0B2#000000000007
(1485365645.637742) can0 0B0#000000000007
(1485365645.638075) can0 223#0000007FE000008C
(1485365645.638245) can0 0B4#00000000000000BC
(1485365645.638539) can0 224#0000000000000000
(1485365645.647485) can0 0B2#000000000008
(1485365645.647618) can0 0B0#000000000008
(1485365645.649181) can0 2C4#000000130000A283
(1485365645.649544) can0 260#0E00000000000078
(1485365645.651327) can0 621#1100000000000000
(1485365645.657534) can0 0B2#000000000009
(1485365645.657676) can0 0B0#000000000009
(1485365645.658003) can0 0B4#00000000000000BC
(1485365645.659153) can0 2C1#08FD0D07C30000A7
(1485365645.661331) can0 622#1200000000000000
(1485365645.667559) can0 0B2#00000000000A
(1485365645.667700) can0 0B0#00000000000A
(1485365645.667983) can0 223#0000007FE000008C
(1485365645.668260) can0 224#0000000000000000
(1485365645.669204) can0 2C4#000000130000A283
(1485365645.670104) can0 260#0E00000000000078
(1485365645.670326) can0 624#1A0057FFFF400000
(1485365645.677536) can0 0B2#00000000000B
(1485365645.677676) can0 0B0#00000000000B
(1485365645.678003) can0 0B4#00000000000000BC
(1485365645.679005) can0 610#2000006400000000
(1485365645.679526) can0 630#1700000000000000
(1485365645.687442) can0 0B2#00000000000C
(1485365645.687604) can0 0B0#00000000000C
(1485365645.687982) can0 442#4002000003000000
(1485365645.688742) can0 638#1300110000000000
(1485365645.689128) can0 2C1#08FD0D07C30000A7
(1485365645.689368) can0 2C4#000000130000A283
(1485365645.690174) can0 260#0E00000000000078
(1485365645.691257) can0 611#2100201200021DB5
(1485365645.697659) can0 0B2#00000000000D
(1485365645.697802) can0 0B0#00000000000D
(1485365645.698099) can0 223#0000007FE000008C
(1485365645.698279) can0 0B4#00000000000000BC
(1485365645.698571) can0 224#0000000000000000
(1485365645.701857) can0 3A0#0000000000000013
(1485365645.703080) can0 640#A8000032020F0000
(1485365645.707485) can0 0B2#00000000000E
(1485365645.707649) can0 0B0#00000000000E
(1485365645.709180) can0 2C4#000000130000A283
(1485365645.710381) can0 260#0E00000000000078
(1485365645.717556) can0 0B2#00000000000F
(1485365645.717699) can0 0B0#00000000000F
(1485365645.718003) can0 0B4#00000000000000BC
(1485365645.719154) can0 2C1#08FD0D07C30000A7
(1485365645.722459) can0 38A#0C04000000
(1485365645.727560) can0 0B2#000000000000
(1485365645.727700) can0 0B0#000000000000
(1485365645.728003) can0 223#0000007FE000008C
(1485365645.728293) can0 224#0000000000000000
(1485365645.729181) can0 2C4#000000130000A283
(1485365645.730706) can0 260#0E00000000000078
(1485365645.737517) can0 0B2#000000000001
(1485365645.737705) can0 0B0#000000000001
(1485365645.738047) can0 0B4#00000000000000BC
(1485365645.747511) can0 0B2#000000000002
(1485365645.747641) can0 0B0#000000000002
(1485365645.749157) can0 2C1#08FD0D07C30000A7
