(1485365678.196294) can0 0B2#00000000000F
(1485365678.196453) can0 0B0#00000000000F
(1485365678.196803) can0 0B4#00000000000000BC
(1485365678.199198) can0 3A0#0000000000000014
(1485365678.199735) can0 260#0800000000FFFB6C
(1485365678.204976) can0 4ED#5C00000000000000
(1485365678.206306) can0 0B2#000000000000
(1485365678.206454) can0 0B0#000000000000
(1485365678.207821) can0 2C1#08FFDAFFDD000088
(1485365678.208036) can0 2C4#041000130000A297
(1485365678.216386) can0 0B2#000000000001
(1485365678.216606) can0 0B0#000000000001
(1485365678.216830) can0 223#0000007FE000008C
(1485365678.217062) can0 0B4#00000000000000BC
(1485365678.217318) can0 224#0000000000000000
(1485365678.220006) can0 260#0800000000000173
(1485365678.222624) can0 38A#0804000000
(1485365678.226352) can0 0B2#000000000002
(1485365678.226433) can0 0B0#000000000002
(1485365678.227851) can0 2C4#040F00130000A296
(1485365678.229178) can0 4DC#1D00010900000000
(1485365678.236328) can0 0B2#000000000003
(1485365678.236523) can0 0B0#000000000003
(1485365678.236842) can0 0B4#00000000000000BC
(1485365678.238168) can0 2C1#08FFEAFFDD000098
(1485365678.240232) can0 260#0800000000000173
(1485365678.246351) can0 0B2#000000000004
(1485365678.246491) can0 0B0#000000000004
(1485365678.246761) can0 223#0000007FE000008C
(1485365678.247086) can0 224#0000000000000000
(1485365678.247896) can0 2C4#040C00130000A293
(1485365678.256356) can0 0B2#000000000005
(1485365678.256473) can0 0B0#000000000005
(1485365678.256807) can0 0B4#00000000000000BC
(1485365678.260405) can0 260#0800000000000375
(1485365678.266230) can0 0B2#000000000006
(1485365678.266386) can0 0B0#000000000006
(1485365678.267879) can0 2C1#08FFF0FFE70000A8
(1485365678.268049) can0 2C4#040C00130000A293
(1485365678.268235) can0 3B3#040C00
(1485365678.269152) can0 3B0#0000003200
(1485365678.269333) can0 440#4202000007000000
(1485365678.276405) can0 0B2#000000000007
(1485365678.276548) can0 0B0#000000000007
(1485365678.276832) can0 223#0000007FE000008C
(1485365678.277049) can0 0B4#00000000000000BC
(1485365678.277331) can0 224#0000000000000000
(1485365678.280655) can0 260#0800000000FFFC6D
(1485365678.286228) can0 0B2#000000000008
(1485365678.286387) can0 0B0#000000000008
(1485365678.287876) can0 2C4#040B00130000A292
(1485365678.296358) can0 0B2#000000000009
(1485365678.296425) can0 0B0#000000000009
(1485365678.296761) can0 0B4#00000000000000BC
(1485365678.297869) can0 2C1#08FFF7FFF00000B8
(1485365678.299198) can0 3A0#0000000000000014
(1485365678.300831) can0 260#0800000000FFFC6D
(1485365678.306355) can0 0B2#00000000000A
(1485365678.306448) can0 0B0#00000000000A
(1485365678.306722) can0 223#0000007FE000008C
(1485365678.307055) can0 224#0000000000000000
(1485365678.307898) can0 2C4#040A00130000A291
(1485365678.316356) can0 0B2#00000000000B
(1485365678.316431) can0 0B0#00000000000B
(1485365678.316802) can0 0B4#00000000000000BC
(1485365678.321025) can0 260#0800010000000275
(1485365678.326168) can0 0B2#00000000000C
(1485365678.326355) can0 0B0#00000000000C
(1485365678.327878) can0 2C1#08FFF4FFF40000B9
(1485365678.328023) can0 2C4#040C00130000A293
(1485365678.329201) can0 380#00A0043000000300
(1485365678.336380) can0 0B2#00000000000D
(1485365678.336523) can0 0B0#00000000000D
(1485365678.336835) can0 223#0000007FE000008C
(1485365678.336999) can0 0B4#00000000000000BC
(1485365678.337329) can0 224#0000000000000000
(1485365678.341254) can0 260#0800000000FFFF70
(1485365678.344729) can0 620#1000000030600050
(1485365678.346351) can0 0B2#00000000000E
(1485365678.346437) can0 0B0#00000000000E
(1485365678.349028) can0 2C4#041000130000A297
(1485365678.356354) can0 0B2#00000000000F
(1485365678.356468) can0 0B0#00000000000F
(1485365678.356802) can0 0B4#00000000000000BC
(1485365678.357872) can0 2C1#08FFE4FFE0000095
(1485365678.361454) can0 260#0800010000000174
(1485365678.366150) can0 394#00
(1485365678.366312) can0 0B2#000000000000
(1485365678.366550) can0 0B0#000000000000
(1485365678.366806) can0 223#0000007FE000008C
(1485365678.367098) can0 224#0000000000000000
(1485365678.367898) can0 2C4#041100130000A298
(1485365678.370479) can0 442#4002000003000000
(1485365678.376358) can0 0B2#000000000001
(1485365678.376499) can0 0B0#000000000001
(1485365678.376861) can0 0B4#00000000000000BC
(1485365678.381631) can0 260#0800000000FFFE6F
(1485365678.386232) can0 0B2#000000000002
(1485365678.386387) can0 0B0#000000000002
(1485365678.387878) can0 2C1#08FFDDFFDD00008B
(1485365678.388051) can0 2C4#041100130000A298
(1485365678.396409) can0 0B2#000000000003
(1485365678.396536) can0 0B0#000000000003
(1485365678.396843) can0 223#0000007FE000008C
(1485365678.397056) can0 0B4#00000000000000BC
(1485365678.397347) can0 224#0000000000000000
(1485365678.399178) can0 3A0#0000000000000013
(1485365678.401906) can0 260#0800010000000376
(1485365678.406254) can0 0B2#000000000004
(1485365678.406387) can0 0B0#000000000004
(1485365678.407853) can0 2C4#041300130000A29A
(1485365678.416356) can0 0B2#000000000005
(1485365678.416474) can0 0B0#000000000005
(1485365678.416809) can0 0B4#00000000000000BC
(1485365678.418104) can0 2C1#08FFD7FFD400007C
(1485365678.422079) can0 260#0800000000FFFC6D
(1485365678.426357) can0 0B2#000000000006
(1485365678.426474) can0 0B0#000000000006
(1485365678.426760) can0 223#0000007FE000008C
(1485365678.427087) can0 224#0000000000000000
(1485365678.427871) can0 2C4#041400130000A29B
(1485365678.436357) can0 0B2#000000000007
(1485365678.436474) can0 0B0#000000000007
(1485365678.436817) can0 0B4#00000000000000BC
(1485365678.442233) can0 260#0800000000000678
(1485365678.446251) can0 0B2#000000000008
(1485365678.446413) can0 0B0#000000000008
(1485365678.447854) can0 2C1#08FFD0FFD0000071
(1485365678.448025) can0 2C4#041400130000A29B
(1485365678.456406) can0 0B2#000000000009
(1485365678.456540) can0 0B0#000000000009
(1485365678.456852) can0 223#0000007FE000008C
(1485365678.457030) can0 0B4#00000000000000BC
(1485365678.457320) can0 224#0000000000000000
(1485365678.457598) can0 3B7#0000000000000000
(1485365678.462482) can0 260#0800000000FFF768
(1485365678.466282) can0 0B2#00000000000A
(1485365678.466413) can0 0B0#00000000000A
(1485365678.467853) can0 2C4#041300130000A29A
(1485365678.468964) can0 440#4202000007000000
(1485365678.476356) can0 0B2#00000000000B
(1485365678.476469) can0 0B0#00000000000B
(1485365678.476819) can0 0B4#00000000000000BC
(1485365678.477854) can0 2C1#08FFD4FFD0000075
(1485365678.482653) can0 260#0800000000FFF768
(1485365678.486353) can0 0B2#00000000000C
(1485365678.486502) can0 0B0#00000000000C
(1485365678.486762) can0 223#0000007FE000008C
(1485365678.487087) can0 224#0000000000000000
(1485365678.487885) can0 2C4#041300130000A29A
(1485365678.496313) can0 0B2#00000000000D
(1485365678.496486) can0 0B0#00000000000D
(1485365678.496850) can0 0B4#00000000000000BC
(1485365678.499179) can0 3A0#0000000000000013
(1485365678.502554) can0 260#0800000000FFFD6E
(1485365678.506283) can0 0B2#00000000000E
(1485365678.506411) can0 0B0#00000000000E
(1485365678.507852) can0 2C1#08FFD7FFD0000078
(1485365678.508028) can0 2C4#041300130000A29A
(1485365678.516432) can0 0B2#00000000000F
(1485365678.516564) can0 0B0#00000000000F
(1485365678.516851) can0 223#0000007FE000008C
(1485365678.517082) can0 0B4#00000000000000BC
(1485365678.517372) can0 224#0000000000000000
(1485365678.522958) can0 260#0800000000FFFE6F
(1485365678.526254) can0 0B2#000000000000
(1485365678.526412) can0 0B0#000000000000
(1485365678.528104) can0 2C4#041100130000A298
(1485365678.536358) can0 0B2#000000000001
(1485365678.536476) can0 0B0#000000000001
(1485365678.536817) can0 0B4#00000000000000BC
(1485365678.537855) can0 2C1#08FFE0FFD7000088
(1485365678.543154) can0 260#0800000000FFF96A
(1485365678.546360) can0 0B2#000000000002
(1485365678.546440) can0 0B0#000000000002
(1485365678.546725) can0 223#0000007FE000008C
(1485365678.547012) can0 224#0000000000000000
(1485365678.547877) can0 2C4#041000130000A297
(1485365678.556358) can0 0B2#000000000003
(1485365678.556436) can0 0B0#000000000003
(1485365678.556802) can0 0B4#00000000000000BC
(1485365678.558905) can0 442#4002000003000000
(1485365678.563359) can0 260#0800000000FFFF70
(1485365678.566256) can0 0B2#000000000004
(1485365678.566388) can0 0B0#000000000004
(1485365678.567855) can0 2C1#08FFE4FFE0000095
(1485365678.568028) can0 2C4#041000130000A297
(1485365678.568338) can0 4C1#0100500500000000
(1485365678.576408) can0 0B2#000000000005
(1485365678.576551) can0 0B0#000000000005
(1485365678.576835) can0 223#0000007FE000008C
(1485365678.577057) can0 0B4#00000000000000BC
(1485365678.577332) can0 224#0000000000000000
(1485365678.577601) can0 4C3#0400300500000000
(1485365678.583379) can0 260#0800000000000072
(1485365678.586283) can0 0B2#000000000006
(1485365678.586438) can0 0B0#000000000006
(1485365678.588285) can0 2C4#040E00130000A295
(1485365678.596358) can0 0B2#000000000007
(1485365678.596499) can0 0B0#000000000007
(1485365678.596862) can0 0B4#00000000000000BC
(1485365678.597855) can0 2C1#08FFEDFFEA0000A8
(1485365678.599179) can0 3A0#0000000000000013
(1485365678.603755) can0 260#0800000000000375
(1485365678.606379) can0 0B2#000000000008
(1485365678.606519) can0 0B0#000000000008
(1485365678.606813) can0 223#0000007FE000008C
(1485365678.607093) can0 224#0000000000000000
(1485365678.607872) can0 2C4#040E00130000A295
(1485365678.609083) can0 621#1100000000000000
(1485365678.616357) can0 0B2#000000000009
(1485365678.616501) can0 0B0#000000000009
(1485365678.616864) can0 0B4#00000000000000BC
(1485365678.619006) can0 622#1200000000000000
(1485365678.623786) can0 260#0800000000FFF869
(1485365678.626278) can0 0B2#00000000000A
(1485365678.626437) can0 0B0#00000000000A
(1485365678.627835) can0 624#1A0057FFFF400000
(1485365678.628005) can0 2C1#08FFEAFFEA0000A5
(1485365678.628353) can0 2C4#040F00130000A296
(1485365678.636430) can0 0B2#00000000000B
(1485365678.636577) can0 0B0#00000000000B
(1485365678.636884) can0 223#0000007FE000008C
(1485365678.637067) can0 0B4#00000000000000BC
(1485365678.637348) can0 224#0000000000000000
(1485365678.637619) can0 630#1700000000000000
(1485365678.644160) can0 260#0800000000000476
(1485365678.646230) can0 638#1300110000000000
(1485365678.646365) can0 0B2#00000000000C
(1485365678.646598) can0 0B0#00000000000C
(1485365678.647856) can0 2C4#041000130000A297
(1485365678.655403) can0 620#1000000030600050
(1485365678.656358) can0 0B2#00000000000D
(1485365678.656502) can0 0B0#00000000000D
(1485365678.656867) can0 0B4#00000000000000BC
(1485365678.657857) can0 2C1#08FFE7FFE400009C
(1485365678.658777) can0 440#4202000007000000
(1485365678.664183) can0 260#0800000000FFFF70
(1485365678.666355) can0 0B2#00000000000E
(1485365678.666501) can0 0B0#00000000000E
(1485365678.666813) can0 223#0000007FE000008C
(1485365678.667067) can0 224#0000000000000000
(1485365678.667861) can0 2C4#041000130000A297
(1485365678.669483) can0 394#00
(1485365678.676359) can0 0B2#00000000000F
(1485365678.676502) can0 0B0#00000000000F
(1485365678.676844) can0 0B4#00000000000000BC
(1485365678.679253) can0 610#2000006400000000
(1485365678.684560) can0 260#0800010000FFFB6D
(1485365678.686252) can0 0B2#000000000000
(1485365678.686419) can0 0B0#000000000000
(1485365678.687857) can0 2C1#08FFE0FFE0000091
(1485365678.688052) can0 2C4#041100130000A298
(1485365678.689171) can0 611#2100201200021DB5
(1485365678.696378) can0 0B2#000000000001
(1485365678.696561) can0 0B0#000000000001
(1485365678.696843) can0 223#0000007FE000008C
(1485365678.697074) can0 0B4#00000000000000BC
(1485365678.697363) can0 224#0000000000000000
(1485365678.699203) can0 3A0#0000000000000013
(1485365678.700960) can0 640#A8000032020E0000
(1485365678.704566) can0 260#0800000000000476
(1485365678.706201) can0 0B2#000000000002
(1485365678.706364) can0 0B0#000000000002
(1485365678.707829) can0 2C4#041100130000A298
(1485365678.716281) can0 0B2#000000000003
(1485365678.716404) can0 0B0#000000000003
(1485365678.716774) can0 0B4#00000000000000BC
(1485365678.718004) can0 2C1#08FFE4FFDD000092
(1485365678.722203) can0 3B4#000035B800000000
(1485365678.724981) can0 260#0800000000FFFF70
(1485365678.726376) can0 0B2#000000000004
(1485365678.726540) can0 0B0#000000000004
(1485365678.726797) can0 223#0000007FE000008C
(1485365678.727094) can0 224#0000000000000000
(1485365678.727871) can0 2C4#041000130000A297
(1485365678.736359) can0 0B2#000000000005
(1485365678.736491) can0 0B0#000000000005
(1485365678.736835) can0 0B4#00000000000000BC
(1485365678.745007) can0 260#0800000000000173
(1485365678.746274) can0 0B2#000000000006
(1485365678.746440) can0 0B0#000000000006
(1485365678.748054) can0 2C1#08FFE7FFE0000098
(1485365678.748304) can0 2C4#041000130000A297
(1485365678.756415) can0 0B2#000000000007
(1485365678.756576) can0 0B0#000000000007
(1485365678.756878) can0 223#0000007FE000008C
(1485365678.757060) can0 0B4#00000000000000BC
(1485365678.757372) can0 224#0000000000000000
(1485365678.757653) can0 3B7#0000000000000000
(1485365678.758524) can0 442#4002000003000000
(1485365678.765386) can0 260#0800000000000072
(1485365678.766222) can0 0B2#000000000008
(1485365678.766391) can0 0B0#000000000008
(1485365678.767857) can0 2C4#041000130000A297
(1485365678.767939) can0 3B3#041000
(1485365678.776283) can0 0B2#000000000009
(1485365678.776424) can0 0B0#000000000009
(1485365678.776721) can0 0B4#00000000000000BC
(1485365678.777748) can0 2C1#08FFE4FFE4000099
(1485365678.785317) can0 260#0800000000000678
(1485365678.786265) can0 0B2#00000000000A
(1485365678.786471) can0 0B0#00000000000A
(1485365678.786718) can0 223#0000007FE000008C
(1485365678.787008) can0 224#0000000000000000
(1485365678.787845) can0 2C4#041100130000A298
(1485365678.796219) can0 0B2#00000000000B
(1485365678.796470) can0 0B0#00000000000B
(1485365678.796759) can0 0B4#00000000000000BC
(1485365678.799154) can0 3A0#0000000000000014
(1485365678.805805) can0 260#0800000000FFFC6D
(1485365678.806197) can0 0B2#00000000000C
(1485365678.806377) can0 0B0#00000000000C
(1485365678.808666) can0 2C1#08FFDAFFE000008B
(1485365678.808913) can0 2C4#041300130000A29A
(1485365678.816365) can0 0B2#00000000000D
(1485365678.816496) can0 0B0#00000000000D
(1485365678.816814) can0 223#0000007FE000008C
(1485365678.816988) can0 0B4#00000000000000BC
(1485365678.817334) can0 224#0000000000000000
(1485365678.825836) can0 260#0800000000FFFE6F
(1485365678.826198) can0 0B2#00000000000E
(1485365678.826378) can0 0B0#00000000000E
(1485365678.828561) can0 2C4#041300130000A29A
(1485365678.836285) can0 0B2#00000000000F
(1485365678.836411) can0 0B0#00000000000F
(1485365678.836727) can0 0B4#00000000000000BC
(1485365678.837858) can0 2C1#08FFDAFFD7000082
(1485365678.846209) can0 260#0800000000FFFD6E
(1485365678.846363) can0 0B2#000000000000
(1485365678.846623) can0 0B0#000000000000
(1485365678.846810) can0 223#0000007FE000008C
(1485365678.847139) can0 224#0000000000000000
(1485365678.847878) can0 2C4#041300130000A29A
(1485365678.856287) can0 0B2#000000000001
(1485365678.856436) can0 0B0#000000000001
(1485365678.856798) can0 0B4#00000000000000BC
(1485365678.858530) can0 440#4202000007000000
(1485365678.866235) can0 260#0800000000FFFA6B
(1485365678.866361) can0 0B2#000000000002
(1485365678.866650) can0 0B0#000000000002
(1485365678.867833) can0 2C1#08FFD0FFD4000075
(1485365678.868001) can0 2C4#041500130000A29C
(1485365678.876385) can0 0B2#000000000003
(1485365678.876522) can0 0B0#000000000003
(1485365678.876821) can0 223#0000007FE000008C
(1485365678.877026) can0 0B4#00000000000000BC
(1485365678.877335) can0 224#0000000000000000
(1485365678.886256) can0 0B2#000000000004
(1485365678.886413) can0 0B0#000000000004
(1485365678.886702) can0 260#0800000000000274
(1485365678.887858) can0 2C4#041500130000A29C
(1485365678.896360) can0 0B2#000000000005
(1485365678.896471) can0 0B0#000000000005
(1485365678.896841) can0 0B4#00000000000000BC
(1485365678.897858) can0 2C1#08FFD0FFCD00006E
(1485365678.899154) can0 3A0#0000000000000014
(1485365678.906357) can0 0B2#000000000006
(1485365678.906444) can0 0B0#000000000006
(1485365678.906728) can0 223#0000007FE000008C
(1485365678.906960) can0 260#0800000000FFFF70
(1485365678.907224) can0 224#0000000000000000
(1485365678.907835) can0 2C4#041300130000A29A
(1485365678.916315) can0 0B2#000000000007
(1485365678.916436) can0 0B0#000000000007
(1485365678.916791) can0 0B4#00000000000000BC
(1485365678.926236) can0 0B2#000000000008
(1485365678.926360) can0 0B0#000000000008
(1485365678.927002) can0 260#0800000000FFF869
(1485365678.927855) can0 2C1#08FFD7FFD400007C
(1485365678.928023) can0 2C4#041300130000A29A
(1485365678.936387) can0 0B2#000000000009
(1485365678.936524) can0 0B0#000000000009
(1485365678.936823) can0 223#0000007FE000008C
(1485365678.937026) can0 0B4#00000000000000BC
(1485365678.937336) can0 224#0000000000000000
(1485365678.944083) can0 620#1000000030600050
(1485365678.946283) can0 0B2#00000000000A
(1485365678.946432) can0 0B0#00000000000A
(1485365678.947230) can0 260#0800000000FFF869
(1485365678.947829) can0 2C4#041500130000A29C
(1485365678.950485) can0 4DD#1E00000500000000
(1485365678.956281) can0 0B2#00000000000B
(1485365678.956435) can0 0B0#00000000000B
(1485365678.956768) can0 0B4#00000000000000BC
(1485365678.957833) can0 2C1#08FFD4FFCD000072
(1485365678.958711) can0 442#4002000003000000
(1485365678.966358) can0 0B2#00000000000C
(1485365678.966443) can0 0B0#00000000000C
(1485365678.966730) can0 223#0000007FE000008C
(1485365678.967053) can0 224#0000000000000000
(1485365678.967564) can0 260#0800000000FFFC6D
(1485365678.967847) can0 2C4#041300130000A29A
(1485365678.970507) can0 3B1#0000022A00000000
(1485365678.972362) can0 394#00
(1485365678.976361) can0 0B2#00000000000D
(1485365678.976446) can0 0B0#00000000000D
(1485365678.976791) can0 0B4#00000000000000BC
(1485365678.986259) can0 0B2#00000000000E
(1485365678.986386) can0 0B0#00000000000E
(1485365678.987758) can0 260#0800000000000577
(1485365678.987923) can0 2C1#08FFDDFFD000007E
(1485365678.988203) can0 2C4#041100130000A298
(1485365678.996411) can0 0B2#00000000000F
(1485365678.996547) can0 0B0#00000000000F
(1485365678.996849) can0 223#0000007FE000008C
(1485365678.997054) can0 0B4#00000000000000BC
(1485365678.997342) can0 224#0000000000000000
(1485365678.999155) can0 3A0#0000000000000013
(1485365679.002786) can0 4C8#0900010700000000
(1485365679.006260) can0 0B2#000000000000
(1485365679.006389) can0 0B0#000000000000
(1485365679.007883) can0 2C4#041100130000A298
(1485365679.008046) can0 260#0800000000000274
(1485365679.016306) can0 0B2#000000000001
(1485365679.016464) can0 0B0#000000000001
(1485365679.016828) can0 0B4#00000000000000BC
(1485365679.017833) can0 2C1#08FFDAFFDA000085
(1485365679.026362) can0 0B2#000000000002
(1485365679.026473) can0 0B0#000000000002
(1485365679.026766) can0 223#0000007FE000008C
(1485365679.027059) can0 224#0000000000000000
(1485365679.027859) can0 2C4#041200130000A299
(1485365679.028180) can0 260#080000000000097B
(1485365679.036361) can0 0B2#000000000003
(1485365679.036445) can0 0B0#000000000003
(1485365679.036814) can0 0B4#00000000000000BC
(1485365679.046210) can0 0B2#000000000004
(1485365679.046431) can0 0B0#000000000004
(1485365679.048307) can0 260#0800000000000B7D
(1485365679.048928) can0 2C1#08FFDDFFDA000088
(1485365679.049174) can0 2C4#041100130000A298
(1485365679.056354) can0 0B2#000000000005
(1485365679.056551) can0 0B0#000000000005
(1485365679.056801) can0 223#0000007FE000008C
(1485365679.057051) can0 0B4#00000000000000BC
(1485365679.057301) can0 224#0000000000000000
(1485365679.057574) can0 3B7#0000000000000000
(1485365679.058302) can0 440#4202000007000000
(1485365679.066178) can0 0B2#000000000006
(1485365679.066402) can0 0B0#000000000006
(1485365679.067776) can0 2C4#041300130000A29A
(1485365679.068501) can0 260#0800000000000375
(1485365679.076228) can0 0B2#000000000007
(1485365679.076426) can0 0B0#000000000007
(1485365679.076726) can0 0B4#00000000000000BC
(1485365679.077775) can0 2C1#08FFD4FFD0000075
(1485365679.086303) can0 0B2#000000000008
(1485365679.086423) can0 0B0#000000000008
(1485365679.086696) can0 223#0000007FE000008C
(1485365679.086997) can0 224#0000000000000000
(1485365679.087825) can0 2C4#041600130000A29D
(1485365679.088803) can0 260#0800000000000476
(1485365679.096227) can0 0B2#000000000009
(1485365679.096449) can0 0B0#000000000009
(1485365679.096749) can0 0B4#00000000000000BC
(1485365679.099051) can0 3A0#0000000000000013
(1485365679.106199) can0 0B2#00000000000A
(1485365679.106424) can0 0B0#00000000000A
(1485365679.107776) can0 2C1#08FFC4FFC4000059
(1485365679.108001) can0 2C4#041700130000A29E
(1485365679.108976) can0 260#0800000000000A7C
(1485365679.116379) can0 0B2#00000000000B
(1485365679.116574) can0 0B0#00000000000B
(1485365679.116822) can0 223#0000007FE000008C
(1485365679.117070) can0 0B4#00000000000000BC
(1485365679.117324) can0 224#0000000000000000
(1485365679.126201) can0 0B2#00000000000C
(1485365679.126427) can0 0B0#00000000000C
(1485365679.127774) can0 2C4#041600130000A29D
(1485365679.129150) can0 260#0800000000FFFE6F
(1485365679.136305) can0 0B2#00000000000D
(1485365679.136490) can0 0B0#00000000000D
(1485365679.136777) can0 0B4#00000000000000BC
(1485365679.137777) can0 2C1#08FFC7FFC400005C
(1485365679.146304) can0 0B2#00000000000E
(1485365679.146502) can0 0B0#00000000000E
(1485365679.146752) can0 223#0000007FE000008C
(1485365679.147052) can0 224#0000000000000000
(1485365679.147802) can0 2C4#041700130000A29E
(1485365679.149404) can0 260#0800000000FFFF70
(1485365679.156303) can0 0B2#00000000000F
(1485365679.156502) can0 0B0#00000000000F
(1485365679.156776) can0 0B4#00000000000000BC
(1485365679.158825) can0 442#4002000003000000
(1485365679.166154) can0 0B2#000000000000
(1485365679.166377) can0 0B0#000000000000
(1485365679.167753) can0 2C1#08FFBAFFBD000048
(1485365679.168002) can0 2C4#041800130000A29F
(1485365679.169577) can0 260#0800000000FFFB6C
(1485365679.176327) can0 0B2#000000000001
(1485365679.176525) can0 0B0#000000000001
(1485365679.176775) can0 223#0000007FE000008C
(1485365679.177025) can0 0B4#00000000000000BC
(1485365679.177300) can0 224#0000000000000000
(1485365679.179152) can0 610#2000006400000000
(1485365679.186201) can0 0B2#000000000002
(1485365679.186427) can0 0B0#000000000002
(1485365679.187777) can0 2C4#041700130000A29E
(1485365679.189754) can0 260#0800000000000072
(1485365679.196302) can0 0B2#000000000003
(1485365679.196477) can0 0B0#000000000003
(1485365679.196777) can0 0B4#00000000000000BC
(1485365679.197777) can0 2C1#08FFCAFFBA000055
(1485365679.199052) can0 3A0#0000000000000013
(1485365679.204702) can0 4ED#5C00000000000000
(1485365679.206302) can0 0B2#000000000004
(1485365679.206479) can0 0B0#000000000004
(1485365679.206727) can0 223#0000007FE000008C
(1485365679.207028) can0 224#0000000000000000
(1485365679.207803) can0 2C4#041400130000A29B
(1485365679.210028) can0 260#0800000000FFFC6D
(1485365679.212730) can0 398#07F9
(1485365679.216304) can0 0B2#000000000005
(1485365679.216502) can0 0B0#000000000005
(1485365679.216777) can0 0B4#00000000000000BC
(1485365679.226206) can0 0B2#000000000006
(1485365679.226339) can0 0B0#000000000006
(1485365679.228059) can0 2C1#08FFCAFFC7000062
(1485365679.228306) can0 2C4#041400130000A29B
(1485365679.229110) can0 4DC#1D00010900000000
(1485365679.230261) can0 260#0800000000FFFE6F
(1485365679.236364) can0 0B2#000000000007
(1485365679.236470) can0 0B0#000000000007
(1485365679.236766) can0 223#0000007FE000008C
(1485365679.237000) can0 0B4#00000000000000BC
(1485365679.237340) can0 224#0000000000000000
(1485365679.243636) can0 620#1000000030600050
(1485365679.246363) can0 0B2#000000000008
(1485365679.246447) can0 0B0#000000000008
(1485365679.247835) can0 2C4#041500130000A29C
(1485365679.250440) can0 260#0800000000FFFC6D
(1485365679.256365) can0 0B2#000000000009
(1485365679.256469) can0 0B0#000000000009
(1485365679.256774) can0 0B4#00000000000000BC
(1485365679.257836) can0 2C1#08FFC0FFBD00004E
(1485365679.257998) can0 440#4202000007000000
(1485365679.266365) can0 0B2#00000000000A
(1485365679.266498) can0 0B0#00000000000A
(1485365679.266793) can0 223#0000007FE000008C
(1485365679.267060) can0 224#0000000000000000
(1485365679.269015) can0 2C4#041600130000A29D
(1485365679.269125) can0 3B0#0000003200
(1485365679.269313) can0 3B3#041600
(1485365679.270687) can0 260#0800000000FFFC6D
(1485365679.275368) can0 394#00
(1485365679.276308) can0 0B2#00000000000B
(1485365679.276464) can0 0B0#00000000000B
(1485365679.276816) can0 0B4#00000000000000BC
(1485365679.286212) can0 0B2#00000000000C
(1485365679.286362) can0 0B0#00000000000C
(1485365679.287837) can0 2C1#08FFC4FFBA00004F
(1485365679.288002) can0 2C4#041500130000A29C
(1485365679.290865) can0 260#0800000000000678
(1485365679.296364) can0 0B2#00000000000D
(1485365679.296500) can0 0B0#00000000000D
(1485365679.296802) can0 223#0000007FE000008C
(1485365679.297011) can0 0B4#00000000000000BC
(1485365679.297343) can0 224#0000000000000000
(1485365679.299111) can0 3A0#0000000000000014
(1485365679.306262) can0 0B2#00000000000E
(1485365679.306387) can0 0B0#00000000000E
(1485365679.307834) can0 2C4#041300130000A29A
(1485365679.311024) can0 260#08000C0000000B89
(1485365679.316262) can0 0B2#00000000000F
(1485365679.316412) can0 0B0#00000000000F
(1485365679.316734) can0 0B4#00000000000000BC
(1485365679.317811) can0 2C1#08FFC7FFC400005C
(1485365679.321572) can0 38A#0804000000
(1485365679.326289) can0 0B2#000000000000
(1485365679.326411) can0 0B0#000000000000
(1485365679.326713) can0 223#0000007FE000008C
(1485365679.327036) can0 224#0000000000000000
(1485365679.327832) can0 2C4#041300130000A29A
(1485365679.329113) can0 380#00A0043000000300
(1485365679.331361) can0 260#08002400000014AA
(1485365679.336264) can0 0B2#000000000001
(1485365679.336411) can0 0B0#000000000001
(1485365679.336734) can0 0B4#00000000000000BC
(1485365679.346212) can0 0B2#000000000002
(1485365679.346337) can0 0B0#000000000002
(1485365679.347811) can0 2C1#08FFCAFFC7000062
(1485365679.347977) can0 2C4#041300130000A29A
(1485365679.348361) can0 442#4002000003000000
(1485365679.351486) can0 260#0800140000FFF176
(1485365679.356365) can0 0B2#000000000003
(1485365679.356473) can0 0B0#000000000003
(1485365679.356794) can0 223#0000007FE000008C
(1485365679.356963) can0 0B4#00000000000000BC
(1485365679.357232) can0 224#0000000000000000
(1485365679.357590) can0 3B7#0000000000000000
(1485365679.366189) can0 0B2#000000000004
(1485365679.366338) can0 0B0#000000000004
(1485365679.367835) can0 2C4#041300130000A29A
(1485365679.371665) can0 260#08FFEE0000FFCD2B
(1485365679.376266) can0 0B2#000000000005
(1485365679.376388) can0 0B0#000000000005
(1485365679.376732) can0 0B4#00000000000000BC
(1485365679.377812) can0 2C1#08FFC7FFC400005C
(1485365679.386290) can0 0B2#000000000006
(1485365679.386437) can0 0B0#000000000006
(1485365679.386713) can0 223#0000007FE000008C
(1485365679.386985) can0 224#0000000000000000
(1485365679.387859) can0 2C4#041500130000A29C
(1485365679.391849) can0 260#08FFE80000FFE53D
(1485365679.396230) can0 0B2#000000000007
(1485365679.396443) can0 0B0#000000000007
(1485365679.396727) can0 0B4#00000000000000BC
(1485365679.399113) can0 3A0#0000000000000014
(1485365679.406240) can0 0B2#000000000008
(1485365679.406388) can0 0B0#000000000008
(1485365679.407810) can0 2C1#08FFC4FFBA00004F
(1485365679.407976) can0 2C4#041400130000A29B
(1485365679.412112) can0 260#08FFF80000FFF75F
(1485365679.416416) can0 0B2#000000000009
(1485365679.416525) can0 0B0#000000000009
(1485365679.416830) can0 223#0000007FE000008C
(1485365679.417037) can0 0B4#00000000000000BC
(1485365679.417356) can0 224#0000000000000000
(1485365679.426213) can0 0B2#00000000000A
(1485365679.426342) can0 0B0#00000000000A
(1485365679.427810) can0 2C4#041200130000A299
(1485365679.432193) can0 260#08000A000000017D
(1485365679.436292) can0 0B2#00000000000B
(1485365679.436412) can0 0B0#00000000000B
(1485365679.436736) can0 0B4#00000000000000BC
(1485365679.437837) can0 2C1#08FFD7FFC700006F
(1485365679.446290) can0 0B2#00000000000C
(1485365679.446411) can0 0B0#00000000000C
(1485365679.446716) can0 223#0000007FE000008C
(1485365679.446987) can0 224#0000000000000000
(1485365679.447732) can0 440#4202000007000000
(1485365679.448234) can0 2C4#041000130000A297
(1485365679.452493) can0 260#0800100000000385
(1485365679.456292) can0 0B2#00000000000D
(1485365679.456436) can0 0B0#00000000000D
(1485365679.456736) can0 0B4#00000000000000BC
(1485365679.466213) can0 0B2#00000000000E
(1485365679.466339) can0 0B0#00000000000E
(1485365679.467816) can0 2C1#08FFE0FFD4000085
(1485365679.467978) can0 2C4#040D00130000A294
(1485365679.472617) can0 260#0800040000FFFE73
(1485365679.476367) can0 0B2#00000000000F
(1485365679.476501) can0 0B0#00000000000F
(1485365679.476802) can0 223#0000007FE000008C
(1485365679.477013) can0 0B4#00000000000000BC
(1485365679.477357) can0 224#0000000000000000
(1485365679.477825) can0 4C1#0100500500000000
(1485365679.486211) can0 0B2#000000000000
(1485365679.486365) can0 0B0#000000000000
(1485365679.487817) can0 2C4#040B00130000A292
(1485365679.492785) can0 260#08FFF40000FFF65A
(1485365679.496291) can0 0B2#000000000001
(1485365679.496421) can0 0B0#000000000001
(1485365679.496786) can0 0B4#00000000000000BC
(1485365679.497817) can0 2C1#08FFEDFFEA0000A8
(1485365679.499114) can0 3A0#0000000000000014
(1485365679.506367) can0 0B2#000000000002
(1485365679.506458) can0 0B0#000000000002
(1485365679.506741) can0 223#0000007FE000008C
(1485365679.507003) can0 224#0000000000000000
(1485365679.507333) can0 4C3#0400300500000000
(1485365679.508718) can0 2C4#040A00130000A291
(1485365679.512970) can0 260#08FFF60000FFFA60
(1485365679.516254) can0 0B2#000000000003
(1485365679.516468) can0 0B0#000000000003
(1485365679.516801) can0 0B4#00000000000000BC
(1485365679.526208) can0 0B2#000000000004
(1485365679.526375) can0 0B0#000000000004
(1485365679.527962) can0 2C1#08FFF4FFED0000B2
(1485365679.528133) can0 2C4#040A00130000A291
(1485365679.533289) can0 260#0800040000000379
(1485365679.536329) can0 0B2#000000000005
(1485365679.536552) can0 0B0#000000000005
(1485365679.536771) can0 223#0000007FE000008C
(1485365679.537054) can0 0B4#00000000000000BC
(1485365679.537334) can0 224#0000000000000000
(1485365679.538715) can0 442#4002000003000000
(1485365679.543266) can0 620#1000000030600050
(1485365679.546293) can0 0B2#000000000006
(1485365679.546423) can0 0B0#000000000006
(1485365679.547814) can0 2C4#040B00130000A292
(1485365679.553391) can0 260#08000C0000000583
(1485365679.556292) can0 0B2#000000000007
(1485365679.556446) can0 0B0#000000000007
(1485365679.556735) can0 0B4#00000000000000BC
(1485365679.558017) can0 2C1#08FFF0FFED0000AE
(1485365679.566364) can0 0B2#000000000008
(1485365679.566453) can0 0B0#000000000008
(1485365679.566732) can0 223#0000007FE000008C
(1485365679.567018) can0 224#0000000000000000
(1485365679.567833) can0 2C4#040C00130000A293
(1485365679.573534) can0 260#080005000000047B
(1485365679.576368) can0 0B2#000000000009
(1485365679.576458) can0 0B0#000000000009
(1485365679.576821) can0 0B4#00000000000000BC
(1485365679.578510) can0 394#00
(1485365679.586192) can0 0B2#00000000000A
(1485365679.586348) can0 0B0#00000000000A
(1485365679.587839) can0 2C1#08FFE0FFEA00009B
(1485365679.588014) can0 2C4#040F00130000A296
(1485365679.593794) can0 260#08FFF80000FFFF67
(1485365679.596367) can0 0B2#00000000000B
(1485365679.596463) can0 0B0#00000000000B
(1485365679.596733) can0 223#0000007FE000008C
(1485365679.597004) can0 0B4#00000000000000BC
(1485365679.597342) can0 224#0000000000000000
(1485365679.599114) can0 3A0#0000000000000014
(1485365679.606218) can0 0B2#00000000000C
(1485365679.606339) can0 0B0#00000000000C
(1485365679.607739) can0 621#1100000000000000
(1485365679.607904) can0 2C4#041300130000A29A
(1485365679.613994) can0 260#08FFF70000FFFB62
(1485365679.616269) can0 0B2#00000000000D
(1485365679.616414) can0 0B0#00000000000D
(1485365679.616735) can0 0B4#00000000000000BC
(1485365679.617718) can0 622#1200000000000000
(1485365679.617963) can0 2C1#08FFD0FFCD00006E
(1485365679.626367) can0 0B2#00000000000E
(1485365679.626460) can0 0B0#00000000000E
(1485365679.626738) can0 223#0000007FE000008C
(1485365679.626983) can0 624#1A0057FFFF400000
(1485365679.627235) can0 224#0000000000000000
(1485365679.627821) can0 2C4#041400130000A29B
(1485365679.634192) can0 260#0800020000000175
(1485365679.635965) can0 630#1700000000000000
(1485365679.636345) can0 0B2#00000000000F
(1485365679.636471) can0 0B0#00000000000F
(1485365679.636773) can0 0B4#00000000000000BC
(1485365679.637508) can0 440#4202000007000000
(1485365679.645168) can0 638#1300110000000000
(1485365679.646261) can0 0B2#000000000000
(1485365679.646388) can0 0B0#000000000000
(1485365679.647815) can0 2C1#08FFCAFFCA000065
(1485365679.647949) can0 2C4#041500130000A29C
(1485365679.654386) can0 260#08000A0000000480
(1485365679.656393) can0 0B2#000000000001
(1485365679.656535) can0 0B0#000000000001
(1485365679.656831) can0 223#0000007FE000008C
(1485365679.657044) can0 0B4#00000000000000BC
(1485365679.657361) can0 224#0000000000000000
(1485365679.657599) can0 3B7#0000000000000000
(1485365679.666243) can0 0B2#000000000002
(1485365679.666401) can0 0B0#000000000002
(1485365679.667812) can0 2C4#041300130000A29A
(1485365679.674586) can0 260#080004000000047A
(1485365679.676368) can0 0B2#000000000003
(1485365679.676452) can0 0B0#000000000003
(1485365679.676772) can0 0B4#00000000000000BC
(1485365679.677814) can0 2C1#08FFD7FFCA000072
(1485365679.679286) can0 610#2000006400000000
(1485365679.686289) can0 0B2#000000000004
(1485365679.686424) can0 0B0#000000000004
(1485365679.686717) can0 223#0000007FE000008C
(1485365679.686990) can0 224#0000000000000000
(1485365679.687804) can0 2C4#041100130000A298
(1485365679.689367) can0 611#2100201200021DB5
(1485365679.694723) can0 260#08FFFA0000FFFF69
(1485365679.696290) can0 0B2#000000000005
(1485365679.696415) can0 0B0#000000000005
(1485365679.696784) can0 0B4#00000000000000BC
(1485365679.699063) can0 3A0#0000000000000013
(1485365679.699657) can0 640#A8000032020E0000
(1485365679.706242) can0 0B2#000000000006
(1485365679.706364) can0 0B0#000000000006
(1485365679.707840) can0 2C1#08FFDAFFD400007F
(1485365679.708005) can0 2C4#041000130000A297
(1485365679.714844) can0 260#08FFF80000000069
(1485365679.716395) can0 0B2#000000000007
(1485365679.716527) can0 0B0#000000000007
(1485365679.716828) can0 223#0000007FE000008C
(1485365679.717059) can0 0B4#00000000000000BC
(1485365679.717363) can0 224#0000000000000000
(1485365679.721692) can0 3B4#000035B800000000
(1485365679.726245) can0 0B2#000000000008
(1485365679.726364) can0 0B0#000000000008
(1485365679.727790) can0 2C4#041000130000A297
(1485365679.728844) can0 442#4002000003000000
(1485365679.735216) can0 260#0800020000000074
(1485365679.736293) can0 0B2#000000000009
(1485365679.736440) can0 0B0#000000000009
(1485365679.736737) can0 0B4#00000000000000BC
(1485365679.737813) can0 2C1#08FFDDFFDA000088
(1485365679.746241) can0 0B2#00000000000A
(1485365679.746391) can0 0B0#00000000000A
(1485365679.746692) can0 223#0000007FE000008C
(1485365679.746975) can0 224#0000000000000000
(1485365679.748991) can0 2C4#041000130000A297
(1485365679.755244) can0 260#0800070000FFFC74
(1485365679.756229) can0 0B2#00000000000B
(1485365679.756392) can0 0B0#00000000000B
(1485365679.756737) can0 0B4#00000000000000BC
(1485365679.766244) can0 0B2#00000000000C
(1485365679.766393) can0 0B0#00000000000C
(1485365679.767815) can0 2C1#08FFDDFFDD00008B
(1485365679.767979) can0 2C4#041000130000A297
(1485365679.768169) can0 3B3#041000
(1485365679.775620) can0 260#0800030000000378
(1485365679.776367) can0 0B2#00000000000D
(1485365679.776532) can0 0B0#00000000000D
(1485365679.776800) can0 223#0000007FE000008C
(1485365679.777033) can0 0B4#00000000000000BC
(1485365679.777362) can0 224#0000000000000000
(1485365679.786245) can0 0B2#00000000000E
(1485365679.786393) can0 0B0#00000000000E
(1485365679.787816) can0 2C4#041200130000A299
(1485365679.795642) can0 260#08FFFB0000FFFC67
(1485365679.796330) can0 0B2#00000000000F
(1485365679.796413) can0 0B0#00000000000F
(1485365679.796738) can0 0B4#00000000000000BC
(1485365679.797793) can0 2C1#08FFD4FFD0000075
(1485365679.799064) can0 3A0#0000000000000013
(1485365679.806294) can0 0B2#000000000000
(1485365679.806417) can0 0B0#000000000000
(1485365679.806719) can0 223#0000007FE000008C
(1485365679.806989) can0 224#0000000000000000
(1485365679.807837) can0 2C4#041300130000A29A
(1485365679.816020) can0 260#08FFF9000000016B
(1485365679.816206) can0 0B2#000000000001
(1485365679.816442) can0 0B0#000000000001
(1485365679.816738) can0 0B4#00000000000000BC
(1485365679.826192) can0 0B2#000000000002
(1485365679.826343) can0 0B0#000000000002
(1485365679.827262) can0 440#4202000007000000
(1485365679.827738) can0 2C1#08FFCAFFCD000068
(1485365679.827991) can0 2C4#041500130000A29C
(1485365679.836220) can0 260#0800010000FFFC6E
(1485365679.836369) can0 0B2#000000000003
(1485365679.836611) can0 0B0#000000000003
(1485365679.836851) can0 223#0000007FE000008C
(1485365679.837134) can0 0B4#00000000000000BC
(1485365679.837346) can0 224#0000000000000000
(1485365679.842921) can0 620#1000000030600050
(1485365679.846216) can0 0B2#000000000004
(1485365679.846367) can0 0B0#000000000004
(1485365679.847790) can0 2C4#041500130000A29C
(1485365679.856245) can0 0B2#000000000005
(1485365679.856392) can0 0B0#000000000005
(1485365679.856682) can0 260#080006000000067E
(1485365679.856903) can0 0B4#00000000000000BC
(1485365679.858992) can0 2C1#08FFCAFFC7000062
(1485365679.866245) can0 0B2#000000000006
(1485365679.866393) can0 0B0#000000000006
(1485365679.866672) can0 223#0000007FE000008C
(1485365679.866976) can0 224#0000000000000000
(1485365679.867811) can0 2C4#041500130000A29C
(1485365679.876245) can0 0B2#000000000007
(1485365679.876366) can0 0B0#000000000007
(1485365679.876651) can0 260#0800020000000074
(1485365679.876921) can0 0B4#00000000000000BC
(1485365679.881572) can0 394#00
(1485365679.886167) can0 0B2#000000000008
(1485365679.886292) can0 0B0#000000000008
(1485365679.887817) can0 2C1#08FFC7FFC400005C
(1485365679.887981) can0 2C4#041500130000A29C
(1485365679.896367) can0 0B2#000000000009
(1485365679.896451) can0 0B0#000000000009
(1485365679.896740) can0 223#0000007FE000008C
(1485365679.896977) can0 0B4#00000000000000BC
(1485365679.897236) can0 224#0000000000000000
(1485365679.897487) can0 260#08FFFC000000006D
(1485365679.899067) can0 3A0#0000000000000013
(1485365679.906192) can0 0B2#00000000000A
(1485365679.906341) can0 0B0#00000000000A
(1485365679.907792) can0 2C4#041500130000A29C
(1485365679.916192) can0 0B2#00000000000B
(1485365679.916390) can0 0B0#00000000000B
(1485365679.916748) can0 0B4#00000000000000BC
(1485365679.916918) can0 260#08FFFB0000FFFD68
(1485365679.917794) can0 2C1#08FFC0FFC0000051
(1485365679.919540) can0 442#4002000003000000
(1485365679.926291) can0 0B2#00000000000C
(1485365679.926437) can0 0B0#00000000000C
(1485365679.926736) can0 223#0000007FE000008C
(1485365679.927036) can0 224#0000000000000000
(1485365679.928003) can0 2C4#041600130000A29D
(1485365679.936370) can0 0B2#00000000000D
(1485365679.936449) can0 0B0#00000000000D
(1485365679.936780) can0 0B4#00000000000000BC
(1485365679.937262) can0 260#0800010000FFFF71
(1485365679.946187) can0 0B2#00000000000E
(1485365679.946346) can0 0B0#00000000000E
(1485365679.947817) can0 2C1#08FFB7FFBD000045
(1485365679.947975) can0 2C4#041800130000A29F
(1485365679.956371) can0 0B2#00000000000F
(1485365679.956468) can0 0B0#00000000000F
(1485365679.956740) can0 223#0000007FE000008C
(1485365679.957039) can0 0B4#00000000000000BC
(1485365679.957355) can0 224#0000000000000000
(1485365679.957492) can0 260#0800050000000077
(1485365679.957814) can0 3B7#0000000000000000
(1485365679.963620) can0 4DD#1E00000500000000
(1485365679.966193) can0 0B2#000000000000
(1485365679.966341) can0 0B0#000000000000
(1485365679.968948) can0 2C4#041900130000A2A0
(1485365679.973670) can0 3B1#0000022A00000000
(1485365679.976271) can0 0B2#000000000001
(1485365679.976387) can0 0B0#000000000001
(1485365679.976760) can0 0B4#00000000000000BC
(1485365679.977792) can0 2C1#08FFA7FFA400001C
(1485365679.977954) can0 260#0800020000000074
(1485365679.986264) can0 0B2#000000000002
(1485365679.986417) can0 0B0#000000000002
(1485365679.986692) can0 223#0000007FE000008C
(1485365679.986989) can0 224#0000000000000000
(1485365679.987840) can0 2C4#041A00130000A2A1
(1485365679.992737) can0 4C8#0900010700000000
(1485365679.996227) can0 0B2#000000000003
(1485365679.996386) can0 0B0#000000000003
(1485365679.996711) can0 0B4#00000000000000BC
(1485365679.997935) can0 260#08FFFD0000FFFE6B
(1485365679.999011) can0 3A0#0000000000000013
(1485365680.006194) can0 0B2#000000000004
(1485365680.006349) can0 0B0#000000000004
(1485365680.007818) can0 2C1#08FFA7FFA0000018
(1485365680.007958) can0 2C4#041900130000A2A0
(1485365680.016372) can0 0B2#000000000005
(1485365680.016481) can0 0B0#000000000005
(1485365680.016776) can0 223#0000007FE000008C
(1485365680.017010) can0 0B4#00000000000000BC
(1485365680.017346) can0 224#0000000000000000
(1485365680.017476) can0 440#4202000007000000
(1485365680.018272) can0 260#08FFFD0000FFFE6B
(1485365680.026219) can0 0B2#000000000006
(1485365680.026348) can0 0B0#000000000006
(1485365680.027743) can0 2C4#041700130000A29E
(1485365680.036272) can0 0B2#000000000007
(1485365680.036421) can0 0B0#000000000007
(1485365680.036741) can0 0B4#00000000000000BC
(1485365680.038021) can0 2C1#08FFB0FFAD00002E
(1485365680.038364) can0 260#0800010000FFFD6F
(1485365680.046298) can0 0B2#000000000008
(1485365680.046420) can0 0B0#000000000008
(1485365680.046737) can0 223#0000007FE000008C
(1485365680.047012) can0 224#0000000000000000
(1485365680.047786) can0 2C4#041500130000A29C
(1485365680.056228) can0 0B2#000000000009
(1485365680.056443) can0 0B0#000000000009
(1485365680.056739) can0 0B4#00000000000000BC
(1485365680.058640) can0 260#0800040000FFFB70
(1485365680.066219) can0 0B2#00000000000A
(1485365680.066347) can0 0B0#00000000000A
(1485365680.067794) can0 2C1#08FFBDFFB7000045
(1485365680.067958) can0 2C4#041400130000A29B
(1485365680.076371) can0 0B2#00000000000B
(1485365680.076483) can0 0B0#00000000000B
(1485365680.076775) can0 223#0000007FE000008C
(1485365680.077017) can0 0B4#00000000000000BC
(1485365680.077347) can0 224#0000000000000000
(1485365680.078869) can0 260#0800020000FFFE71
(1485365680.086218) can0 0B2#00000000000C
(1485365680.086348) can0 0B0#00000000000C
(1485365680.087793) can0 2C4#041300130000A29A
(1485365680.096298) can0 0B2#00000000000D
(1485365680.096445) can0 0B0#00000000000D
(1485365680.096741) can0 0B4#00000000000000BC
(1485365680.097781) can0 2C1#08FFC4FFBD000052
(1485365680.099044) can0 3A0#0000000000000013
(1485365680.099209) can0 260#08FFFF0000FFFA69
(1485365680.106250) can0 0B2#00000000000E
(1485365680.106398) can0 0B0#00000000000E
(1485365680.106695) can0 223#0000007FE000008C
(1485365680.106992) can0 224#0000000000000000
(1485365680.107816) can0 2C4#041200130000A299
(1485365680.108713) can0 442#4002000003000000
(1485365680.116248) can0 0B2#00000000000F
(1485365680.116374) can0 0B0#00000000000F
(1485365680.116722) can0 0B4#00000000000000BC
(1485365680.119241) can0 260#08FFFF0000FFFD6C
(1485365680.126168) can0 0B2#000000000000
(1485365680.126321) can0 0B0#000000000000
(1485365680.127791) can0 2C1#08FFD0FFC0000061
(1485365680.127960) can0 2C4#041000130000A297
(1485365680.136373) can0 0B2#000000000001
(1485365680.136457) can0 0B0#000000000001
(1485365680.136776) can0 223#0000007FE000008C
(1485365680.136999) can0 0B4#00000000000000BC
(1485365680.137234) can0 224#0000000000000000
(1485365680.139493) can0 260#0800020000FFFC6F
(1485365680.142469) can0 620#1000000030600050
(1485365680.146295) can0 0B2#000000000002
(1485365680.146424) can0 0B0#000000000002
(1485365680.148198) can0 2C4#040E00130000A295
(1485365680.156300) can0 0B2#000000000003
(1485365680.156446) can0 0B0#000000000003
(1485365680.156741) can0 0B4#00000000000000BC
(1485365680.157794) can0 2C1#08FFDAFFD000007B
(1485365680.159667) can0 260#0800030000FFFE72
(1485365680.166374) can0 0B2#000000000004
(1485365680.166458) can0 0B0#000000000004
(1485365680.166749) can0 223#0000007FE000008C
(1485365680.167055) can0 224#0000000000000000
(1485365680.167794) can0 2C4#040E00130000A295
(1485365680.176372) can0 0B2#000000000005
(1485365680.176456) can0 0B0#000000000005
(1485365680.176776) can0 0B4#00000000000000BC
(1485365680.179019) can0 610#2000006400000000
(1485365680.179841) can0 260#0800010000FFFD6F
(1485365680.184597) can0 394#00
(1485365680.186216) can0 0B2#000000000006
(1485365680.186374) can0 0B0#000000000006
(1485365680.187793) can0 2C1#08FFDDFFD7000085
(1485365680.187960) can0 2C4#040D00130000A294
(1485365680.196398) can0 0B2#000000000007
(1485365680.196503) can0 0B0#000000000007
(1485365680.196805) can0 223#0000007FE000008C
(1485365680.197039) can0 0B4#00000000000000BC
(1485365680.197348) can0 224#0000000000000000
(1485365680.199045) can0 3A0#0000000000000013
(1485365680.200094) can0 260#0800000000FFFC6D
(1485365680.204470) can0 4ED#5C00000000000000
(1485365680.206190) can0 0B2#000000000008
(1485365680.206349) can0 0B0#000000000008
(1485365680.206870) can0 440#4202000007000000
(1485365680.208472) can0 2C4#040C00130000A293
(1485365680.216298) can0 0B2#000000000009
(1485365680.216423) can0 0B0#000000000009
(1485365680.216736) can0 0B4#00000000000000BC
(1485365680.217765) can0 2C1#08FFE0FFDD00008E
(1485365680.220298) can0 260#0800000000000476
(1485365680.226297) can0 0B2#00000000000A
(1485365680.226446) can0 0B0#00000000000A
(1485365680.226741) can0 223#0000007FE000008C
(1485365680.227038) can0 224#0000000000000000
(1485365680.227813) can0 2C4#040C00130000A293
(1485365680.229024) can0 4DC#1D00010900000000
(1485365680.236298) can0 0B2#00000000000B
(1485365680.236424) can0 0B0#00000000000B
(1485365680.236743) can0 0B4#00000000000000BC
(1485365680.240471) can0 260#080001000000087B
(1485365680.246218) can0 0B2#00000000000C
(1485365680.246345) can0 0B0#00000000000C
(1485365680.247791) can0 2C1#08FFE0FFDD00008E
(1485365680.247945) can0 2C4#040D00130000A294
(1485365680.256372) can0 0B2#00000000000D
(1485365680.256481) can0 0B0#00000000000D
(1485365680.256798) can0 223#0000007FE000008C
(1485365680.257011) can0 0B4#00000000000000BC
(1485365680.257348) can0 224#0000000000000000
(1485365680.257551) can0 3B7#0000000000000000
(1485365680.260724) can0 260#0800020000FFFE71
(1485365680.266142) can0 0B2#00000000000E
(1485365680.266294) can0 0B0#00000000000E
(1485365680.267796) can0 2C4#040D00130000A294
(1485365680.267880) can0 3B3#040D00
(1485365680.268998) can0 3B0#0000003200
(1485365680.276222) can0 0B2#00000000000F
(1485365680.276372) can0 0B0#00000000000F
(1485365680.276724) can0 0B4#00000000000000BC
(1485365680.277771) can0 2C1#08FFE0FFDD00008E
(1485365680.280892) can0 260#0800010000FFFC6E
(1485365680.286373) can0 0B2#000000000000
(1485365680.286456) can0 0B0#000000000000
(1485365680.286735) can0 223#0000007FE000008C
(1485365680.287029) can0 224#0000000000000000
(1485365680.287816) can0 2C4#040C00130000A293
(1485365680.296298) can0 0B2#000000000001
(1485365680.296444) can0 0B0#000000000001
(1485365680.296742) can0 0B4#00000000000000BC
(1485365680.298746) can0 442#4002000003000000
(1485365680.298927) can0 3A0#0000000000000013
(1485365680.301071) can0 260#0800000000FFFF70
(1485365680.306222) can0 0B2#000000000002
(1485365680.306343) can0 0B0#000000000002
(1485365680.307794) can0 2C1#08FFEAFFE000009B
(1485365680.307957) can0 2C4#040B00130000A292
(1485365680.316342) can0 0B2#000000000003
(1485365680.316496) can0 0B0#000000000003
(1485365680.316815) can0 223#0000007FE000008C
(1485365680.317037) can0 0B4#00000000000000BC
(1485365680.317363) can0 224#0000000000000000
(1485365680.321371) can0 260#0800000000FFFD6E
(1485365680.326170) can0 0B2#000000000004
(1485365680.326320) can0 0B0#000000000004
(1485365680.327797) can0 2C4#040A00130000A291
(1485365680.329050) can0 380#00A0043000000300
(1485365680.336244) can0 0B2#000000000005
(1485365680.336371) can0 0B0#000000000005
(1485365680.336725) can0 0B4#00000000000000BC
(1485365680.338772) can0 2C1#08FFF7FFED0000B5
(1485365680.341523) can0 260#0800010000000174
(1485365680.346247) can0 0B2#000000000006
(1485365680.346370) can0 0B0#000000000006
(1485365680.346652) can0 223#0000007FE000008C
(1485365680.346993) can0 224#0000000000000000
(1485365680.347793) can0 2C4#040900130000A290
(1485365680.356249) can0 0B2#000000000007
(1485365680.356372) can0 0B0#000000000007
(1485365680.356724) can0 0B4#00000000000000BC
(1485365680.361700) can0 260#0800010000000A7D
(1485365680.366147) can0 0B2#000000000008
(1485365680.366296) can0 0B0#000000000008
(1485365680.367771) can0 2C1#08FFFAFFF40000BF
(1485365680.367955) can0 2C4#040900130000A290
(1485365680.376375) can0 0B2#000000000009
(1485365680.376457) can0 0B0#000000000009
(1485365680.376775) can0 223#0000007FE000008C
(1485365680.376960) can0 0B4#00000000000000BC
(1485365680.377242) can0 224#0000000000000000
(1485365680.381948) can0 260#0800010000FFFC6E
(1485365680.386145) can0 0B2#00000000000A
(1485365680.386297) can0 0B0#00000000000A
(1485365680.387796) can0 2C4#040B00130000A292
(1485365680.387961) can0 4C1#0100500500000000
(1485365680.396225) can0 0B2#00000000000B
(1485365680.396346) can0 0B0#00000000000B
(1485365680.396615) can0 440#4202000007000000
(1485365680.396865) can0 0B4#00000000000000BC
(1485365680.397791) can0 2C1#08FFF0FFF00000B1
(1485365680.399721) can0 3A0#0000000000000013
(1485365680.402121) can0 260#0800000000FFFE6F
(1485365680.406249) can0 0B2#00000000000C
(1485365680.406371) can0 0B0#00000000000C
(1485365680.406652) can0 223#0000007FE000008C
(1485365680.406976) can0 224#0000000000000000
(1485365680.408044) can0 2C4#040C00130000A293
(1485365680.416250) can0 0B2#00000000000D
(1485365680.416395) can0 0B0#00000000000D
(1485365680.416764) can0 0B4#00000000000000BC
(1485365680.421496) can0 38A#0804000000
(1485365680.422272) can0 260#0800000000000779
(1485365680.426175) can0 0B2#00000000000E
(1485365680.426296) can0 0B0#00000000000E
(1485365680.427772) can0 2C1#08FFF0FFED0000AE
(1485365680.427934) can0 2C4#040C00130000A293
(1485365680.436374) can0 0B2#00000000000F
(1485365680.436455) can0 0B0#00000000000F
(1485365680.436707) can0 223#0000007FE000008C
(1485365680.436958) can0 0B4#00000000000000BC
(1485365680.437245) can0 224#0000000000000000
(1485365680.437524) can0 4C3#0400300500000000
(1485365680.442015) can0 620#1000000030600050
(1485365680.442431) can0 260#0800000000FFFB6C
(1485365680.446207) can0 0B2#000000000000
(1485365680.446373) can0 0B0#000000000000
(1485365680.447769) can0 2C4#040C00130000A293
(1485365680.456277) can0 0B2#000000000001
(1485365680.456422) can0 0B0#000000000001
(1485365680.456744) can0 0B4#00000000000000BC
(1485365680.457797) can0 2C1#08FFF0FFED0000AE
(1485365680.462597) can0 260#0800000000FFFC6D
(1485365680.466250) can0 0B2#000000000002
(1485365680.466399) can0 0B0#000000000002
(1485365680.466675) can0 223#0000007FE000008C
(1485365680.466981) can0 224#0000000000000000
(1485365680.467946) can0 2C4#040D00130000A294
(1485365680.476207) can0 0B2#000000000003
(1485365680.476376) can0 0B0#000000000003
(1485365680.476715) can0 0B4#00000000000000BC
(1485365680.482624) can0 260#0800010000000174
(1485365680.486172) can0 0B2#000000000004
(1485365680.486296) can0 0B0#000000000004
(1485365680.487797) can0 2C1#08FFEDFFED0000AB
(1485365680.487959) can0 2C4#040E00130000A295
(1485365680.488056) can0 394#00
(1485365680.488464) can0 442#4002000003000000
(1485365680.496377) can0 0B2#000000000005
(1485365680.496442) can0 0B0#000000000005
(1485365680.496743) can0 223#0000007FE000008C
(1485365680.496990) can0 0B4#00000000000000BC
(1485365680.497244) can0 224#0000000000000000
(1485365680.499022) can0 3A0#0000000000000013
(1485365680.502999) can0 260#0800000000000375
(1485365680.506173) can0 0B2#000000000006
(1485365680.506322) can0 0B0#000000000006
(1485365680.507772) can0 2C4#040F00130000A296
(1485365680.516252) can0 0B2#000000000007
(1485365680.516372) can0 0B0#000000000007
(1485365680.516717) can0 0B4#00000000000000BC
(1485365680.517999) can0 2C1#08FFEAFFE70000A2
(1485365680.523202) can0 260#0800000000000375
(1485365680.526247) can0 0B2#000000000008
(1485365680.526399) can0 0B0#000000000008
(1485365680.526673) can0 223#0000007FE000008C
(1485365680.526979) can0 224#0000000000000000
(1485365680.527791) can0 2C4#041100130000A298
(1485365680.536250) can0 0B2#000000000009
(1485365680.536370) can0 0B0#000000000009
(1485365680.536722) can0 0B4#00000000000000BC
(1485365680.543399) can0 260#0800000000000A7C
(1485365680.546226) can0 0B2#00000000000A
(1485365680.546374) can0 0B0#00000000000A
(1485365680.547773) can0 2C1#08FFDAFFDD000088
(1485365680.547935) can0 2C4#041300130000A29A
(1485365680.556376) can0 0B2#00000000000B
(1485365680.556485) can0 0B0#00000000000B
(1485365680.556778) can0 223#0000007FE000008C
(1485365680.556986) can0 0B4#00000000000000BC
(1485365680.557351) can0 224#0000000000000000
(1485365680.557558) can0 3B7#0000000000000000
(1485365680.563453) can0 260#0800000000000A7C
(1485365680.566202) can0 0B2#00000000000C
(1485365680.566319) can0 0B0#00000000000C
(1485365680.567773) can0 2C4#041400130000A29B
(1485365680.576192) can0 0B2#00000000000D
(1485365680.576405) can0 0B0#00000000000D
(1485365680.576740) can0 0B4#00000000000000BC
(1485365680.578448) can0 2C1#08FFD7FFD0000078
(1485365680.583827) can0 260#0800000000000779
(1485365680.586270) can0 0B2#00000000000E
(1485365680.586399) can0 0B0#00000000000E
(1485365680.586708) can0 223#0000007FE000008C
(1485365680.586888) can0 440#4202000007000000
(1485365680.587177) can0 224#0000000000000000
(1485365680.587743) can0 2C4#041300130000A29A
(1485365680.596199) can0 0B2#00000000000F
(1485365680.596385) can0 0B0#00000000000F
(1485365680.596706) can0 0B4#00000000000000BC
(1485365680.598964) can0 3A0#0000000000000013
(1485365680.603945) can0 260#0800000000000274
(1485365680.606191) can0 0B2#000000000000
(1485365680.606320) can0 0B0#000000000000
(1485365680.606619) can0 621#1100000000000000
(1485365680.607773) can0 2C1#08FFDDFFD4000082
(1485365680.607935) can0 2C4#041100130000A298
(1485365680.616377) can0 0B2#000000000001
(1485365680.616460) can0 0B0#000000000001
(1485365680.616742) can0 223#0000007FE000008C
(1485365680.616993) can0 0B4#00000000000000BC
(1485365680.617243) can0 224#0000000000000000
(1485365680.617496) can0 622#1200000000000000
(1485365680.624229) can0 260#0800010000FFFE70
(1485365680.626145) can0 0B2#000000000002
(1485365680.626301) can0 0B0#000000000002
(1485365680.626657) can0 624#1A0057FFFF400000
(1485365680.628177) can0 2C4#041100130000A298
(1485365680.635903) can0 630#1700000000000000
(1485365680.636181) can0 0B2#000000000003
(1485365680.636371) can0 0B0#000000000003
(1485365680.636700) can0 0B4#00000000000000BC
(1485365680.637774) can0 2C1#08FFDDFFDD00008B
(1485365680.644253) can0 260#0800010000000D80
(1485365680.645099) can0 638#1300110000000000
(1485365680.646250) can0 0B2#000000000004
(1485365680.646373) can0 0B0#000000000004
(1485365680.646655) can0 223#0000007FE000008C
(1485365680.646995) can0 224#0000000000000000
(1485365680.647796) can0 2C4#041100130000A298
(1485365680.656251) can0 0B2#000000000005
(1485365680.656372) can0 0B0#000000000005
(1485365680.656746) can0 0B4#00000000000000BC
(1485365680.664625) can0 260#0800000000000173
(1485365680.666221) can0 0B2#000000000006
(1485365680.666350) can0 0B0#000000000006
(1485365680.667776) can0 2C1#08FFDAFFDA000085
(1485365680.667926) can0 2C4#041300130000A29A
(1485365680.676377) can0 0B2#000000000007
(1485365680.676507) can0 0B0#000000000007
(1485365680.676763) can0 223#0000007FE000008C
(1485365680.676996) can0 0B4#00000000000000BC
(1485365680.677351) can0 224#0000000000000000
(1485365680.678671) can0 442#4002000003000000
(1485365680.679370) can0 610#2000006400000000
(1485365680.684672) can0 260#0800000000FFFD6E
(1485365680.686219) can0 0B2#000000000008
(1485365680.686372) can0 0B0#000000000008
(1485365680.687649) can0 398#0800
(1485365680.688656) can0 2C4#041700130000A29E
(1485365680.689281) can0 611#2100201200021DB5
(1485365680.696204) can0 0B2#000000000009
(1485365680.696471) can0 0B0#000000000009
(1485365680.696726) can0 0B4#00000000000000BC
(1485365680.697747) can0 2C1#08FFC4FFC0000055
(1485365680.698998) can0 3A0#0000000000000013
(1485365680.699642) can0 640#A8000032020E0000
(1485365680.705027) can0 260#0800000000FFFF70
(1485365680.706295) can0 0B2#00000000000A
(1485365680.706423) can0 0B0#00000000000A
(1485365680.706727) can0 223#0000007FE000008C
(1485365680.706999) can0 224#0000000000000000
(1485365680.707798) can0 2C4#041700130000A29E
(1485365680.716275) can0 0B2#00000000000B
(1485365680.716427) can0 0B0#00000000000B
(1485365680.716745) can0 0B4#00000000000000BC
(1485365680.721628) can0 3B4#000035B800000000
(1485365680.725252) can0 260#0800010000000275
(1485365680.726171) can0 0B2#00000000000C
(1485365680.726299) can0 0B0#00000000000C
(1485365680.727775) can0 2C1#08FFC0FFC0000051
(1485365680.727936) can0 2C4#041700130000A29E
(1485365680.736377) can0 0B2#00000000000D
(1485365680.736461) can0 0B0#00000000000D
(1485365680.736746) can0 223#0000007FE000008C
(1485365680.736984) can0 0B4#00000000000000BC
(1485365680.737235) can0 224#0000000000000000
(1485365680.741753) can0 620#1000000030600050
(1485365680.745424) can0 260#0800010000000477
(1485365680.746176) can0 0B2#00000000000E
(1485365680.746324) can0 0B0#00000000000E
(1485365680.747775) can0 2C4#041700130000A29E
(1485365680.756277) can0 0B2#00000000000F
(1485365680.756400) can0 0B0#00000000000F
(1485365680.756745) can0 0B4#00000000000000BC
(1485365680.757774) can0 2C1#08FFC4FFC0000055
(1485365680.765478) can0 260#0800010000000073
(1485365680.766231) can0 0B2#000000000000
(1485365680.766375) can0 0B0#000000000000
(1485365680.766653) can0 223#0000007FE000008C
(1485365680.766978) can0 224#0000000000000000
(1485365680.767758) can0 2C4#041400130000A29B
(1485365680.767874) can0 3B3#041400
(1485365680.776154) can0 440#4202000007000000
(1485365680.776300) can0 0B2#000000000001
(1485365680.776501) can0 0B0#000000000001
(1485365680.776804) can0 0B4#00000000000000BC
(1485365680.785851) can0 260#0800010000FFFC6E
(1485365680.786074) can0 0B2#000000000002
(1485365680.786351) can0 0B0#000000000002
(1485365680.787776) can0 2C1#08FFDAFFCA000075
(1485365680.787938) can0 2C4#041100130000A298
(1485365680.790954) can0 394#00
(1485365680.796274) can0 0B2#000000000003
(1485365680.796428) can0 0B0#000000000003
(1485365680.796729) can0 223#0000007FE000008C
(1485365680.796944) can0 0B4#00000000000000BC
(1485365680.797220) can0 224#0000000000000000
(1485365680.798974) can0 3A0#0000000000000013
(1485365680.805880) can0 260#0800010000FFFC6E
(1485365680.806206) can0 0B2#000000000004
(1485365680.806351) can0 0B0#000000000004
(1485365680.807750) can0 2C4#040E00130000A295
(1485365680.816279) can0 0B2#000000000005
(1485365680.816398) can0 0B0#000000000005
(1485365680.816745) can0 0B4#00000000000000BC
(1485365680.818272) can0 2C1#08FFF0FFE40000A5
(1485365680.826277) can0 260#0800010000FFFC6E
(1485365680.826400) can0 0B2#000000000006
(1485365680.826620) can0 0B0#000000000006
(1485365680.826874) can0 223#0000007FE000008C
(1485365680.827221) can0 224#0000000000000000
(1485365680.827745) can0 2C4#040C00130000A293
(1485365680.836205) can0 0B2#000000000007
(1485365680.836431) can0 0B0#000000000007
(1485365680.836737) can0 0B4#00000000000000BC
(1485365680.846152) can0 0B2#000000000008
(1485365680.846300) can0 0B0#000000000008
(1485365680.846559) can0 260#0800010000000679
(1485365680.847751) can0 2C1#08FFF4FFED0000B2
(1485365680.847911) can0 2C4#040C00130000A293
(1485365680.856305) can0 0B2#000000000009
(1485365680.856451) can0 0B0#000000000009
(1485365680.856747) can0 223#0000007FE000008C
(1485365680.856993) can0 0B4#00000000000000BC
(1485365680.857246) can0 224#0000000000000000
(1485365680.857501) can0 3B7#0000000000000000
(1485365680.866152) can0 0B2#00000000000A
(1485365680.866303) can0 0B0#00000000000A
(1485365680.866624) can0 260#0800010000000275
(1485365680.867751) can0 2C4#040E00130000A295
(1485365680.869776) can0 442#4002000003000000
(1485365680.876204) can0 0B2#00000000000B
(1485365680.876351) can0 0B0#00000000000B
(1485365680.876657) can0 0B4#00000000000000BC
(1485365680.877746) can0 2C1#08FFEAFFE70000A2
(1485365680.886226) can0 0B2#00000000000C
(1485365680.886350) can0 0B0#00000000000C
(1485365680.886621) can0 223#0000007FE000008C
(1485365680.886875) can0 260#0800010000FFFF71
(1485365680.887129) can0 224#0000000000000000
(1485365680.887825) can0 2C4#040E00130000A295
(1485365680.896206) can0 0B2#00000000000D
(1485365680.896348) can0 0B0#00000000000D
(1485365680.896697) can0 0B4#00000000000000BC
(1485365680.899275) can0 3A0#0000000000000014
(1485365680.906126) can0 0B2#00000000000E
(1485365680.906299) can0 0B0#00000000000E
(1485365680.907097) can0 260#0800010000000477
(1485365680.907770) can0 2C1#08FFE7FFE700009F
(1485365680.907932) can0 2C4#040F00130000A296
(1485365680.916213) can0 0B2#00000000000F
(1485365680.916456) can0 0B0#00000000000F
(1485365680.916728) can0 223#0000007FE000008C
(1485365680.916939) can0 0B4#00000000000000BC
(1485365680.917222) can0 224#0000000000000000
(1485365680.926128) can0 0B2#000000000000
(1485365680.926296) can0 0B0#000000000000
(1485365680.927398) can0 260#0800010000000174
(1485365680.928883) can0 2C4#041300130000A29A
(1485365680.936200) can0 0B2#000000000001
(1485365680.936356) can0 0B0#000000000001
(1485365680.936698) can0 0B4#00000000000000BC
(1485365680.937749) can0 2C1#08FFD4FFD0000075
(1485365680.946223) can0 0B2#000000000002
(1485365680.946377) can0 0B0#000000000002
(1485365680.946655) can0 223#0000007FE000008C
(1485365680.946957) can0 224#0000000000000000
(1485365680.947596) can0 260#0800010000FFFF71
(1485365680.947831) can0 2C4#041500130000A29C
(1485365680.956229) can0 0B2#000000000003
(1485365680.956375) can0 0B0#000000000003
(1485365680.956695) can0 0B4#00000000000000BC
(1485365680.965930) can0 440#4202000007000000
(1485365680.966087) can0 0B2#000000000004
(1485365680.966369) can0 0B0#000000000004
(1485365680.967753) can0 2C1#08FFD0FFCA00006B
(1485365680.967915) can0 260#0800010000000376
(1485365680.968221) can0 2C4#041400130000A29B
(1485365680.976379) can0 0B2#000000000005
(1485365680.976458) can0 0B0#000000000005
(1485365680.976749) can0 223#0000007FE000008C
(1485365680.976993) can0 0B4#00000000000000BC
(1485365680.977254) can0 224#0000000000000000
(1485365680.977758) can0 3B1#0000022A00000000
(1485365680.982782) can0 4C8#0900010700000000
(1485365680.986093) can0 0B2#000000000006
(1485365680.986334) can0 0B0#000000000006
(1485365680.987751) can0 2C4#041300130000A29A
(1485365680.987940) can0 4DD#1E00000500000000
(1485365680.988237) can0 260#0800010000FFFA6C
(1485365680.996231) can0 0B2#000000000007
(1485365680.996355) can0 0B0#000000000007
(1485365680.996707) can0 0B4#00000000000000BC
(1485365680.997978) can0 2C1#08FFD4FFD0000075
(1485365680.998975) can0 3A0#0000000000000014
(1485365681.006229) can0 0B2#000000000008
(1485365681.006380) can0 0B0#000000000008
(1485365681.006630) can0 223#0000007FE000008C
(1485365681.006971) can0 224#0000000000000000
(1485365681.007769) can0 2C4#041300130000A29A
(1485365681.008232) can0 260#0800000000FFF96A
(1485365681.016255) can0 0B2#000000000009
(1485365681.016407) can0 0B0#000000000009
(1485365681.016731) can0 0B4#00000000000000BC
(1485365681.026152) can0 0B2#00000000000A
(1485365681.026305) can0 0B0#00000000000A
(1485365681.027753) can0 2C1#08FFD4FFD4000079
(1485365681.027918) can0 2C4#041300130000A29A
(1485365681.028426) can0 260#0800010000FFFC6E
(1485365681.036302) can0 0B2#00000000000B
(1485365681.036456) can0 0B0#00000000000B
(1485365681.036749) can0 223#0000007FE000008C
(1485365681.036954) can0 0B4#00000000000000BC
(1485365681.037231) can0 224#0000000000000000
(1485365681.041307) can0 620#1000000030600050
(1485365681.046103) can0 0B2#00000000000C
(1485365681.046326) can0 0B0#00000000000C
(1485365681.047697) can0 2C4#041400130000A29B
(1485365681.048620) can0 260#0800010000000073
(1485365681.056230) can0 0B2#00000000000D
(1485365681.056379) can0 0B0#00000000000D
(1485365681.056722) can0 0B4#00000000000000BC
(1485365681.057753) can0 2C1#08FFCDFFCD00006B
(1485365681.058952) can0 442#4002000003000000
(1485365681.066256) can0 0B2#00000000000E
(1485365681.066407) can0 0B0#00000000000E
(1485365681.066682) can0 223#0000007FE000008C
(1485365681.066988) can0 224#0000000000000000
(1485365681.067767) can0 2C4#041500130000A29C
(1485365681.068906) can0 260#0800000000000678
(1485365681.076257) can0 0B2#00000000000F
(1485365681.076381) can0 0B0#00000000000F
(1485365681.076735) can0 0B4#00000000000000BC
(1485365681.086181) can0 0B2#000000000000
(1485365681.086306) can0 0B0#000000000000
(1485365681.087750) can0 2C1#08FFCDFFCA000068
(1485365681.087936) can0 2C4#041400130000A29B
(1485365681.089081) can0 260#0800000000FFFD6E
(1485365681.093782) can0 394#00
(1485365681.096345) can0 0B2#000000000001
(1485365681.096454) can0 0B0#000000000001
(1485365681.096749) can0 223#0000007FE000008C
(1485365681.096986) can0 0B4#00000000000000BC
(1485365681.097225) can0 224#0000000000000000
(1485365681.098952) can0 3A0#0000000000000014
(1485365681.106177) can0 0B2#000000000002
(1485365681.106307) can0 0B0#000000000002
(1485365681.107978) can0 2C4#041500130000A29C
(1485365681.109275) can0 260#0800000000000173
(1485365681.116255) can0 0B2#000000000003
(1485365681.116379) can0 0B0#000000000003
(1485365681.116710) can0 0B4#00000000000000BC
(1485365681.117747) can0 2C1#08FFC0FFC4000055
(1485365681.126279) can0 0B2#000000000004
(1485365681.126405) can0 0B0#000000000004
(1485365681.126706) can0 223#0000007FE000008C
(1485365681.126986) can0 224#0000000000000000
(1485365681.127770) can0 2C4#041700130000A29E
(1485365681.129485) can0 260#0800000000000173
(1485365681.136254) can0 0B2#000000000005
(1485365681.136405) can0 0B0#000000000005
(1485365681.136721) can0 0B4#00000000000000BC
(1485365681.146178) can0 0B2#000000000006
(1485365681.146303) can0 0B0#000000000006
(1485365681.148900) can0 2C1#08FFBAFFB7000042
(1485365681.149062) can0 2C4#041800130000A29F
(1485365681.149650) can0 260#0800000000FFFF70
(1485365681.155583) can0 440#4202000007000000
(1485365681.156258) can0 0B2#000000000007
(1485365681.156407) can0 0B0#000000000007
(1485365681.156694) can0 223#0000007FE000008C
(1485365681.156913) can0 0B4#00000000000000BC
(1485365681.157191) can0 224#0000000000000000
(1485365681.157519) can0 3B7#0000000000000000
(1485365681.166155) can0 0B2#000000000008
(1485365681.166308) can0 0B0#000000000008
(1485365681.167757) can0 2C4#041700130000A29E
(1485365681.169883) can0 260#0800000000000577
(1485365681.176258) can0 0B2#000000000009
(1485365681.176382) can0 0B0#000000000009
(1485365681.176749) can0 0B4#00000000000000BC
(1485365681.177728) can0 2C1#08FFBAFFB7000042
(1485365681.178845) can0 610#2000006400000000
(1485365681.186279) can0 0B2#00000000000A
(1485365681.186407) can0 0B0#00000000000A
(1485365681.186722) can0 223#0000007FE000008C
(1485365681.187003) can0 224#0000000000000000
(1485365681.187778) can0 2C4#041700130000A29E
(1485365681.190152) can0 260#0800010000FFFE70
(1485365681.196183) can0 0B2#00000000000B
(1485365681.196391) can0 0B0#00000000000B
(1485365681.196665) can0 0B4#00000000000000BC
(1485365681.198888) can0 3A0#0000000000000014
(1485365681.204110) can0 4ED#5C00000000000000
(1485365681.206110) can0 0B2#00000000000C
(1485365681.206334) can0 0B0#00000000000C
(1485365681.207660) can0 2C1#08FFBAFFB7000042
(1485365681.207910) can0 2C4#041700130000A29E
(1485365681.210235) can0 260#0800000000FFFA6B
(1485365681.216312) can0 0B2#00000000000D
(1485365681.216486) can0 0B0#00000000000D
(1485365681.216736) can0 223#0000007FE000008C
(1485365681.216959) can0 0B4#00000000000000BC
(1485365681.217233) can0 224#0000000000000000
(1485365681.226111) can0 0B2#00000000000E
(1485365681.226334) can0 0B0#00000000000E
(1485365681.227685) can0 2C4#041700130000A29E
(1485365681.228886) can0 4DC#1D00010900000000
(1485365681.230433) can0 260#0800010000000073
(1485365681.236185) can0 0B2#00000000000F
(1485365681.236411) can0 0B0#00000000000F
(1485365681.236709) can0 0B4#00000000000000BC
(1485365681.237661) can0 2C1#08FFBAFFB7000042
(1485365681.246162) can0 0B2#000000000000
(1485365681.246386) can0 0B0#000000000000
(1485365681.246611) can0 223#0000007FE000008C
(1485365681.246911) can0 224#0000000000000000
(1485365681.247710) can0 2C4#041500130000A29C
(1485365681.248636) can0 442#4002000003000000
(1485365681.250686) can0 260#0800000000FFFD6E
(1485365681.256187) can0 0B2#000000000001
(1485365681.256386) can0 0B0#000000000001
(1485365681.256686) can0 0B4#00000000000000BC
(1485365681.266112) can0 0B2#000000000002
(1485365681.266334) can0 0B0#000000000002
(1485365681.267661) can0 2C1#08FFC4FFBA00004F
(1485365681.267911) can0 2C4#041400130000A29B
(1485365681.268084) can0 3B3#041400
(1485365681.268835) can0 3B0#0000003200
(1485365681.270862) can0 260#0800000000000173
(1485365681.276310) can0 0B2#000000000003
(1485365681.276485) can0 0B0#000000000003
(1485365681.276708) can0 223#0000007FE000008C
(1485365681.276956) can0 0B4#00000000000000BC
(1485365681.277204) can0 224#0000000000000000
(1485365681.286084) can0 0B2#000000000004
(1485365681.286308) can0 0B0#000000000004
(1485365681.287683) can0 2C4#041500130000A29C
(1485365681.291037) can0 260#0800000000FFFF70
(1485365681.296140) can0 0B2#000000000005
(1485365681.296385) can0 0B0#000000000005
(1485365681.296683) can0 0B4#00000000000000BC
(1485365681.297661) can0 2C1#08FFADFFBA000038
(1485365681.297911) can0 4C1#0100500500000000
(1485365681.298886) can0 3A0#0000000000000014
(1485365681.306136) can0 0B2#000000000006
(1485365681.306334) can0 0B0#000000000006
(1485365681.306581) can0 223#0000007FE000008C
(1485365681.306882) can0 224#0000000000000000
(1485365681.307683) can0 2C4#041800130000A29F
(1485365681.311311) can0 260#0800000000000072
(1485365681.316112) can0 0B2#000000000007
(1485365681.316334) can0 0B0#000000000007
(1485365681.316635) can0 0B4#00000000000000BC
(1485365681.326090) can0 0B2#000000000008
(1485365681.326311) can0 0B0#000000000008
(1485365681.327912) can0 2C1#08FFAAFFAA000025
(1485365681.328136) can0 2C4#041900130000A2A0
(1485365681.328887) can0 380#00A0043000000300
(1485365681.331486) can0 260#0800000000000577
(1485365681.336322) can0 0B2#000000000009
(1485365681.336497) can0 0B0#000000000009
(1485365681.336747) can0 223#0000007FE000008C
(1485365681.336998) can0 0B4#00000000000000BC
(1485365681.337247) can0 224#0000000000000000
(1485365681.340898) can0 620#1000000030600050
(1485365681.345323) can0 440#4202000007000000
(1485365681.346119) can0 0B2#00000000000A
(1485365681.346371) can0 0B0#00000000000A
(1485365681.347672) can0 2C4#041A00130000A2A1
(1485365681.351673) can0 260#0800000000000274
(1485365681.356173) can0 0B2#00000000000B
(1485365681.356397) can0 0B0#00000000000B
(1485365681.356697) can0 0B4#00000000000000BC
(1485365681.357672) can0 2C1#08FFA4FFA0000015
(1485365681.366150) can0 0B2#00000000000C
(1485365681.366373) can0 0B0#00000000000C
(1485365681.366594) can0 223#0000007FE000008C
(1485365681.366920) can0 224#0000000000000000
(1485365681.367218) can0 4C3#0400300500000000
(1485365681.368872) can0 2C4#041900130000A2A0
(1485365681.371922) can0 260#0800000000000476
(1485365681.376149) can0 0B2#00000000000D
(1485365681.376372) can0 0B0#00000000000D
(1485365681.376648) can0 0B4#00000000000000BC
(1485365681.386075) can0 0B2#00000000000E
(1485365681.386322) can0 0B0#00000000000E
(1485365681.387697) can0 2C1#08FFB4FFAD000032
(1485365681.387922) can0 2C4#041500130000A29C
(1485365681.392097) can0 260#0800000000FFFE6F
(1485365681.396223) can0 0B2#00000000000F
(1485365681.396422) can0 0B0#00000000000F
(1485365681.396672) can0 223#0000007FE000008C
(1485365681.396922) can0 0B4#00000000000000BC
(1485365681.397173) can0 224#0000000000000000
(1485365681.397323) can0 394#00
(1485365681.398839) can0 3A0#0000000000000013
(1485365681.406049) can0 0B2#000000000000
(1485365681.406322) can0 0B0#000000000000
(1485365681.407673) can0 2C4#041500130000A29C
(1485365681.412150) can0 260#0800010000000073
(1485365681.416121) can0 0B2#000000000001
(1485365681.416345) can0 0B0#000000000001
(1485365681.416620) can0 0B4#00000000000000BC
(1485365681.417672) can0 2C1#08FFB4FFB4000039
(1485365681.426123) can0 0B2#000000000002
(1485365681.426345) can0 0B0#000000000002
(1485365681.426593) can0 223#0000007FE000008C
(1485365681.426893) can0 224#0000000000000000
(1485365681.427697) can0 2C4#041700130000A29E
(1485365681.432450) can0 260#0800000000FFF96A
(1485365681.436123) can0 0B2#000000000003
(1485365681.436322) can0 0B0#000000000003
(1485365681.436623) can0 0B4#00000000000000BC
(1485365681.439247) can0 442#4002000003000000
(1485365681.446049) can0 0B2#000000000004
(1485365681.446323) can0 0B0#000000000004
(1485365681.447671) can0 2C1#08FFA0FFA7000018
(1485365681.447922) can0 2C4#041900130000A2A0
(1485365681.452674) can0 260#0800010000FFFF71
(1485365681.456200) can0 0B2#000000000005
(1485365681.456423) can0 0B0#000000000005
(1485365681.456673) can0 223#0000007FE000008C
(1485365681.456898) can0 0B4#00000000000000BC
(1485365681.457148) can0 224#0000000000000000
(1485365681.457470) can0 3B7#0000000000000000
(1485365681.466097) can0 0B2#000000000006
(1485365681.466323) can0 0B0#000000000006
(1485365681.467673) can0 2C4#041700130000A29E
(1485365681.472833) can0 260#0800000000000779
(1485365681.476208) can0 0B2#000000000007
(1485365681.476357) can0 0B0#000000000007
(1485365681.476665) can0 0B4#00000000000000BC
(1485365681.478932) can0 2C1#08FFA7FFA400001C
(1485365681.486260) can0 0B2#000000000008
(1485365681.486380) can0 0B0#000000000008
(1485365681.486661) can0 223#0000007FE000008C
(1485365681.487000) can0 224#0000000000000000
(1485365681.487753) can0 2C4#041300130000A29A
(1485365681.493035) can0 260#0800010000FFFD6F
(1485365681.496259) can0 0B2#000000000009
(1485365681.496382) can0 0B0#000000000009
(1485365681.496733) can0 0B4#00000000000000BC
(1485365681.498930) can0 3A0#0000000000000013
(1485365681.506133) can0 0B2#00000000000A
(1485365681.506306) can0 0B0#00000000000A
(1485365681.507732) can0 2C1#08FFC4FFB4000049
(1485365681.507884) can0 2C4#041100130000A298
(1485365681.513380) can0 260#0800010000000477
(1485365681.516286) can0 0B2#00000000000B
(1485365681.516408) can0 0B0#00000000000B
(1485365681.516705) can0 223#0000007FE000008C
(1485365681.516963) can0 0B4#00000000000000BC
(1485365681.517220) can0 224#0000000000000000
(1485365681.521634) can0 38A#0804000000
(1485365681.526157) can0 0B2#00000000000C
(1485365681.526310) can0 0B0#00000000000C
(1485365681.527731) can0 2C4#040E00130000A295
(1485365681.533435) can0 260#0800000000FFF869
(1485365681.535178) can0 440#4202000007000000
(1485365681.536194) can0 0B2#00000000000D
(1485365681.536361) can0 0B0#00000000000D
(1485365681.536665) can0 0B4#00000000000000BC
(1485365681.537758) can0 2C1#08FFD4FFCA00006F
(1485365681.546210) can0 0B2#00000000000E
(1485365681.546358) can0 0B0#00000000000E
(1485365681.546628) can0 223#0000007FE000008C
(1485365681.546907) can0 224#0000000000000000
(1485365681.548186) can0 2C4#040D00130000A294
(1485365681.553660) can0 260#0800010000FFFD6F
(1485365681.556210) can0 0B2#00000000000F
(1485365681.556358) can0 0B0#00000000000F
(1485365681.556668) can0 0B4#00000000000000BC
(1485365681.566131) can0 0B2#000000000000
(1485365681.566305) can0 0B0#000000000000
(1485365681.567732) can0 2C1#08FFD7FFD0000078
(1485365681.567897) can0 2C4#040C00130000A293
(1485365681.573683) can0 260#0800000000FFFB6C
(1485365681.576310) can0 0B2#000000000001
(1485365681.576457) can0 0B0#000000000001
(1485365681.576732) can0 223#0000007FE000008C
(1485365681.576988) can0 0B4#00000000000000BC
(1485365681.577247) can0 224#0000000000000000
(1485365681.586158) can0 0B2#000000000002
(1485365681.586306) can0 0B0#000000000002
(1485365681.587729) can0 2C4#040C00130000A293
(1485365681.594036) can0 260#0800010000FFFD6F
(1485365681.596208) can0 0B2#000000000003
(1485365681.596359) can0 0B0#000000000003
(1485365681.596728) can0 0B4#00000000000000BC
(1485365681.597732) can0 2C1#08FFDAFFD7000082
(1485365681.598901) can0 3A0#0000000000000013
(1485365681.605185) can0 621#1100000000000000
(1485365681.606230) can0 0B2#000000000004
(1485365681.606358) can0 0B0#000000000004
(1485365681.606629) can0 223#0000007FE000008C
(1485365681.606958) can0 224#0000000000000000
(1485365681.608461) can0 2C4#040D00130000A294
(1485365681.614060) can0 260#0800010000000275
(1485365681.615155) can0 622#1200000000000000
(1485365681.616188) can0 0B2#000000000005
(1485365681.616360) can0 0B0#000000000005
(1485365681.616712) can0 0B4#00000000000000BC
(1485365681.623586) can0 624#1A0057FFFF400000
(1485365681.626155) can0 0B2#000000000006
(1485365681.626309) can0 0B0#000000000006
(1485365681.627733) can0 2C1#08FFDAFFD400007F
(1485365681.627896) can0 2C4#040D00130000A294
(1485365681.628845) can0 442#4002000003000000
(1485365681.632789) can0 630#1700000000000000
(1485365681.634459) can0 260#0800010000FFFC6E
(1485365681.636312) can0 0B2#000000000007
(1485365681.636430) can0 0B0#000000000007
(1485365681.636753) can0 223#0000007FE000008C
(1485365681.636922) can0 0B4#00000000000000BC
(1485365681.637240) can0 224#0000000000000000
(1485365681.641986) can0 638#1300110000000000
(1485365681.646158) can0 0B2#000000000008
(1485365681.646309) can0 0B0#000000000008
(1485365681.647733) can0 2C4#040E00130000A295
(1485365681.651159) can0 620#1000000030600050
(1485365681.654479) can0 260#0800010000000073
(1485365681.656211) can0 0B2#000000000009
(1485365681.656359) can0 0B0#000000000009
(1485365681.656705) can0 0B4#00000000000000BC
(1485365681.658133) can0 2C1#08FFD4FFD0000075
(1485365681.666105) can0 0B2#00000000000A
(1485365681.666318) can0 0B0#00000000000A
(1485365681.666550) can0 223#0000007FE000008C
(1485365681.666872) can0 224#0000000000000000
(1485365681.667677) can0 2C4#041100130000A298
(1485365681.674841) can0 260#0800010000FFFE70
(1485365681.676186) can0 0B2#00000000000B
(1485365681.676316) can0 0B0#00000000000B
(1485365681.676678) can0 0B4#00000000000000BC
(1485365681.679105) can0 610#2000006400000000
(1485365681.686158) can0 0B2#00000000000C
(1485365681.686319) can0 0B0#00000000000C
(1485365681.687719) can0 2C1#08FFCAFFC7000062
(1485365681.687889) can0 2C4#041100130000A298
(1485365681.689113) can0 611#2100201200021DB5
(1485365681.694887) can0 260#0800010000FFFA6C
(1485365681.696287) can0 0B2#00000000000D
(1485365681.696418) can0 0B0#00000000000D
(1485365681.696710) can0 223#0000007FE000008C
(1485365681.696969) can0 0B4#00000000000000BC
(1485365681.697182) can0 224#0000000000000000
(1485365681.698908) can0 3A0#0000000000000013
(1485365681.700186) can0 394#00
(1485365681.700685) can0 640#A8000032020E0000
(1485365681.706160) can0 0B2#00000000000E
(1485365681.706319) can0 0B0#00000000000E
(1485365681.707734) can0 2C4#041200130000A299
(1485365681.715262) can0 260#0800010000FFFC6E
(1485365681.716237) can0 0B2#00000000000F
(1485365681.716391) can0 0B0#00000000000F
(1485365681.716735) can0 0B4#00000000000000BC
(1485365681.718604) can0 2C1#08FFC4FFC0000055
(1485365681.722784) can0 3B4#000035B800000000
(1485365681.724961) can0 440#4202000007000000
(1485365681.726258) can0 0B2#000000000000
(1485365681.726420) can0 0B0#000000000000
(1485365681.726686) can0 223#0000007FE000008C
(1485365681.726991) can0 224#0000000000000000
(1485365681.727727) can0 2C4#041400130000A29B
(1485365681.735285) can0 260#080001000000087B
(1485365681.736235) can0 0B2#000000000001
(1485365681.736394) can0 0B0#000000000001
(1485365681.736710) can0 0B4#00000000000000BC
(1485365681.746186) can0 0B2#000000000002
(1485365681.746317) can0 0B0#000000000002
(1485365681.747708) can0 2C1#08FFBAFFBA000045
(1485365681.747882) can0 2C4#041500130000A29C
(1485365681.755684) can0 260#0800000000FFFC6D
(1485365681.756370) can0 0B2#000000000003
(1485365681.756450) can0 0B0#000000000003
(1485365681.756740) can0 223#0000007FE000008C
(1485365681.757000) can0 0B4#00000000000000BC
(1485365681.757256) can0 224#0000000000000000
(1485365681.757532) can0 3B7#0000000000000000
(1485365681.766137) can0 0B2#000000000004
(1485365681.766319) can0 0B0#000000000004
(1485365681.767926) can0 2C4#041500130000A29C
(1485365681.767986) can0 3B3#041500
(1485365681.775709) can0 260#0800000000000072
(1485365681.776184) can0 0B2#000000000005
(1485365681.776339) can0 0B0#000000000005
(1485365681.776666) can0 0B4#00000000000000BC
(1485365681.777702) can0 2C1#08FFBDFFB4000042
(1485365681.786262) can0 0B2#000000000006
(1485365681.786382) can0 0B0#000000000006
(1485365681.786660) can0 223#0000007FE000008C
(1485365681.786996) can0 224#0000000000000000
(1485365681.787760) can0 2C4#041300130000A29A
(1485365681.796086) can0 260#0800000000FFFC6D
(1485365681.796212) can0 0B2#000000000007
(1485365681.796504) can0 0B0#000000000007
(1485365681.796750) can0 0B4#00000000000000BC
(1485365681.798910) can0 3A0#0000000000000014
(1485365681.806262) can0 0B2#000000000008
(1485365681.806406) can0 0B0#000000000008
(1485365681.807734) can0 2C1#08FFC0FFBA00004B
(1485365681.807890) can0 2C4#041300130000A29A
(1485365681.816113) can0 260#0800000000000173
(1485365681.816338) can0 0B2#000000000009
(1485365681.816480) can0 0B0#000000000009
(1485365681.816753) can0 223#0000007FE000008C
(1485365681.817004) can0 0B4#00000000000000BC
(1485365681.817362) can0 224#0000000000000000
(1485365681.819884) can0 442#4002000003000000
(1485365681.826112) can0 0B2#00000000000A
(1485365681.826335) can0 0B0#00000000000A
(1485365681.828588) can0 2C4#041200130000A299
(1485365681.836166) can0 0B2#00000000000B
(1485365681.836310) can0 0B0#00000000000B
(1485365681.836612) can0 260#0800000000000072
(1485365681.836827) can0 0B4#00000000000000BC
(1485365681.837734) can0 2C1#08FFC4FFC0000055
(1485365681.846263) can0 0B2#00000000000C
(1485365681.846411) can0 0B0#00000000000C
(1485365681.846686) can0 223#0000007FE000008C
(1485365681.846993) can0 224#0000000000000000
(1485365681.848439) can0 2C4#041300130000A29A
(1485365681.856262) can0 0B2#00000000000D
(1485365681.856412) can0 0B0#00000000000D
(1485365681.856686) can0 260#0800000000000274
(1485365681.856934) can0 0B4#00000000000000BC
(1485365681.866186) can0 0B2#00000000000E
(1485365681.866334) can0 0B0#00000000000E
(1485365681.867712) can0 2C1#08FFBAFFBD000048
(1485365681.867895) can0 2C4#041400130000A29B
(1485365681.876349) can0 0B2#00000000000F
(1485365681.876485) can0 0B0#00000000000F
(1485365681.876755) can0 223#0000007FE000008C
(1485365681.876985) can0 0B4#00000000000000BC
(1485365681.877257) can0 224#0000000000000000
(1485365681.877502) can0 260#0800000000000072
(1485365681.886184) can0 0B2#000000000000
(1485365681.886312) can0 0B0#000000000000
(1485365681.887733) can0 2C4#041500130000A29C
(1485365681.896215) can0 0B2#000000000001
(1485365681.896360) can0 0B0#000000000001
(1485365681.896670) can0 0B4#00000000000000BC
(1485365681.897080) can0 260#0800000000000779
(1485365681.897704) can0 2C1#08FFB4FFB4000039
(1485365681.898909) can0 3A0#0000000000000014
(1485365681.906209) can0 0B2#000000000002
(1485365681.906363) can0 0B0#000000000002
(1485365681.906631) can0 223#0000007FE000008C
(1485365681.906954) can0 224#0000000000000000
(1485365681.907731) can0 2C4#041500130000A29C
(1485365681.914636) can0 440#4202000007000000
(1485365681.916175) can0 0B2#000000000003
(1485365681.916336) can0 0B0#000000000003
(1485365681.916671) can0 0B4#00000000000000BC
(1485365681.917430) can0 260#0800000000000779
(1485365681.926087) can0 0B2#000000000004
(1485365681.926334) can0 0B0#000000000004
(1485365681.927658) can0 2C1#08FFB7FFB400003C
(1485365681.927909) can0 2C4#041400130000A29B
(1485365681.936226) can0 0B2#000000000005
(1485365681.936429) can0 0B0#000000000005
(1485365681.936677) can0 223#0000007FE000008C
(1485365681.936927) can0 0B4#00000000000000BC
(1485365681.937177) can0 224#0000000000000000
(1485365681.937600) can0 260#0800010000FFF86A
(1485365681.940101) can0 620#1000000030600050
(1485365681.946100) can0 0B2#000000000006
(1485365681.946327) can0 0B0#000000000006
(1485365681.947651) can0 2C4#041400130000A29B
(1485365681.956130) can0 0B2#000000000007
(1485365681.956327) can0 0B0#000000000007
(1485365681.956627) can0 0B4#00000000000000BC
(1485365681.957802) can0 260#0800010000000073
(1485365681.958578) can0 2C1#08FFB0FFB4000035
(1485365681.966154) can0 0B2#000000000008
(1485365681.966350) can0 0B0#000000000008
(1485365681.966599) can0 223#0000007FE000008C
(1485365681.966900) can0 224#0000000000000000
(1485365681.967678) can0 2C4#041500130000A29C
(1485365681.972780) can0 4C8#0900010700000000
(1485365681.976152) can0 0B2#000000000009
(1485365681.976350) can0 0B0#000000000009
(1485365681.976650) can0 0B4#00000000000000BC
(1485365681.978002) can0 260#0800000000FFFE6F
(1485365681.978951) can0 3B1#0000022A00000000
(1485365681.986077) can0 0B2#00000000000A
(1485365681.986299) can0 0B0#00000000000A
(1485365681.987653) can0 2C1#08FFADFFAD00002B
(1485365681.987903) can0 2C4#041600130000A29D
(1485365681.988953) can0 4DD#1E00000500000000
(1485365681.996252) can0 0B2#00000000000B
(1485365681.996453) can0 0B0#00000000000B
(1485365681.996703) can0 223#0000007FE000008C
(1485365681.996951) can0 0B4#00000000000000BC
(1485365681.997202) can0 224#0000000000000000
(1485365681.998328) can0 260#0800000000FFFE6F
(1485365681.998826) can0 3A0#0000000000000013
(1485365682.002955) can0 394#00
(1485365682.006130) can0 0B2#00000000000C
(1485365682.006328) can0 0B0#00000000000C
(1485365682.007653) can0 2C4#041700130000A29E
(1485365682.008879) can0 442#4002000003000000
(1485365682.016202) can0 0B2#00000000000D
(1485365682.016403) can0 0B0#00000000000D
(1485365682.016678) can0 0B4#00000000000000BC
(1485365682.017653) can0 2C1#08FFA0FFA4000015
(1485365682.018428) can0 260#0800000000000779
(1485365682.026177) can0 0B2#00000000000E
(1485365682.026378) can0 0B0#00000000000E
(1485365682.026628) can0 223#0000007FE000008C
(1485365682.026928) can0 224#0000000000000000
(1485365682.027702) can0 2C4#041800130000A29F
(1485365682.036156) can0 0B2#00000000000F
(1485365682.036378) can0 0B0#00000000000F
(1485365682.036654) can0 0B4#00000000000000BC
(1485365682.038627) can0 260#0800000000000375
(1485365682.046101) can0 0B2#000000000000
(1485365682.046329) can0 0B0#000000000000
(1485365682.047653) can0 2C1#08FFA0FF9D00000E
(1485365682.047878) can0 2C4#041800130000A29F
(1485365682.056229) can0 0B2#000000000001
(1485365682.056454) can0 0B0#000000000001
(1485365682.056678) can0 223#0000007FE000008C
(1485365682.056928) can0 0B4#00000000000000BC
(1485365682.057179) can0 224#0000000000000000
(1485365682.057444) can0 3B7#0000000000000000
(1485365682.058879) can0 260#0800000000FFFB6C
(1485365682.066103) can0 0B2#000000000002
(1485365682.066328) can0 0B0#000000000002
(1485365682.068555) can0 2C4#041500130000A29C
(1485365682.076156) can0 0B2#000000000003
(1485365682.076352) can0 0B0#000000000003
(1485365682.076651) can0 0B4#00000000000000BC
(1485365682.077629) can0 2C1#08FFAAFFA7000022
(1485365682.079054) can0 260#0800000000000274
(1485365682.086178) can0 0B2#000000000004
(1485365682.086379) can0 0B0#000000000004
(1485365682.086629) can0 223#0000007FE000008C
(1485365682.086929) can0 224#0000000000000000
(1485365682.087656) can0 2C4#041400130000A29B
