(1485365693.231895) can0 260#0800000000FFFE6F
(1485365693.235741) can0 0B2#00000000000F
(1485365693.235913) can0 0B0#00000000000F
(1485365693.236214) can0 0B4#00000000000000BC
(1485365693.237161) can0 2C1#08FFA0FF9D00000E
(1485365693.245719) can0 0B2#000000000000
(1485365693.245938) can0 0B0#000000000000
(1485365693.246185) can0 223#0000007FE000008C
(1485365693.246489) can0 224#0000000000000000
(1485365693.248339) can0 2C4#041400130000A29B
(1485365693.252187) can0 260#0800000000000173
(1485365693.255719) can0 0B2#000000000001
(1485365693.255938) can0 0B0#000000000001
(1485365693.256189) can0 0B4#00000000000000BC
(1485365693.265592) can0 0B2#000000000002
(1485365693.265812) can0 0B0#000000000002
(1485365693.267165) can0 2C1#08FF97FF970000FF
(1485365693.267412) can0 2C4#041600130000A29D
(1485365693.267563) can0 3B3#041600
(1485365693.267839) can0 3B0#0000003200
(1485365693.272415) can0 260#0800000000FFFA6B
(1485365693.275740) can0 0B2#000000000003
(1485365693.275965) can0 0B0#000000000003
(1485365693.276216) can0 223#0000007FE000008C
(1485365693.276465) can0 0B4#00000000000000BC
(1485365693.276688) can0 224#0000000000000000
(1485365693.285662) can0 0B2#000000000004
(1485365693.285889) can0 0B0#000000000004
(1485365693.287164) can0 2C4#041500130000A29C
(1485365693.292491) can0 260#0800000000FFFE6F
(1485365693.295740) can0 0B2#000000000005
(1485365693.295938) can0 0B0#000000000005
(1485365693.296239) can0 0B4#00000000000000BC
(1485365693.297140) can0 2C1#08FF9AFF97000002
(1485365693.297889) can0 3A0#0000000000000013
(1485365693.298864) can0 442#4002000003000000
(1485365693.305739) can0 0B2#000000000006
(1485365693.305965) can0 0B0#000000000006
(1485365693.306187) can0 223#0000007FE000008C
(1485365693.306488) can0 224#0000000000000000
(1485365693.307187) can0 2C4#041300130000A29A
(1485365693.312714) can0 260#0800000000000072
(1485365693.315739) can0 0B2#000000000007
(1485365693.315937) can0 0B0#000000000007
(1485365693.316237) can0 0B4#00000000000000BC
(1485365693.325489) can0 620#1000000030600050
(1485365693.325715) can0 0B2#000000000008
(1485365693.325915) can0 0B0#000000000008
(1485365693.327139) can0 2C1#08FFADFF9D00001B
(1485365693.327411) can0 2C4#041000130000A297
(1485365693.327883) can0 380#00A0043000000300
(1485365693.332912) can0 260#0800000000000375
(1485365693.335789) can0 0B2#000000000009
(1485365693.335983) can0 0B0#000000000009
(1485365693.336241) can0 223#0000007FE000008C
(1485365693.336492) can0 0B4#00000000000000BC
(1485365693.336741) can0 224#0000000000000000
(1485365693.345618) can0 0B2#00000000000A
(1485365693.345815) can0 0B0#00000000000A
(1485365693.347166) can0 2C4#040C00130000A293
(1485365693.353093) can0 260#0800010000000174
(1485365693.355662) can0 0B2#00000000000B
(1485365693.355865) can0 0B0#00000000000B
(1485365693.356166) can0 0B4#00000000000000BC
(1485365693.357164) can0 2C1#08FFBDFFBA000048
(1485365693.365675) can0 0B2#00000000000C
(1485365693.365900) can0 0B0#00000000000C
(1485365693.366125) can0 223#0000007FE000008C
(1485365693.366426) can0 224#0000000000000000
(1485365693.367175) can0 2C4#040A00130000A291
(1485365693.373152) can0 260#0800000000FFFE6F
(1485365693.375675) can0 0B2#00000000000D
(1485365693.375901) can0 0B0#00000000000D
(1485365693.376200) can0 0B4#00000000000000BC
(1485365693.385602) can0 0B2#00000000000E
(1485365693.385800) can0 0B0#00000000000E
(1485365693.387175) can0 2C1#08FFCAFFC400005F
(1485365693.387422) can0 2C4#040A00130000A291
(1485365693.393525) can0 260#0800000000000173
(1485365693.394875) can0 440#4202000007000000
(1485365693.395725) can0 0B2#00000000000F
(1485365693.395948) can0 0B0#00000000000F
(1485365693.396199) can0 223#0000007FE000008C
(1485365693.396425) can0 0B4#00000000000000BC
(1485365693.396675) can0 224#0000000000000000
(1485365693.397875) can0 3A0#0000000000000013
(1485365693.405602) can0 0B2#000000000000
(1485365693.405823) can0 0B0#000000000000
(1485365693.407150) can0 2C4#040C00130000A293
(1485365693.413551) can0 260#0800000000000173
(1485365693.415676) can0 0B2#000000000001
(1485365693.415875) can0 0B0#000000000001
(1485365693.416177) can0 0B4#00000000000000BC
(1485365693.417151) can0 2C1#08FFC0FFBD00004E
(1485365693.425701) can0 0B2#000000000002
(1485365693.425923) can0 0B0#000000000002
(1485365693.426149) can0 223#0000007FE000008C
(1485365693.426448) can0 224#0000000000000000
(1485365693.427501) can0 2C4#040C00130000A293
(1485365693.433925) can0 260#0800010000FFF567
(1485365693.435675) can0 0B2#000000000003
(1485365693.435901) can0 0B0#000000000003
(1485365693.436200) can0 0B4#00000000000000BC
(1485365693.445678) can0 0B2#000000000004
(1485365693.445875) can0 0B0#000000000004
(1485365693.447150) can0 2C1#08FFC0FFBD00004E
(1485365693.447426) can0 2C4#040C00130000A293
(1485365693.453951) can0 260#0800010000FFFD6F
(1485365693.455799) can0 0B2#000000000005
(1485365693.456002) can0 0B0#000000000005
(1485365693.456252) can0 223#0000007FE000008C
(1485365693.456501) can0 0B4#00000000000000BC
(1485365693.456750) can0 224#0000000000000000
(1485365693.457051) can0 3B7#0000000000000000
(1485365693.457324) can0 4C3#0400300500000000
(1485365693.465626) can0 0B2#000000000006
(1485365693.465823) can0 0B0#000000000006
(1485365693.467151) can0 2C4#040C00130000A293
(1485365693.474326) can0 260#0800000000FFFC6D
(1485365693.475675) can0 0B2#000000000007
(1485365693.475901) can0 0B0#000000000007
(1485365693.476201) can0 0B4#00000000000000BC
(1485365693.477151) can0 2C1#08FFBDFFBA000048
(1485365693.485701) can0 0B2#000000000008
(1485365693.485924) can0 0B0#000000000008
(1485365693.486149) can0 223#0000007FE000008C
(1485365693.486448) can0 224#0000000000000000
(1485365693.488074) can0 2C4#040D00130000A294
(1485365693.489051) can0 442#4002000003000000
(1485365693.494524) can0 260#0800000000FFFB6C
(1485365693.495699) can0 0B2#000000000009
(1485365693.495899) can0 0B0#000000000009
(1485365693.496198) can0 0B4#00000000000000BC
(1485365693.497876) can0 3A0#0000000000000013
(1485365693.505685) can0 0B2#00000000000A
(1485365693.505826) can0 0B0#00000000000A
(1485365693.507630) can0 2C1#08FFC7FFBD000055
(1485365693.507817) can0 2C4#040B00130000A292
(1485365693.514808) can0 260#0800000000000173
(1485365693.515835) can0 0B2#00000000000B
(1485365693.515974) can0 0B0#00000000000B
(1485365693.516254) can0 223#0000007FE000008C
(1485365693.516489) can0 0B4#00000000000000BC
(1485365693.516735) can0 224#0000000000000000
(1485365693.519932) can0 394#00
(1485365693.525687) can0 0B2#00000000000C
(1485365693.525822) can0 0B0#00000000000C
(1485365693.527206) can0 2C4#040A00130000A291
(1485365693.534838) can0 260#0800000000000072
(1485365693.535755) can0 0B2#00000000000D
(1485365693.535895) can0 0B0#00000000000D
(1485365693.536247) can0 0B4#00000000000000BC
(1485365693.537210) can0 2C1#08FFCAFFC7000062
(1485365693.545786) can0 0B2#00000000000E
(1485365693.545925) can0 0B0#00000000000E
(1485365693.546216) can0 223#0000007FE000008C
(1485365693.546499) can0 224#0000000000000000
(1485365693.547222) can0 2C4#040A00130000A291
(1485365693.555207) can0 260#0800000000FFF96A
(1485365693.555749) can0 0B2#00000000000F
(1485365693.555916) can0 0B0#00000000000F
(1485365693.556267) can0 0B4#00000000000000BC
(1485365693.565688) can0 0B2#000000000000
(1485365693.565824) can0 0B0#000000000000
(1485365693.567208) can0 2C1#08FFCAFFCA000065
(1485365693.567431) can0 2C4#040B00130000A292
(1485365693.575261) can0 260#0800010000FFFE70
(1485365693.575829) can0 0B2#000000000001
(1485365693.575993) can0 0B0#000000000001
(1485365693.576307) can0 223#0000007FE000008C
(1485365693.576493) can0 0B4#00000000000000BC
(1485365693.576803) can0 224#0000000000000000
(1485365693.585057) can0 440#4202000007000000
(1485365693.585671) can0 0B2#000000000002
(1485365693.585823) can0 0B0#000000000002
(1485365693.587207) can0 2C4#040C00130000A293
(1485365693.589838) can0 621#1100000000000000
(1485365693.595635) can0 260#08FFFE0000000574
(1485365693.595769) can0 0B2#000000000003
(1485365693.595968) can0 0B0#000000000003
(1485365693.596290) can0 0B4#00000000000000BC
(1485365693.597211) can0 2C1#08FFCAFFC7000062
(1485365693.597963) can0 3A0#0000000000000013
(1485365693.599807) can0 622#1200000000000000
(1485365693.605790) can0 0B2#000000000004
(1485365693.605927) can0 0B0#000000000004
(1485365693.606212) can0 223#0000007FE000008C
(1485365693.606489) can0 224#0000000000000000
(1485365693.607213) can0 2C4#040C00130000A293
(1485365693.608633) can0 624#1A0057FFFF400000
(1485365693.615757) can0 0B2#000000000005
(1485365693.615892) can0 0B0#000000000005
(1485365693.616199) can0 260#08FFCE0000FFD00E
(1485365693.616451) can0 0B4#00000000000000BC
(1485365693.617835) can0 630#1700000000000000
(1485365693.622565) can0 38A#0804000000
(1485365693.625687) can0 0B2#000000000006
(1485365693.625827) can0 0B0#000000000006
(1485365693.627037) can0 638#1300110000000000
(1485365693.627203) can0 2C1#08FFCAFFC7000062
(1485365693.627481) can0 2C4#040C00130000A293
(1485365693.635813) can0 0B2#000000000007
(1485365693.635944) can0 0B0#000000000007
(1485365693.636236) can0 223#0000007FE000008C
(1485365693.636462) can0 0B4#00000000000000BC
(1485365693.636726) can0 224#0000000000000000
(1485365693.636963) can0 260#08FF830000FF988B
(1485365693.637209) can0 620#1000000030600050
(1485365693.645685) can0 0B2#000000000008
(1485365693.645821) can0 0B0#000000000008
(1485365693.647195) can0 2C4#040C00130000A293
(1485365693.655736) can0 0B2#000000000009
(1485365693.655876) can0 0B0#000000000009
(1485365693.656229) can0 0B4#00000000000000BC
(1485365693.656434) can0 260#08FF860000FF7369
(1485365693.657210) can0 2C1#08FFC7FFC700005F
(1485365693.665791) can0 0B2#00000000000A
(1485365693.665948) can0 0B0#00000000000A
(1485365693.666219) can0 223#0000007FE000008C
(1485365693.666537) can0 224#0000000000000000
(1485365693.667202) can0 2C4#040D00130000A294
(1485365693.675786) can0 0B2#00000000000B
(1485365693.675935) can0 0B0#00000000000B
(1485365693.676290) can0 0B4#00000000000000BC
(1485365693.676482) can0 260#08FFB80000FF87AF
(1485365693.679308) can0 442#4002000003000000
(1485365693.680082) can0 610#2000006400000000
(1485365693.685714) can0 0B2#00000000000C
(1485365693.685851) can0 0B0#00000000000C
(1485365693.687494) can0 2C1#08FFC0FFC4000055
(1485365693.687739) can0 2C4#040E00130000A295
(1485365693.689566) can0 611#2100201200021DB5
(1485365693.695866) can0 0B2#00000000000D
(1485365693.695994) can0 0B0#00000000000D
(1485365693.696320) can0 223#0000007FE000008C
(1485365693.696485) can0 0B4#00000000000000BC
(1485365693.696803) can0 224#0000000000000000
(1485365693.697028) can0 260#08FFDC0000FFD420
(1485365693.697904) can0 3A0#0000000000000014
(1485365693.701311) can0 640#A8000032020E0000
(1485365693.705713) can0 0B2#00000000000E
(1485365693.705839) can0 0B0#00000000000E
(1485365693.707207) can0 2C4#041000130000A297
(1485365693.715783) can0 0B2#00000000000F
(1485365693.715908) can0 0B0#00000000000F
(1485365693.716269) can0 0B4#00000000000000BC
(1485365693.716984) can0 260#0800020000001084
(1485365693.717147) can0 2C1#08FFC4FFB700004C
(1485365693.721089) can0 3B4#000036B800000000
(1485365693.725712) can0 0B2#000000000000
(1485365693.725890) can0 0B0#000000000000
(1485365693.726192) can0 223#0000007FE000008C
(1485365693.726473) can0 224#0000000000000000
(1485365693.727172) can0 2C4#040E00130000A295
(1485365693.735761) can0 0B2#000000000001
(1485365693.735886) can0 0B0#000000000001
(1485365693.736241) can0 0B4#00000000000000BC
(1485365693.737211) can0 260#080013000000199E
(1485365693.745739) can0 0B2#000000000002
(1485365693.745871) can0 0B0#000000000002
(1485365693.748012) can0 2C1#08FFE4FFD700008C
(1485365693.748169) can0 2C4#040700130000A28E
(1485365693.755886) can0 0B2#000000000003
(1485365693.756021) can0 0B0#000000000003
(1485365693.756347) can0 223#0000007FE000008C
(1485365693.756513) can0 0B4#00000000000000BC
(1485365693.756812) can0 224#0000000000000000
(1485365693.757123) can0 3B7#0000000000000000
(1485365693.757456) can0 260#08002600000021B9
(1485365693.765691) can0 0B2#000000000004
(1485365693.765836) can0 0B0#000000000004
(1485365693.767209) can0 2C4#040600130000A28D
(1485365693.767291) can0 3B3#040600
(1485365693.775762) can0 0B2#000000000005
(1485365693.775889) can0 0B0#000000000005
(1485365693.776245) can0 0B4#00000000000000BC
(1485365693.777187) can0 2C1#08FFE7FFE400009C
(1485365693.777589) can0 260#08001D00000020AF
(1485365693.779412) can0 440#4202000007000000
(1485365693.785697) can0 0B2#000000000006
(1485365693.785875) can0 0B0#000000000006
(1485365693.786136) can0 223#0000007FE000008C
(1485365693.786473) can0 224#0000000000000000
(1485365693.787238) can0 2C4#040500130000A28C
(1485365693.795712) can0 0B2#000000000007
(1485365693.795845) can0 0B0#000000000007
(1485365693.796225) can0 0B4#00000000000000BC
(1485365693.797837) can0 260#0800000000FFE253
(1485365693.797999) can0 3A0#0000000000000014
(1485365693.805712) can0 0B2#000000000008
(1485365693.805844) can0 0B0#000000000008
(1485365693.807209) can0 2C1#08FFF0FFED0000AE
(1485365693.807434) can0 2C4#040500130000A28C
(1485365693.815862) can0 0B2#000000000009
(1485365693.815996) can0 0B0#000000000009
(1485365693.816309) can0 223#0000007FE000008C
(1485365693.816481) can0 0B4#00000000000000BC
(1485365693.816762) can0 224#0000000000000000
(1485365693.818062) can0 260#08FFEA0000FFD832
(1485365693.822739) can0 394#00
(1485365693.825716) can0 0B2#00000000000A
(1485365693.825847) can0 0B0#00000000000A
(1485365693.827135) can0 2C4#040600130000A28D
(1485365693.835760) can0 0B2#00000000000B
(1485365693.835921) can0 0B0#00000000000B
(1485365693.836273) can0 0B4#00000000000000BC
(1485365693.837237) can0 2C1#08FFEDFFEA0000A8
(1485365693.838235) can0 260#08FFEC0000FFF14D
(1485365693.845742) can0 0B2#00000000000C
(1485365693.845877) can0 0B0#00000000000C
(1485365693.846151) can0 223#0000007FE000008C
(1485365693.846482) can0 224#0000000000000000
(1485365693.847215) can0 2C4#040800130000A28F
(1485365693.853191) can0 4C8#0900010700000000
(1485365693.855736) can0 0B2#00000000000D
(1485365693.855868) can0 0B0#00000000000D
(1485365693.856161) can0 0B4#00000000000000BC
(1485365693.858488) can0 260#08FFFE0000000170
(1485365693.865645) can0 0B2#00000000000E
(1485365693.865771) can0 0B0#00000000000E
(1485365693.867185) can0 2C1#08FFF0FFE40000A5
(1485365693.867441) can0 2C4#040700130000A28E
(1485365693.875786) can0 0B2#00000000000F
(1485365693.875934) can0 0B0#00000000000F
(1485365693.876259) can0 223#0000007FE000008C
(1485365693.876428) can0 0B4#00000000000000BC
(1485365693.876735) can0 224#0000000000000000
(1485365693.878687) can0 260#08000B0000000E8B
(1485365693.879021) can0 442#4002000003000000
(1485365693.885644) can0 0B2#000000000000
(1485365693.885772) can0 0B0#000000000000
(1485365693.887209) can0 2C4#040300130000A28A
(1485365693.895712) can0 0B2#000000000001
(1485365693.895846) can0 0B0#000000000001
(1485365693.896201) can0 0B4#00000000000000BC
(1485365693.897184) can0 2C1#08FFFDFFFD0000CB
(1485365693.897912) can0 3A0#0000000000000013
(1485365693.898849) can0 260#0800100000FFF778
(1485365693.905713) can0 0B2#000000000002
(1485365693.905846) can0 0B0#000000000002
(1485365693.906144) can0 223#0000007FE000008C
(1485365693.906466) can0 224#0000000000000000
(1485365693.907220) can0 2C4#040400130000A28B
(1485365693.915709) can0 0B2#000000000003
(1485365693.915846) can0 0B0#000000000003
(1485365693.916177) can0 0B4#00000000000000BC
(1485365693.919063) can0 260#0800040000000177
(1485365693.924822) can0 620#1000000030600050
(1485365693.925663) can0 0B2#000000000004
(1485365693.925795) can0 0B0#000000000004
(1485365693.927188) can0 2C1#08FFF4FFFA0000BF
(1485365693.927439) can0 2C4#040700130000A28E
(1485365693.935808) can0 0B2#000000000005
(1485365693.935920) can0 0B0#000000000005
(1485365693.936230) can0 223#0000007FE000008C
(1485365693.936449) can0 0B4#00000000000000BC
(1485365693.936753) can0 224#0000000000000000
(1485365693.939285) can0 260#08FFF40000FFF155
(1485365693.945678) can0 0B2#000000000006
(1485365693.945794) can0 0B0#000000000006
(1485365693.947488) can0 2C4#040800130000A28F
(1485365693.955711) can0 0B2#000000000007
(1485365693.955846) can0 0B0#000000000007
(1485365693.956205) can0 0B4#00000000000000BC
(1485365693.957214) can0 2C1#08FFF4FFED0000B2
(1485365693.959489) can0 260#08FFF6000000076E
(1485365693.965766) can0 0B2#000000000008
(1485365693.965895) can0 0B0#000000000008
(1485365693.966202) can0 223#0000007FE000008C
(1485365693.966483) can0 224#0000000000000000
(1485365693.967192) can0 2C4#040800130000A28F
(1485365693.970492) can0 398#07D6
(1485365693.975764) can0 0B2#000000000009
(1485365693.975916) can0 0B0#000000000009
(1485365693.976265) can0 0B4#00000000000000BC
(1485365693.979139) can0 440#4202000007000000
(1485365693.979612) can0 260#0800040000FFF76C
(1485365693.985666) can0 0B2#00000000000A
(1485365693.985794) can0 0B0#00000000000A
(1485365693.987189) can0 2C1#08FFF4FFF00000B5
(1485365693.987451) can0 2C4#040800130000A28F
(1485365693.995781) can0 0B2#00000000000B
(1485365693.995935) can0 0B0#00000000000B
(1485365693.996239) can0 223#0000007FE000008C
(1485365693.996463) can0 0B4#00000000000000BC
(1485365693.996733) can0 224#0000000000000000
(1485365693.997881) can0 3A0#0000000000000013
(1485365693.999915) can0 260#08000B000000007D
(1485365694.005668) can0 0B2#00000000000C
(1485365694.005794) can0 0B0#00000000000C
(1485365694.008039) can0 2C4#040A00130000A291
(1485365694.008467) can0 3B1#0000022A00000000
(1485365694.015736) can0 0B2#00000000000D
(1485365694.015874) can0 0B0#00000000000D
(1485365694.016205) can0 0B4#00000000000000BC
(1485365694.017188) can0 2C1#08FFF4FFF00000B5
(1485365694.020088) can0 260#0800050000000B82
(1485365694.025724) can0 0B2#00000000000E
(1485365694.025871) can0 0B0#00000000000E
(1485365694.026152) can0 223#0000007FE000008C
(1485365694.026468) can0 224#0000000000000000
(1485365694.027941) can0 2C4#040700130000A28E
(1485365694.035741) can0 0B2#00000000000F
(1485365694.035874) can0 0B0#00000000000F
(1485365694.036220) can0 0B4#00000000000000BC
(1485365694.037265) can0 4C1#0100500500000000
(1485365694.040269) can0 260#08FFF80000FFFF67
(1485365694.045667) can0 0B2#000000000000
(1485365694.045825) can0 0B0#000000000000
(1485365694.047190) can0 2C1#08FFFAFFFA0000C5
(1485365694.047448) can0 2C4#040800130000A28F
(1485365694.055818) can0 0B2#000000000001
(1485365694.055946) can0 0B0#000000000001
(1485365694.056201) can0 223#0000007FE000008C
(1485365694.056484) can0 0B4#00000000000000BC
(1485365694.056727) can0 224#0000000000000000
(1485365694.057022) can0 3B7#0000000000000000
(1485365694.060543) can0 260#08FFF70000FFF85F
(1485365694.065685) can0 0B2#000000000002
(1485365694.065821) can0 0B0#000000000002
(1485365694.067189) can0 2C4#040A00130000A291
(1485365694.075742) can0 0B2#000000000003
(1485365694.075868) can0 0B0#000000000003
(1485365694.076225) can0 0B4#00000000000000BC
(1485365694.077192) can0 2C1#08FFF0FFED0000AE
(1485365694.078636) can0 442#4002000003000000
(1485365694.080718) can0 260#0800020000FFF96C
(1485365694.085767) can0 0B2#000000000004
(1485365694.085899) can0 0B0#000000000004
(1485365694.086152) can0 223#0000007FE000008C
(1485365694.086485) can0 224#0000000000000000
(1485365694.087214) can0 2C4#040B00130000A292
(1485365694.095743) can0 0B2#000000000005
(1485365694.095873) can0 0B0#000000000005
(1485365694.096237) can0 0B4#00000000000000BC
(1485365694.097864) can0 3A0#0000000000000013
(1485365694.100868) can0 260#080009000000007B
(1485365694.105664) can0 0B2#000000000006
(1485365694.105796) can0 0B0#000000000006
(1485365694.107193) can0 2C1#08FFF0FFED0000AE
(1485365694.107450) can0 2C4#040B00130000A292
(1485365694.115753) can0 0B2#000000000007
(1485365694.115952) can0 0B0#000000000007
(1485365694.116225) can0 223#0000007FE000008C
(1485365694.116486) can0 0B4#00000000000000BC
(1485365694.116742) can0 224#0000000000000000
(1485365694.121143) can0 260#0800040000000379
(1485365694.125666) can0 0B2#000000000008
(1485365694.125796) can0 0B0#000000000008
(1485365694.125955) can0 394#00
(1485365694.127193) can0 2C4#040E00130000A295
(1485365694.135740) can0 0B2#000000000009
(1485365694.135872) can0 0B0#000000000009
(1485365694.136172) can0 0B4#00000000000000BC
(1485365694.138364) can0 2C1#08FFE4FFE0000095
(1485365694.138551) can0 4DD#1E00000500000000
(1485365694.141311) can0 260#08FFFA0000000570
(1485365694.145717) can0 0B2#00000000000A
(1485365694.145856) can0 0B0#00000000000A
(1485365694.146113) can0 223#0000007FE000008C
(1485365694.146468) can0 224#0000000000000000
(1485365694.147190) can0 2C4#041200130000A299
(1485365694.155720) can0 0B2#00000000000B
(1485365694.155858) can0 0B0#00000000000B
(1485365694.156135) can0 0B4#00000000000000BC
(1485365694.161416) can0 260#08FFF8000000056E
(1485365694.165653) can0 0B2#00000000000C
(1485365694.165808) can0 0B0#00000000000C
(1485365694.167200) can0 2C1#08FFD0FFD0000071
(1485365694.167447) can0 2C4#041300130000A29A
(1485365694.173926) can0 440#4202000007000000
(1485365694.175825) can0 0B2#00000000000D
(1485365694.175963) can0 0B0#00000000000D
(1485365694.176244) can0 223#0000007FE000008C
(1485365694.176470) can0 0B4#00000000000000BC
(1485365694.176726) can0 224#0000000000000000
(1485365694.179499) can0 610#2000006400000000
(1485365694.181726) can0 260#0800010000FFFF71
(1485365694.185699) can0 0B2#00000000000E
(1485365694.185830) can0 0B0#00000000000E
(1485365694.187199) can0 2C4#041100130000A298
(1485365694.195774) can0 0B2#00000000000F
(1485365694.195906) can0 0B0#00000000000F
(1485365694.196259) can0 0B4#00000000000000BC
(1485365694.197200) can0 2C1#08FFD7FFD400007C
(1485365694.197869) can0 3A0#0000000000000013
(1485365694.200399) can0 4ED#5C00000000000000
(1485365694.201900) can0 260#0800070000FFFD75
(1485365694.205800) can0 0B2#000000000000
(1485365694.205935) can0 0B0#000000000000
(1485365694.206209) can0 223#0000007FE000008C
(1485365694.206494) can0 224#0000000000000000
(1485365694.207503) can0 2C4#041100130000A298
(1485365694.215768) can0 0B2#000000000001
(1485365694.215914) can0 0B0#000000000001
(1485365694.216254) can0 0B4#00000000000000BC
(1485365694.222000) can0 260#080004000000047A
(1485365694.224402) can0 620#1000000030600050
(1485365694.225751) can0 0B2#000000000002
(1485365694.225877) can0 0B0#000000000002
(1485365694.227176) can0 2C1#08FFD0FFD4000075
(1485365694.227465) can0 2C4#041200130000A299
(1485365694.227827) can0 4DC#1D00010900000000
(1485365694.235852) can0 0B2#000000000003
(1485365694.235990) can0 0B0#000000000003
(1485365694.236228) can0 223#0000007FE000008C
(1485365694.236536) can0 0B4#00000000000000BC
(1485365694.236719) can0 224#0000000000000000
(1485365694.242300) can0 260#08FFFB0000FFF35E
(1485365694.245676) can0 0B2#000000000004
(1485365694.245801) can0 0B0#000000000004
(1485365694.247201) can0 2C4#041100130000A298
(1485365694.255722) can0 0B2#000000000005
(1485365694.255855) can0 0B0#000000000005
(1485365694.256217) can0 0B4#00000000000000BC
(1485365694.257201) can0 2C1#08FFDAFFD7000082
(1485365694.262394) can0 260#08FFFA0000FFFC66
(1485365694.265780) can0 0B2#000000000006
(1485365694.265923) can0 0B0#000000000006
(1485365694.266207) can0 223#0000007FE000008C
(1485365694.266542) can0 224#0000000000000000
(1485365694.267383) can0 2C4#041100130000A298
(1485365694.267491) can0 3B3#041100
(1485365694.267776) can0 3B0#0000003200
(1485365694.270426) can0 442#4002000003000000
(1485365694.275773) can0 0B2#000000000007
(1485365694.275894) can0 0B0#000000000007
(1485365694.276259) can0 0B4#00000000000000BC
(1485365694.282601) can0 260#0800010000000376
(1485365694.285677) can0 0B2#000000000008
(1485365694.285802) can0 0B0#000000000008
(1485365694.287201) can0 2C1#08FFC4FFD0000065
(1485365694.287446) can0 2C4#041500130000A29C
(1485365694.295832) can0 0B2#000000000009
(1485365694.295971) can0 0B0#000000000009
(1485365694.296281) can0 223#0000007FE000008C
(1485365694.296501) can0 0B4#00000000000000BC
(1485365694.296723) can0 224#0000000000000000
(1485365694.297871) can0 3A0#0000000000000014
(1485365694.302631) can0 260#0800060000FFF56C
(1485365694.305552) can0 0B2#00000000000A
(1485365694.305768) can0 0B0#00000000000A
(1485365694.307175) can0 2C4#041500130000A29C
(1485365694.315705) can0 0B2#00000000000B
(1485365694.315828) can0 0B0#00000000000B
(1485365694.316144) can0 0B4#00000000000000BC
(1485365694.317601) can0 2C1#08FFC0FFBD00004E
(1485365694.323105) can0 260#0800040000FFF56A
(1485365694.325776) can0 0B2#00000000000C
(1485365694.325932) can0 0B0#00000000000C
(1485365694.326221) can0 223#0000007FE000008C
(1485365694.326514) can0 224#0000000000000000
(1485365694.327159) can0 2C4#041500130000A29C
(1485365694.327900) can0 380#00A0043000000300
(1485365694.335775) can0 0B2#00000000000D
(1485365694.335897) can0 0B0#00000000000D
(1485365694.336261) can0 0B4#00000000000000BC
(1485365694.343203) can0 260#08FFFE0000000271
(1485365694.345705) can0 0B2#00000000000E
(1485365694.345830) can0 0B0#00000000000E
(1485365694.347201) can0 2C1#08FFBAFFBA000045
(1485365694.347446) can0 2C4#041600130000A29D
(1485365694.355880) can0 0B2#00000000000F
(1485365694.356006) can0 0B0#00000000000F
(1485365694.356317) can0 223#0000007FE000008C
(1485365694.356524) can0 0B4#00000000000000BC
(1485365694.356776) can0 224#0000000000000000
(1485365694.357109) can0 3B7#0000000000000000
(1485365694.363324) can0 260#08FFFC0000FFFB67
(1485365694.365654) can0 0B2#000000000000
(1485365694.365781) can0 0B0#000000000000
(1485365694.367174) can0 2C4#041800130000A29F
(1485365694.368677) can0 440#4202000007000000
(1485365694.375724) can0 0B2#000000000001
(1485365694.375858) can0 0B0#000000000001
(1485365694.376180) can0 0B4#00000000000000BC
(1485365694.377527) can0 2C1#08FFBAFFAD000038
(1485365694.383425) can0 260#0800010000000477
(1485365694.385728) can0 0B2#000000000002
(1485365694.385855) can0 0B0#000000000002
(1485365694.386158) can0 223#0000007FE000008C
(1485365694.386470) can0 224#0000000000000000
(1485365694.386724) can0 4C3#0400300500000000
(1485365694.387191) can0 2C4#041500130000A29C
(1485365694.395704) can0 0B2#000000000003
(1485365694.395857) can0 0B0#000000000003
(1485365694.396166) can0 0B4#00000000000000BC
(1485365694.397876) can0 3A0#0000000000000014
(1485365694.403831) can0 260#080005000000037A
(1485365694.405627) can0 0B2#000000000004
(1485365694.405750) can0 0B0#000000000004
(1485365694.407177) can0 2C1#08FFCDFFBA000058
(1485365694.407332) can0 2C4#041000130000A297
(1485365694.415775) can0 0B2#000000000005
(1485365694.415924) can0 0B0#000000000005
(1485365694.416212) can0 223#0000007FE000008C
(1485365694.416468) can0 0B4#00000000000000BC
(1485365694.416678) can0 224#0000000000000000
(1485365694.423856) can0 260#080003000000077C
(1485365694.425627) can0 0B2#000000000006
(1485365694.425754) can0 0B0#000000000006
(1485365694.427424) can0 2C4#041000130000A297
(1485365694.428878) can0 394#00
(1485365694.435655) can0 0B2#000000000007
(1485365694.435809) can0 0B0#000000000007
(1485365694.436139) can0 0B4#00000000000000BC
(1485365694.437134) can0 2C1#08FFD0FFCD00006E
(1485365694.444228) can0 260#08FFFF0000FFF867
(1485365694.445702) can0 0B2#000000000008
(1485365694.445832) can0 0B0#000000000008
(1485365694.446120) can0 223#0000007FE000008C
(1485365694.446480) can0 224#0000000000000000
(1485365694.447204) can0 2C4#041000130000A297
(1485365694.455705) can0 0B2#000000000009
(1485365694.455833) can0 0B0#000000000009
(1485365694.456167) can0 0B4#00000000000000BC
(1485365694.459598) can0 442#4002000003000000
(1485365694.464427) can0 260#08FFFC0000FFF35F
(1485365694.465605) can0 0B2#00000000000A
(1485365694.465796) can0 0B0#00000000000A
(1485365694.467177) can0 2C1#08FFDAFFCD000078
(1485365694.467331) can0 2C4#040E00130000A295
(1485365694.475801) can0 0B2#00000000000B
(1485365694.475921) can0 0B0#00000000000B
(1485365694.476234) can0 223#0000007FE000008C
(1485365694.476447) can0 0B4#00000000000000BC
(1485365694.476705) can0 224#0000000000000000
(1485365694.484655) can0 260#0800000000000274
(1485365694.485696) can0 0B2#00000000000C
(1485365694.485832) can0 0B0#00000000000C
(1485365694.488052) can0 2C4#040A00130000A291
(1485365694.495752) can0 0B2#00000000000D
(1485365694.495882) can0 0B0#00000000000D
(1485365694.496259) can0 0B4#00000000000000BC
(1485365694.497177) can0 2C1#08FFEAFFE70000A2
(1485365694.497848) can0 3A0#0000000000000013
(1485365694.504678) can0 260#0800040000FFF86D
(1485365694.505727) can0 0B2#00000000000E
(1485365694.505856) can0 0B0#00000000000E
(1485365694.506132) can0 223#0000007FE000008C
(1485365694.506497) can0 224#0000000000000000
(1485365694.507702) can0 2C4#040A00130000A291
(1485365694.515727) can0 0B2#00000000000F
(1485365694.515856) can0 0B0#00000000000F
(1485365694.516191) can0 0B4#00000000000000BC
(1485365694.524053) can0 620#1000000030600050
(1485365694.525051) can0 260#0800020000000175
(1485365694.525671) can0 0B2#000000000000
(1485365694.525797) can0 0B0#000000000000
(1485365694.527175) can0 2C1#08FFF0FFEA0000AB
(1485365694.527329) can0 2C4#040900130000A290
(1485365694.535800) can0 0B2#000000000001
(1485365694.535921) can0 0B0#000000000001
(1485365694.536253) can0 223#0000007FE000008C
(1485365694.536423) can0 0B4#00000000000000BC
(1485365694.536747) can0 224#0000000000000000
(1485365694.545081) can0 260#0800000000FFFD6E
(1485365694.545658) can0 0B2#000000000002
(1485365694.545798) can0 0B0#000000000002
(1485365694.547181) can0 2C4#040900130000A290
(1485365694.555703) can0 0B2#000000000003
(1485365694.555858) can0 0B0#000000000003
(1485365694.556168) can0 0B4#00000000000000BC
(1485365694.557175) can0 2C1#08FFF0FFED0000AE
(1485365694.558350) can0 440#4202000007000000
(1485365694.565506) can0 260#08FFFF0000000575
(1485365694.565658) can0 0B2#000000000004
(1485365694.565933) can0 0B0#000000000004
(1485365694.566097) can0 223#0000007FE000008C
(1485365694.566480) can0 224#0000000000000000
(1485365694.567205) can0 2C4#040A00130000A291
(1485365694.575729) can0 0B2#000000000005
(1485365694.575857) can0 0B0#000000000005
(1485365694.576211) can0 0B4#00000000000000BC
(1485365694.585504) can0 260#0800010000FFF466
(1485365694.585621) can0 0B2#000000000006
(1485365694.585865) can0 0B0#000000000006
(1485365694.587204) can0 2C1#08FFE4FFEA00009F
(1485365694.587436) can0 2C4#040C00130000A293
(1485365694.588528) can0 621#1100000000000000
(1485365694.595832) can0 0B2#000000000007
(1485365694.595950) can0 0B0#000000000007
(1485365694.596262) can0 223#0000007FE000008C
(1485365694.596471) can0 0B4#00000000000000BC
(1485365694.596727) can0 224#0000000000000000
(1485365694.597877) can0 3A0#0000000000000013
(1485365694.598519) can0 622#1200000000000000
(1485365694.605677) can0 0B2#000000000008
(1485365694.605803) can0 0B0#000000000008
(1485365694.606116) can0 260#0800020000FFFC6F
(1485365694.607175) can0 2C4#040C00130000A293
(1485365694.607573) can0 624#1A0057FFFF400000
(1485365694.615726) can0 0B2#000000000009
(1485365694.615858) can0 0B0#000000000009
(1485365694.616220) can0 0B4#00000000000000BC
(1485365694.616747) can0 630#1700000000000000
(1485365694.618349) can0 2C1#08FFEAFFE70000A2
(1485365694.625757) can0 0B2#00000000000A
(1485365694.625882) can0 0B0#00000000000A
(1485365694.626184) can0 223#0000007FE000008C
(1485365694.626473) can0 260#0800020000FFFD70
(1485365694.626623) can0 224#0000000000000000
(1485365694.626904) can0 638#1300110000000000
(1485365694.627156) can0 2C4#040B00130000A292
(1485365694.635729) can0 0B2#00000000000B
(1485365694.635858) can0 0B0#00000000000B
(1485365694.636160) can0 0B4#00000000000000BC
(1485365694.645678) can0 0B2#00000000000C
(1485365694.645802) can0 0B0#00000000000C
(1485365694.646238) can0 260#0800000000000375
(1485365694.647175) can0 2C1#08FFE4FFEA00009F
(1485365694.647323) can0 2C4#040D00130000A294
(1485365694.648608) can0 442#4002000003000000
(1485365694.655827) can0 0B2#00000000000D
(1485365694.655961) can0 0B0#00000000000D
(1485365694.656244) can0 223#0000007FE000008C
(1485365694.656479) can0 0B4#00000000000000BC
(1485365694.656741) can0 224#0000000000000000
(1485365694.657044) can0 3B7#0000000000000000
(1485365694.665632) can0 0B2#00000000000E
(1485365694.665763) can0 0B0#00000000000E
(1485365694.666502) can0 260#0800000000000476
(1485365694.667164) can0 2C4#041200130000A299
(1485365694.675675) can0 0B2#00000000000F
(1485365694.675823) can0 0B0#00000000000F
(1485365694.676163) can0 0B4#00000000000000BC
(1485365694.677150) can0 2C1#08FFCAFFCD000068
(1485365694.679426) can0 610#2000006400000000
(1485365694.685733) can0 0B2#000000000000
(1485365694.685876) can0 0B0#000000000000
(1485365694.686121) can0 223#0000007FE000008C
(1485365694.686451) can0 224#0000000000000000
(1485365694.686630) can0 260#0800010000FFFD6F
(1485365694.687490) can0 2C4#041300130000A29A
(1485365694.689404) can0 611#2100201200021DB5
(1485365694.695729) can0 0B2#000000000001
(1485365694.695843) can0 0B0#000000000001
(1485365694.696216) can0 0B4#00000000000000BC
(1485365694.697854) can0 3A0#0000000000000013
(1485365694.700078) can0 640#A8000032020E0000
(1485365694.705601) can0 0B2#000000000002
(1485365694.705805) can0 0B0#000000000002
(1485365694.706967) can0 260#0800020000000276
(1485365694.707171) can0 2C1#08FFD0FFC7000068
(1485365694.707466) can0 2C4#041100130000A298
(1485365694.715824) can0 0B2#000000000003
(1485365694.715971) can0 0B0#000000000003
(1485365694.716290) can0 223#0000007FE000008C
(1485365694.716478) can0 0B4#00000000000000BC
(1485365694.716739) can0 224#0000000000000000
(1485365694.720898) can0 38A#0804000000
(1485365694.721080) can0 3B4#000036B800000000
(1485365694.725671) can0 0B2#000000000004
(1485365694.725803) can0 0B0#000000000004
(1485365694.727144) can0 2C4#041300130000A29A
(1485365694.727328) can0 260#0800010000000578
(1485365694.731996) can0 394#00
(1485365694.735745) can0 0B2#000000000005
(1485365694.735879) can0 0B0#000000000005
(1485365694.736201) can0 0B4#00000000000000BC
(1485365694.737167) can0 2C1#08FFC0FFBD00004E
(1485365694.745751) can0 0B2#000000000006
(1485365694.745909) can0 0B0#000000000006
(1485365694.746182) can0 223#0000007FE000008C
(1485365694.746489) can0 224#0000000000000000
(1485365694.747214) can0 2C4#041500130000A29C
(1485365694.747441) can0 260#0800000000000C7E
(1485365694.748119) can0 440#4202000007000000
(1485365694.755746) can0 0B2#000000000007
(1485365694.755878) can0 0B0#000000000007
(1485365694.756237) can0 0B4#00000000000000BC
(1485365694.765650) can0 0B2#000000000008
(1485365694.765781) can0 0B0#000000000008
(1485365694.767145) can0 2C1#08FFCAFFBD000058
(1485365694.767308) can0 2C4#041200130000A299
(1485365694.767606) can0 260#080000000000087A
(1485365694.767709) can0 3B3#041200
(1485365694.775794) can0 0B2#000000000009
(1485365694.775944) can0 0B0#000000000009
(1485365694.776241) can0 223#0000007FE000008C
(1485365694.776417) can0 0B4#00000000000000BC
(1485365694.776723) can0 224#0000000000000000
(1485365694.785672) can0 0B2#00000000000A
(1485365694.785804) can0 0B0#00000000000A
(1485365694.787171) can0 2C4#041300130000A29A
(1485365694.787812) can0 260#0800000000000B7D
(1485365694.795743) can0 0B2#00000000000B
(1485365694.795882) can0 0B0#00000000000B
(1485365694.796212) can0 0B4#00000000000000BC
(1485365694.797567) can0 2C1#08FFC7FFC400005C
(1485365694.797781) can0 3A0#0000000000000013
(1485365694.805745) can0 0B2#00000000000C
(1485365694.805881) can0 0B0#00000000000C
(1485365694.806173) can0 223#0000007FE000008C
(1485365694.806471) can0 224#0000000000000000
(1485365694.807118) can0 2C4#041400130000A29B
(1485365694.808089) can0 260#0800010000000578
(1485365694.815746) can0 0B2#00000000000D
(1485365694.815882) can0 0B0#00000000000D
(1485365694.816235) can0 0B4#00000000000000BC
(1485365694.823622) can0 620#1000000030600050
(1485365694.825647) can0 0B2#00000000000E
(1485365694.825780) can0 0B0#00000000000E
(1485365694.827145) can0 2C1#08FFC4FFBD000052
(1485365694.827307) can0 2C4#041300130000A29A
(1485365694.828274) can0 260#0800000000000173
(1485365694.835770) can0 0B2#00000000000F
(1485365694.835900) can0 0B0#00000000000F
(1485365694.836204) can0 223#0000007FE000008C
(1485365694.836485) can0 0B4#00000000000000BC
(1485365694.836647) can0 224#0000000000000000
(1485365694.838821) can0 442#4002000003000000
(1485365694.843221) can0 4C8#0900010700000000
(1485365694.845697) can0 0B2#000000000000
(1485365694.845825) can0 0B0#000000000000
(1485365694.847146) can0 2C4#041000130000A297
(1485365694.848499) can0 260#0800000000000173
(1485365694.855746) can0 0B2#000000000001
(1485365694.855882) can0 0B0#000000000001
(1485365694.856238) can0 0B4#00000000000000BC
(1485365694.857746) can0 2C1#08FFCAFFCD000068
(1485365694.865730) can0 0B2#000000000002
(1485365694.865876) can0 0B0#000000000002
(1485365694.866153) can0 223#0000007FE000008C
(1485365694.866492) can0 224#0000000000000000
(1485365694.867157) can0 2C4#041100130000A298
(1485365694.868698) can0 260#0800000000000678
(1485365694.875741) can0 0B2#000000000003
(1485365694.875882) can0 0B0#000000000003
(1485365694.876238) can0 0B4#00000000000000BC
(1485365694.885620) can0 0B2#000000000004
(1485365694.885758) can0 0B0#000000000004
(1485365694.887146) can0 2C1#08FFBAFFC7000052
(1485365694.887330) can0 2C4#041500130000A29C
(1485365694.888900) can0 260#0800010000000376
(1485365694.895771) can0 0B2#000000000005
(1485365694.895927) can0 0B0#000000000005
(1485365694.896187) can0 223#0000007FE000008C
(1485365694.896481) can0 0B4#00000000000000BC
(1485365694.896692) can0 224#0000000000000000
(1485365694.897819) can0 3A0#0000000000000014
(1485365694.905621) can0 0B2#000000000006
(1485365694.905757) can0 0B0#000000000006
(1485365694.907370) can0 2C4#041500130000A29C
(1485365694.909074) can0 260#0800010000000073
(1485365694.915672) can0 0B2#000000000007
(1485365694.915820) can0 0B0#000000000007
(1485365694.916116) can0 0B4#00000000000000BC
(1485365694.917143) can0 2C1#08FFB7FFB400003C
(1485365694.925699) can0 0B2#000000000008
(1485365694.925831) can0 0B0#000000000008
(1485365694.926113) can0 223#0000007FE000008C
(1485365694.926472) can0 224#0000000000000000
(1485365694.927174) can0 2C4#041500130000A29C
(1485365694.929320) can0 260#0800010000FFFC6E
(1485365694.935672) can0 0B2#000000000009
(1485365694.935820) can0 0B0#000000000009
(1485365694.936168) can0 0B4#00000000000000BC
(1485365694.937921) can0 440#4202000007000000
(1485365694.945621) can0 0B2#00000000000A
(1485365694.945758) can0 0B0#00000000000A
(1485365694.947147) can0 2C1#08FFB4FFB4000039
(1485365694.947308) can0 2C4#041500130000A29C
(1485365694.947599) can0 4C1#0100500500000000
(1485365694.949496) can0 260#0800000000000A7C
(1485365694.955748) can0 0B2#00000000000B
(1485365694.955882) can0 0B0#00000000000B
(1485365694.956206) can0 223#0000007FE000008C
(1485365694.956460) can0 0B4#00000000000000BC
(1485365694.956646) can0 224#0000000000000000
(1485365694.957003) can0 3B7#0000000000000000
(1485365694.965596) can0 0B2#00000000000C
(1485365694.965734) can0 0B0#00000000000C
(1485365694.967971) can0 2C4#041300130000A29A
(1485365694.969699) can0 260#080000000000087A
(1485365694.975673) can0 0B2#00000000000D
(1485365694.975796) can0 0B0#00000000000D
(1485365694.976171) can0 0B4#00000000000000BC
(1485365694.977146) can0 2C1#08FFBAFFBA000045
(1485365694.985696) can0 0B2#00000000000E
(1485365694.985830) can0 0B0#00000000000E
(1485365694.986118) can0 223#0000007FE000008C
(1485365694.986475) can0 224#0000000000000000
(1485365694.987156) can0 2C4#041100130000A298
(1485365694.989924) can0 260#0800010000FFF86A
(1485365694.995701) can0 0B2#00000000000F
(1485365694.995827) can0 0B0#00000000000F
(1485365694.996159) can0 0B4#00000000000000BC
(1485365694.997821) can0 3A0#0000000000000014
(1485365695.005635) can0 0B2#000000000000
(1485365695.005782) can0 0B0#000000000000
(1485365695.007147) can0 2C1#08FFBAFFBD000048
(1485365695.007309) can0 2C4#041300130000A29A
(1485365695.010121) can0 260#0800010000000578
(1485365695.011183) can0 3B1#0000022A00000000
(1485365695.015794) can0 0B2#000000000001
(1485365695.015928) can0 0B0#000000000001
(1485365695.016244) can0 223#0000007FE000008C
(1485365695.016425) can0 0B4#00000000000000BC
(1485365695.016723) can0 224#0000000000000000
(1485365695.025624) can0 0B2#000000000002
(1485365695.025769) can0 0B0#000000000002
(1485365695.027146) can0 2C4#041500130000A29C
(1485365695.028551) can0 442#4002000003000000
(1485365695.030246) can0 260#0800010000FFF466
(1485365695.034987) can0 394#00
(1485365695.035616) can0 0B2#000000000003
(1485365695.035837) can0 0B0#000000000003
(1485365695.036140) can0 0B4#00000000000000BC
(1485365695.037137) can0 2C1#08FFB0FFAD00002E
(1485365695.045700) can0 0B2#000000000004
(1485365695.045844) can0 0B0#000000000004
(1485365695.046116) can0 223#0000007FE000008C
(1485365695.046474) can0 224#0000000000000000
(1485365695.047171) can0 2C4#041500130000A29C
(1485365695.050548) can0 260#0800000000000577
(1485365695.055699) can0 0B2#000000000005
(1485365695.055842) can0 0B0#000000000005
(1485365695.056164) can0 0B4#00000000000000BC
(1485365695.065625) can0 0B2#000000000006
(1485365695.065757) can0 0B0#000000000006
(1485365695.067147) can0 2C1#08FFB0FFAA00002B
(1485365695.067320) can0 2C4#041400130000A29B
(1485365695.070722) can0 260#0800010000FFFC6E
(1485365695.075771) can0 0B2#000000000007
(1485365695.075898) can0 0B0#000000000007
(1485365695.076197) can0 223#0000007FE000008C
(1485365695.076466) can0 0B4#00000000000000BC
(1485365695.076680) can0 224#0000000000000000
(1485365695.085626) can0 0B2#000000000008
(1485365695.085767) can0 0B0#000000000008
(1485365695.087147) can0 2C4#041300130000A29A
(1485365695.090914) can0 260#080001000000077A
(1485365695.095701) can0 0B2#000000000009
(1485365695.095819) can0 0B0#000000000009
(1485365695.096194) can0 0B4#00000000000000BC
(1485365695.097222) can0 2C1#08FFB7FFB0000038
(1485365695.097795) can0 3A0#0000000000000013
(1485365695.105725) can0 0B2#00000000000A
(1485365695.105884) can0 0B0#00000000000A
(1485365695.106164) can0 223#0000007FE000008C
(1485365695.106494) can0 224#0000000000000000
(1485365695.107111) can0 2C4#041300130000A29A
(1485365695.111175) can0 260#0800010000FFF769
(1485365695.115702) can0 0B2#00000000000B
(1485365695.115859) can0 0B0#00000000000B
(1485365695.116202) can0 0B4#00000000000000BC
(1485365695.123222) can0 620#1000000030600050
(1485365695.125674) can0 0B2#00000000000C
(1485365695.125804) can0 0B0#00000000000C
(1485365695.127344) can0 2C1#08FFBDFFB4000042
(1485365695.127495) can0 2C4#041100130000A298
(1485365695.127778) can0 440#4202000007000000
(1485365695.131344) can0 260#0800010000FFFE70
(1485365695.135795) can0 0B2#00000000000D
(1485365695.135924) can0 0B0#00000000000D
(1485365695.136220) can0 223#0000007FE000008C
(1485365695.136462) can0 0B4#00000000000000BC
(1485365695.136702) can0 224#0000000000000000
(1485365695.145650) can0 0B2#00000000000E
(1485365695.145784) can0 0B0#00000000000E
(1485365695.147148) can0 2C4#040F00130000A296
(1485365695.151526) can0 260#0800010000FFFC6E
(1485365695.153221) can0 4DD#1E00000500000000
(1485365695.155697) can0 0B2#00000000000F
(1485365695.155834) can0 0B0#00000000000F
(1485365695.156162) can0 0B4#00000000000000BC
(1485365695.157144) can0 2C1#08FFC4FFC0000055
(1485365695.165727) can0 0B2#000000000000
(1485365695.165859) can0 0B0#000000000000
(1485365695.166155) can0 223#0000007FE000008C
(1485365695.166477) can0 224#0000000000000000
(1485365695.167175) can0 2C4#040F00130000A296
(1485365695.171751) can0 260#080001000000077A
(1485365695.175700) can0 0B2#000000000001
(1485365695.175834) can0 0B0#000000000001
(1485365695.176164) can0 0B4#00000000000000BC
(1485365695.179595) can0 610#2000006400000000
(1485365695.185599) can0 0B2#000000000002
(1485365695.185736) can0 0B0#000000000002
(1485365695.187147) can0 2C1#08FFC0FFC0000051
(1485365695.187310) can0 2C4#041000130000A297
(1485365695.191927) can0 260#0800010000FFF466
(1485365695.195751) can0 0B2#000000000003
(1485365695.195888) can0 0B0#000000000003
(1485365695.196165) can0 223#0000007FE000008C
(1485365695.196475) can0 0B4#00000000000000BC
(1485365695.196658) can0 224#0000000000000000
(1485365695.197790) can0 3A0#0000000000000013
(1485365695.200098) can0 4ED#5C00000000000000
(1485365695.205628) can0 0B2#000000000004
(1485365695.205754) can0 0B0#000000000004
(1485365695.208073) can0 2C4#040E00130000A295
(1485365695.212023) can0 260#0800010000FFF062
(1485365695.215672) can0 0B2#000000000005
(1485365695.215821) can0 0B0#000000000005
(1485365695.216159) can0 0B4#00000000000000BC
(1485365695.217124) can0 2C1#08FFCAFFC7000062
(1485365695.220002) can0 442#4002000003000000
(1485365695.225749) can0 0B2#000000000006
(1485365695.225886) can0 0B0#000000000006
(1485365695.226180) can0 223#0000007FE000008C
(1485365695.226467) can0 224#0000000000000000
(1485365695.227116) can0 2C4#040E00130000A295
(1485365695.227769) can0 4DC#1D00010900000000
(1485365695.232323) can0 260#0800000000000274
(1485365695.235721) can0 0B2#000000000007
(1485365695.235859) can0 0B0#000000000007
(1485365695.236214) can0 0B4#00000000000000BC
(1485365695.245649) can0 0B2#000000000008
(1485365695.245784) can0 0B0#000000000008
(1485365695.247149) can0 2C1#08FFC0FFC4000055
(1485365695.247312) can0 2C4#041000130000A297
(1485365695.252551) can0 260#0800010000000477
(1485365695.255799) can0 0B2#000000000009
(1485365695.255947) can0 0B0#000000000009
(1485365695.256254) can0 223#0000007FE000008C
(1485365695.256476) can0 0B4#00000000000000BC
(1485365695.256716) can0 224#0000000000000000
(1485365695.256990) can0 3B7#0000000000000000
(1485365695.265652) can0 0B2#00000000000A
(1485365695.265786) can0 0B0#00000000000A
(1485365695.267123) can0 2C4#040F00130000A296
(1485365695.267228) can0 3B3#040F00
(1485365695.267749) can0 3B0#0000003200
(1485365695.272627) can0 260#0800000000FFFB6C
(1485365695.275725) can0 0B2#00000000000B
(1485365695.275861) can0 0B0#00000000000B
(1485365695.276215) can0 0B4#00000000000000BC
(1485365695.277374) can0 2C1#08FFC4FFC0000055
(1485365695.285699) can0 0B2#00000000000C
(1485365695.285833) can0 0B0#00000000000C
(1485365695.286150) can0 223#0000007FE000008C
(1485365695.286477) can0 224#0000000000000000
(1485365695.287126) can0 2C4#040D00130000A294
(1485365695.292852) can0 260#0800010000FFF466
(1485365695.295699) can0 0B2#00000000000D
(1485365695.295853) can0 0B0#00000000000D
(1485365695.296159) can0 0B4#00000000000000BC
(1485365695.297799) can0 3A0#0000000000000014
(1485365695.305652) can0 0B2#00000000000E
(1485365695.305786) can0 0B0#00000000000E
(1485365695.307123) can0 2C1#08FFD0FFCA00006B
(1485365695.307303) can0 2C4#040C00130000A293
(1485365695.313048) can0 260#0800010000000477
(1485365695.315796) can0 0B2#00000000000F
(1485365695.315952) can0 0B0#00000000000F
(1485365695.316170) can0 223#0000007FE000008C
(1485365695.316468) can0 0B4#00000000000000BC
(1485365695.316718) can0 224#0000000000000000
(1485365695.317034) can0 4C3#0400300500000000
(1485365695.317368) can0 440#4202000007000000
(1485365695.325624) can0 0B2#000000000000
(1485365695.325787) can0 0B0#000000000000
(1485365695.327123) can0 2C4#040C00130000A293
(1485365695.327770) can0 380#00A0043000000300
(1485365695.333228) can0 260#0800010000000578
(1485365695.335698) can0 0B2#000000000001
(1485365695.335836) can0 0B0#000000000001
(1485365695.336211) can0 0B4#00000000000000BC
(1485365695.337147) can0 2C1#08FFDDFFD000007E
(1485365695.338347) can0 394#00
(1485365695.345677) can0 0B2#000000000002
(1485365695.345807) can0 0B0#000000000002
(1485365695.346114) can0 223#0000007FE000008C
(1485365695.346369) can0 224#0000000000000000
(1485365695.347142) can0 2C4#040A00130000A291
(1485365695.353252) can0 260#080001000000097C
(1485365695.355648) can0 0B2#000000000003
(1485365695.355808) can0 0B0#000000000003
(1485365695.356121) can0 0B4#00000000000000BC
(1485365695.365649) can0 0B2#000000000004
(1485365695.365787) can0 0B0#000000000004
(1485365695.367124) can0 2C1#08FFEAFFDA000095
(1485365695.367303) can0 2C4#040700130000A28E
(1485365695.373652) can0 260#0800000000FFF96A
(1485365695.375797) can0 0B2#000000000005
(1485365695.375947) can0 0B0#000000000005
(1485365695.376222) can0 223#0000007FE000008C
(1485365695.376463) can0 0B4#00000000000000BC
(1485365695.376714) can0 224#0000000000000000
(1485365695.385652) can0 0B2#000000000006
(1485365695.385785) can0 0B0#000000000006
(1485365695.387358) can0 2C4#040700130000A28E
(1485365695.393676) can0 260#0800010000FFF96B
(1485365695.395722) can0 0B2#000000000007
(1485365695.395858) can0 0B0#000000000007
(1485365695.396169) can0 0B4#00000000000000BC
(1485365695.397124) can0 2C1#08FFE7FFE700009F
(1485365695.397771) can0 3A0#0000000000000014
(1485365695.405677) can0 0B2#000000000008
(1485365695.405807) can0 0B0#000000000008
(1485365695.406116) can0 223#0000007FE000008C
(1485365695.406496) can0 224#0000000000000000
(1485365695.407160) can0 2C4#040800130000A28F
(1485365695.409003) can0 442#4002000003000000
(1485365695.414052) can0 260#0800000000FFF263
(1485365695.415698) can0 0B2#000000000009
(1485365695.415835) can0 0B0#000000000009
(1485365695.416165) can0 0B4#00000000000000BC
(1485365695.422832) can0 620#1000000030600050
(1485365695.425628) can0 0B2#00000000000A
(1485365695.425762) can0 0B0#00000000000A
(1485365695.427125) can0 2C1#08FFE0FFE4000095
(1485365695.427289) can0 2C4#040A00130000A291
(1485365695.434075) can0 260#080000000000087A
(1485365695.435750) can0 0B2#00000000000B
(1485365695.435887) can0 0B0#00000000000B
(1485365695.436184) can0 223#0000007FE000008C
(1485365695.436478) can0 0B4#00000000000000BC
(1485365695.436608) can0 224#0000000000000000
(1485365695.445580) can0 0B2#00000000000C
(1485365695.445710) can0 0B0#00000000000C
(1485365695.447252) can0 398#07E0
(1485365695.448022) can0 2C4#040C00130000A293
(1485365695.454504) can0 260#080001000000077A
(1485365695.455646) can0 0B2#00000000000D
(1485365695.455779) can0 0B0#00000000000D
(1485365695.456147) can0 0B4#00000000000000BC
(1485365695.457125) can0 2C1#08FFCDFFCA000068
(1485365695.465654) can0 0B2#00000000000E
(1485365695.465817) can0 0B0#00000000000E
(1485365695.466087) can0 223#0000007FE000008C
(1485365695.466370) can0 224#0000000000000000
(1485365695.467347) can0 2C4#041200130000A299
(1485365695.474651) can0 260#0800010000FFFE70
(1485365695.475647) can0 0B2#00000000000F
(1485365695.475779) can0 0B0#00000000000F
(1485365695.476122) can0 0B4#00000000000000BC
(1485365695.485579) can0 0B2#000000000000
(1485365695.485698) can0 0B0#000000000000
(1485365695.487151) can0 2C1#08FFBDFFBD00004B
(1485365695.487313) can0 2C4#041300130000A29A
(1485365695.494878) can0 260#0800000000FFF96A
(1485365695.495699) can0 0B2#000000000001
(1485365695.495835) can0 0B0#000000000001
(1485365695.496124) can0 223#0000007FE000008C
(1485365695.496357) can0 0B4#00000000000000BC
(1485365695.496640) can0 224#0000000000000000
(1485365695.497735) can0 3A0#0000000000000013
(1485365695.505536) can0 0B2#000000000002
(1485365695.505734) can0 0B0#000000000002
(1485365695.507110) can0 2C4#041200130000A299
(1485365695.507280) can0 440#4202000007000000
(1485365695.515055) can0 260#0800010000FFFB6D
(1485365695.515650) can0 0B2#000000000003
(1485365695.515771) can0 0B0#000000000003
(1485365695.516120) can0 0B4#00000000000000BC
(1485365695.517127) can0 2C1#08FFBDFFBA000048
(1485365695.525702) can0 0B2#000000000004
(1485365695.525835) can0 0B0#000000000004
(1485365695.526121) can0 223#0000007FE000008C
(1485365695.526478) can0 224#0000000000000000
(1485365695.527148) can0 2C4#041200130000A299
(1485365695.535275) can0 260#0800000000000476
(1485365695.535697) can0 0B2#000000000005
(1485365695.535853) can0 0B0#000000000005
(1485365695.536206) can0 0B4#00000000000000BC
(1485365695.545631) can0 0B2#000000000006
(1485365695.545794) can0 0B0#000000000006
(1485365695.547126) can0 2C1#08FFC0FFBA00004B
(1485365695.547292) can0 2C4#041100130000A298
(1485365695.555302) can0 260#0800000000FFF162
(1485365695.555728) can0 0B2#000000000007
(1485365695.555909) can0 0B0#000000000007
(1485365695.556186) can0 223#0000007FE000008C
(1485365695.556480) can0 0B4#00000000000000BC
(1485365695.556662) can0 224#0000000000000000
(1485365695.556987) can0 3B7#0000000000000000
(1485365695.565605) can0 0B2#000000000008
(1485365695.565738) can0 0B0#000000000008
(1485365695.567126) can0 2C4#041000130000A297
(1485365695.575701) can0 260#0800000000FFF162
(1485365695.575835) can0 0B2#000000000009
(1485365695.576100) can0 0B0#000000000009
(1485365695.576363) can0 0B4#00000000000000BC
(1485365695.578051) can0 2C1#08FFD4FFC4000069
(1485365695.585678) can0 0B2#00000000000A
(1485365695.585811) can0 0B0#00000000000A
(1485365695.586115) can0 223#0000007FE000008C
(1485365695.586480) can0 224#0000000000000000
(1485365695.587149) can0 2C4#040C00130000A293
(1485365695.587330) can0 621#1100000000000000
(1485365695.595679) can0 0B2#00000000000B
(1485365695.595825) can0 0B0#00000000000B
(1485365695.596119) can0 260#0800000000FFF566
(1485365695.596305) can0 0B4#00000000000000BC
(1485365695.597227) can0 622#1200000000000000
(1485365695.597711) can0 3A0#0000000000000013
(1485365695.599552) can0 442#4002000003000000
(1485365695.605606) can0 0B2#00000000000C
(1485365695.605736) can0 0B0#00000000000C
(1485365695.606501) can0 624#1A0057FFFF400000
(1485365695.607097) can0 2C1#08FFD7FFD0000078
(1485365695.607278) can0 2C4#040C00130000A293
(1485365695.615704) can0 630#1700000000000000
(1485365695.615837) can0 0B2#00000000000D
(1485365695.616088) can0 0B0#00000000000D
(1485365695.616324) can0 223#0000007FE000008C
(1485365695.616553) can0 0B4#00000000000000BC
(1485365695.616830) can0 224#0000000000000000
(1485365695.617085) can0 260#0800010000FFF668
(1485365695.624875) can0 638#1300110000000000
(1485365695.625601) can0 0B2#00000000000E
(1485365695.625738) can0 0B0#00000000000E
(1485365695.627126) can0 2C4#040E00130000A295
(1485365695.635619) can0 0B2#00000000000F
(1485365695.635813) can0 0B0#00000000000F
(1485365695.636065) can0 260#0800000000000274
(1485365695.636368) can0 0B4#00000000000000BC
(1485365695.637101) can0 2C1#08FFD0FFCD00006E
(1485365695.641404) can0 394#00
(1485365695.645688) can0 0B2#000000000000
(1485365695.645839) can0 0B0#000000000000
(1485365695.646122) can0 223#0000007FE000008C
(1485365695.646498) can0 224#0000000000000000
(1485365695.647388) can0 2C4#040E00130000A295
(1485365695.655704) can0 0B2#000000000001
(1485365695.655840) can0 0B0#000000000001
(1485365695.656163) can0 0B4#00000000000000BC
(1485365695.656480) can0 260#0800000000000375
(1485365695.665603) can0 0B2#000000000002
(1485365695.665747) can0 0B0#000000000002
(1485365695.667127) can0 2C1#08FFD0FFCD00006E
(1485365695.667299) can0 2C4#040E00130000A295
(1485365695.675777) can0 0B2#000000000003
(1485365695.675915) can0 0B0#000000000003
(1485365695.676206) can0 223#0000007FE000008C
(1485365695.676453) can0 0B4#00000000000000BC
(1485365695.676703) can0 224#0000000000000000
(1485365695.676952) can0 260#0800000000FFFA6B
(1485365695.679423) can0 610#2000006400000000
(1485365695.685606) can0 0B2#000000000004
(1485365695.685777) can0 0B0#000000000004
(1485365695.688280) can0 2C4#040E00130000A295
(1485365695.689428) can0 611#2100201200021DB5
(1485365695.695677) can0 0B2#000000000005
(1485365695.695830) can0 0B0#000000000005
(1485365695.696162) can0 0B4#00000000000000BC
(1485365695.696952) can0 440#4202000007000000
(1485365695.697125) can0 260#0800010000FFF769
(1485365695.697480) can0 2C1#08FFD0FFCD00006E
(1485365695.697737) can0 3A0#0000000000000014
(1485365695.699949) can0 640#A8000032020E0000
(1485365695.705627) can0 0B2#000000000006
(1485365695.705804) can0 0B0#000000000006
(1485365695.706078) can0 223#0000007FE000008C
(1485365695.706374) can0 224#0000000000000000
(1485365695.707144) can0 2C4#040E00130000A295
(1485365695.715653) can0 0B2#000000000007
(1485365695.715792) can0 0B0#000000000007
(1485365695.716122) can0 0B4#00000000000000BC
(1485365695.717253) can0 260#0800010000FFFF71
(1485365695.721795) can0 3B4#000036B800000000
(1485365695.722496) can0 620#1000000030600050
(1485365695.725655) can0 0B2#000000000008
(1485365695.725800) can0 0B0#000000000008
(1485365695.727130) can0 2C1#08FFD4FFCD000072
(1485365695.727287) can0 2C4#040D00130000A294
(1485365695.735753) can0 0B2#000000000009
(1485365695.735885) can0 0B0#000000000009
(1485365695.736163) can0 223#0000007FE000008C
(1485365695.736480) can0 0B4#00000000000000BC
(1485365695.736663) can0 224#0000000000000000
(1485365695.737501) can0 260#080000000000087A
(1485365695.745652) can0 0B2#00000000000A
(1485365695.745765) can0 0B0#00000000000A
(1485365695.747103) can0 2C4#040E00130000A295
(1485365695.755641) can0 0B2#00000000000B
(1485365695.755826) can0 0B0#00000000000B
(1485365695.756200) can0 0B4#00000000000000BC
(1485365695.757553) can0 2C1#08FFD0FFCD00006E
(1485365695.757718) can0 260#0800010000FFF365
(1485365695.765731) can0 0B2#00000000000C
(1485365695.765865) can0 0B0#00000000000C
(1485365695.766121) can0 223#0000007FE000008C
(1485365695.766498) can0 224#0000000000000000
(1485365695.767134) can0 2C4#040F00130000A296
(1485365695.767218) can0 3B3#040F00
(1485365695.775706) can0 0B2#00000000000D
(1485365695.775839) can0 0B0#00000000000D
(1485365695.776168) can0 0B4#00000000000000BC
(1485365695.777877) can0 260#0800000000000072
(1485365695.785628) can0 0B2#00000000000E
(1485365695.785765) can0 0B0#00000000000E
(1485365695.787128) can0 2C1#08FFCAFFC7000062
(1485365695.787294) can0 2C4#040F00130000A296
(1485365695.788431) can0 442#4002000003000000
(1485365695.795778) can0 0B2#00000000000F
(1485365695.795938) can0 0B0#00000000000F
(1485365695.796242) can0 223#0000007FE000008C
(1485365695.796427) can0 0B4#00000000000000BC
(1485365695.796724) can0 224#0000000000000000
(1485365695.797724) can0 3A0#0000000000000014
(1485365695.798098) can0 260#0800010000FFF769
(1485365695.805603) can0 0B2#000000000000
(1485365695.805739) can0 0B0#000000000000
(1485365695.807124) can0 2C4#040F00130000A296
(1485365695.815676) can0 0B2#000000000001
(1485365695.815803) can0 0B0#000000000001
(1485365695.816124) can0 0B4#00000000000000BC
(1485365695.817752) can0 2C1#08FFC0FFC7000058
(1485365695.818222) can0 260#0800010000FFFC6E
(1485365695.821632) can0 38A#0804000000
(1485365695.825756) can0 0B2#000000000002
(1485365695.825887) can0 0B0#000000000002
(1485365695.826144) can0 223#0000007FE000008C
(1485365695.826498) can0 224#0000000000000000
(1485365695.827106) can0 2C4#041100130000A298
(1485365695.833253) can0 4C8#0900010700000000
(1485365695.835703) can0 0B2#000000000003
(1485365695.835839) can0 0B0#000000000003
(1485365695.836171) can0 0B4#00000000000000BC
(1485365695.838503) can0 260#0800010000000578
(1485365695.845631) can0 0B2#000000000004
(1485365695.845766) can0 0B0#000000000004
(1485365695.847104) can0 2C1#08FFBAFFBD000048
(1485365695.847268) can0 2C4#041300130000A29A
(1485365695.855779) can0 0B2#000000000005
(1485365695.855907) can0 0B0#000000000005
(1485365695.856213) can0 223#0000007FE000008C
(1485365695.856462) can0 0B4#00000000000000BC
(1485365695.856701) can0 224#0000000000000000
(1485365695.857002) can0 3B7#0000000000000000
(1485365695.857211) can0 4C1#0100500500000000
(1485365695.858690) can0 260#0800010000FFF96B
(1485365695.865479) can0 0B2#000000000006
(1485365695.865687) can0 0B0#000000000006
(1485365695.867337) can0 2C4#041400130000A29B
(1485365695.875573) can0 0B2#000000000007
(1485365695.875771) can0 0B0#000000000007
(1485365695.876071) can0 0B4#00000000000000BC
(1485365695.877025) can0 2C1#08FFB0FFB4000035
(1485365695.878870) can0 260#0800000000FFF96A
(1485365695.885671) can0 0B2#000000000008
(1485365695.885870) can0 0B0#000000000008
(1485365695.886121) can0 223#0000007FE000008C
(1485365695.886443) can0 224#0000000000000000
(1485365695.886670) can0 440#4202000007000000
(1485365695.887071) can0 2C4#041500130000A29C
(1485365695.895647) can0 0B2#000000000009
(1485365695.895871) can0 0B0#000000000009
(1485365695.896145) can0 0B4#00000000000000BC
(1485365695.897671) can0 3A0#0000000000000014
(1485365695.899046) can0 260#0800010000000C7F
(1485365695.905571) can0 0B2#00000000000A
(1485365695.905796) can0 0B0#00000000000A
(1485365695.907044) can0 2C1#08FFB0FFAD00002E
(1485365695.907271) can0 2C4#041500130000A29C
(1485365695.915719) can0 0B2#00000000000B
(1485365695.915919) can0 0B0#00000000000B
(1485365695.916170) can0 223#0000007FE000008C
(1485365695.916444) can0 0B4#00000000000000BC
(1485365695.916670) can0 224#0000000000000000
(1485365695.919296) can0 260#080001000000097C
(1485365695.925546) can0 0B2#00000000000C
(1485365695.925746) can0 0B0#00000000000C
(1485365695.927920) can0 2C4#041200130000A299
(1485365695.935594) can0 0B2#00000000000D
(1485365695.935819) can0 0B0#00000000000D
(1485365695.936119) can0 0B4#00000000000000BC
(1485365695.937046) can0 2C1#08FFBAFFBA000045
(1485365695.939468) can0 260#0800000000000072
(1485365695.944174) can0 394#00
(1485365695.945593) can0 0B2#00000000000E
(1485365695.945794) can0 0B0#00000000000E
(1485365695.946044) can0 223#0000007FE000008C
(1485365695.946341) can0 224#0000000000000000
(1485365695.947146) can0 2C4#040E00130000A295
(1485365695.955595) can0 0B2#00000000000F
(1485365695.955794) can0 0B0#00000000000F
(1485365695.956091) can0 0B4#00000000000000BC
(1485365695.959659) can0 260#0800010000000376
(1485365695.965509) can0 0B2#000000000000
(1485365695.965732) can0 0B0#000000000000
(1485365695.967060) can0 2C1#08FFCDFFC7000065
(1485365695.967309) can0 2C4#040C00130000A293
(1485365695.975661) can0 0B2#000000000001
(1485365695.975885) can0 0B0#000000000001
(1485365695.976108) can0 223#0000007FE000008C
(1485365695.976355) can0 0B4#00000000000000BC
(1485365695.976607) can0 224#0000000000000000
(1485365695.978686) can0 442#4002000003000000
(1485365695.979934) can0 260#0800010000000275
(1485365695.985509) can0 0B2#000000000002
(1485365695.985732) can0 0B0#000000000002
(1485365695.987060) can0 2C4#040C00130000A293
(1485365695.995587) can0 0B2#000000000003
(1485365695.995743) can0 0B0#000000000003
(1485365695.996085) can0 0B4#00000000000000BC
(1485365695.997047) can0 2C1#08FFCDFFCA000068
(1485365695.997671) can0 3A0#0000000000000014
(1485365696.000095) can0 260#0800010000FFFE70
(1485365696.005546) can0 0B2#000000000004
(1485365696.005796) can0 0B0#000000000004
(1485365696.006046) can0 223#0000007FE000008C
(1485365696.006321) can0 224#0000000000000000
(1485365696.007072) can0 2C4#040A00130000A291
(1485365696.014696) can0 3B1#0000022A00000000
(1485365696.015569) can0 0B2#000000000005
(1485365696.015797) can0 0B0#000000000005
(1485365696.016071) can0 0B4#00000000000000BC
(1485365696.020284) can0 260#0800010000000073
(1485365696.022036) can0 620#1000000030600050
(1485365696.025586) can0 0B2#000000000006
(1485365696.025786) can0 0B0#000000000006
(1485365696.027061) can0 2C1#08FFE7FFD400008C
(1485365696.027310) can0 2C4#040700130000A28E
(1485365696.035686) can0 0B2#000000000007
(1485365696.035885) can0 0B0#000000000007
(1485365696.036135) can0 223#0000007FE000008C
(1485365696.036385) can0 0B4#00000000000000BC
(1485365696.036636) can0 224#0000000000000000
(1485365696.040536) can0 260#080000000000097B
(1485365696.045587) can0 0B2#000000000008
(1485365696.045785) can0 0B0#000000000008
(1485365696.047060) can0 2C4#040800130000A28F
(1485365696.055638) can0 0B2#000000000009
(1485365696.055858) can0 0B0#000000000009
(1485365696.056158) can0 0B4#00000000000000BC
(1485365696.058258) can0 2C1#08FFE4FFE0000095
(1485365696.060712) can0 260#0800000000FFF768
(1485365696.065610) can0 0B2#00000000000A
(1485365696.065834) can0 0B0#00000000000A
(1485365696.066083) can0 223#0000007FE000008C
(1485365696.066384) can0 224#0000000000000000
(1485365696.067061) can0 2C4#040A00130000A291
(1485365696.075611) can0 0B2#00000000000B
(1485365696.075809) can0 0B0#00000000000B
(1485365696.076106) can0 0B4#00000000000000BC
(1485365696.076446) can0 440#4202000007000000
(1485365696.080873) can0 260#0800000000000C7E
(1485365696.085524) can0 0B2#00000000000C
(1485365696.085720) can0 0B0#00000000000C
(1485365696.087047) can0 2C1#08FFDAFFD7000082
(1485365696.087297) can0 2C4#040B00130000A292
